User : 14 2 options.c:60 configuration_output_handler(): debug_level: 3
User : 15 2 options.c:60 configuration_output_handler(): 
Debug: 16 2 options.c:184 add_default_dirs(): bindir=/usr/local/bin
Debug: 17 2 options.c:185 add_default_dirs(): pkgdatadir=/usr/local/share/openocd
Debug: 18 2 options.c:186 add_default_dirs(): exepath=/usr/local/bin
Debug: 19 2 options.c:187 add_default_dirs(): bin2data=../share/openocd
Debug: 20 2 configuration.c:42 add_script_search_dir(): adding /root/.openocd
Debug: 21 2 configuration.c:42 add_script_search_dir(): adding /usr/local/bin/../share/openocd/site
Debug: 22 2 configuration.c:42 add_script_search_dir(): adding /usr/local/bin/../share/openocd/scripts
Debug: 23 2 configuration.c:97 find_file(): found pulpissimo-zcu102/openocd-zcu102-digilent-jtag-hs2.cfg
Debug: 24 2 command.c:143 script_debug(): command - adapter_khz adapter_khz 1000
Debug: 26 3 core.c:1636 jtag_config_khz(): handle jtag khz
Debug: 27 3 core.c:1599 adapter_khz_to_speed(): convert khz to interface specific speed value
Debug: 28 3 core.c:1599 adapter_khz_to_speed(): convert khz to interface specific speed value
Debug: 29 3 command.c:143 script_debug(): command - interface interface ftdi
Debug: 31 3 command.c:355 register_command_handler(): registering 'ftdi_device_desc'...
Debug: 32 3 command.c:355 register_command_handler(): registering 'ftdi_serial'...
Debug: 33 3 command.c:355 register_command_handler(): registering 'ftdi_channel'...
Debug: 34 3 command.c:355 register_command_handler(): registering 'ftdi_layout_init'...
Debug: 35 3 command.c:355 register_command_handler(): registering 'ftdi_layout_signal'...
Debug: 36 3 command.c:355 register_command_handler(): registering 'ftdi_set_signal'...
Debug: 37 3 command.c:355 register_command_handler(): registering 'ftdi_get_signal'...
Debug: 38 3 command.c:355 register_command_handler(): registering 'ftdi_vid_pid'...
Debug: 39 3 command.c:355 register_command_handler(): registering 'ftdi_tdo_sample_edge'...
Debug: 40 3 command.c:355 register_command_handler(): registering 'ftdi_oscan1_mode'...
Debug: 41 3 command.c:143 script_debug(): command - ftdi_vid_pid ftdi_vid_pid 0x0403 0x6014
Debug: 43 3 command.c:143 script_debug(): command - ftdi_channel ftdi_channel 0
Debug: 45 3 command.c:143 script_debug(): command - ftdi_layout_init ftdi_layout_init 0x00e8 0x60eb
Debug: 47 3 command.c:143 script_debug(): command - transport transport select
Info : 48 3 transport.c:285 jim_transport_select(): auto-selecting first available session transport "jtag". To override use 'transport select <transport>'.
Debug: 49 3 command.c:355 register_command_handler(): registering 'jtag_flush_queue_sleep'...
Debug: 50 3 command.c:355 register_command_handler(): registering 'jtag_rclk'...
Debug: 51 3 command.c:355 register_command_handler(): registering 'jtag_ntrst_delay'...
Debug: 52 3 command.c:355 register_command_handler(): registering 'jtag_ntrst_assert_width'...
Debug: 53 3 command.c:355 register_command_handler(): registering 'scan_chain'...
Debug: 54 3 command.c:355 register_command_handler(): registering 'jtag_reset'...
Debug: 55 3 command.c:355 register_command_handler(): registering 'runtest'...
Debug: 56 3 command.c:355 register_command_handler(): registering 'irscan'...
Debug: 57 3 command.c:355 register_command_handler(): registering 'verify_ircapture'...
Debug: 58 3 command.c:355 register_command_handler(): registering 'verify_jtag'...
Debug: 59 3 command.c:355 register_command_handler(): registering 'tms_sequence'...
Debug: 60 3 command.c:355 register_command_handler(): registering 'wait_srst_deassert'...
Debug: 61 3 command.c:355 register_command_handler(): registering 'jtag'...
Debug: 62 3 command.c:355 register_command_handler(): registering 'jtag'...
Debug: 63 3 command.c:355 register_command_handler(): registering 'jtag'...
Debug: 64 3 command.c:355 register_command_handler(): registering 'jtag'...
Debug: 65 3 command.c:355 register_command_handler(): registering 'jtag'...
Debug: 66 3 command.c:355 register_command_handler(): registering 'jtag'...
Debug: 67 3 command.c:355 register_command_handler(): registering 'jtag'...
Debug: 68 3 command.c:355 register_command_handler(): registering 'jtag'...
Debug: 69 3 command.c:355 register_command_handler(): registering 'jtag'...
Debug: 70 3 command.c:355 register_command_handler(): registering 'jtag'...
Debug: 71 3 command.c:355 register_command_handler(): registering 'jtag'...
Debug: 72 3 command.c:355 register_command_handler(): registering 'jtag'...
Debug: 73 3 command.c:355 register_command_handler(): registering 'jtag'...
Debug: 74 3 command.c:355 register_command_handler(): registering 'svf'...
Debug: 75 3 command.c:355 register_command_handler(): registering 'xsvf'...
Debug: 76 3 command.c:143 script_debug(): command - transport transport select
Debug: 77 3 command.c:143 script_debug(): command - jtag jtag newtap riscv unknown0 -irlen 5 -expected-id 0x5fffedb3
Debug: 78 3 tcl.c:566 jim_newtap_cmd(): Creating New Tap, Chip: riscv, Tap: unknown0, Dotted: riscv.unknown0, 4 params
Debug: 79 3 tcl.c:591 jim_newtap_cmd(): Processing option: -irlen
Debug: 80 3 tcl.c:591 jim_newtap_cmd(): Processing option: -expected-id
Debug: 81 3 core.c:1300 jtag_tap_init(): Created Tap: riscv.unknown0 @ abs position 0, irlen 5, capture: 0x1 mask: 0x3
Debug: 82 3 command.c:143 script_debug(): command - jtag jtag newtap riscv cpu -irlen 5 -expected-id 0x50001db3
Debug: 83 3 tcl.c:566 jim_newtap_cmd(): Creating New Tap, Chip: riscv, Tap: cpu, Dotted: riscv.cpu, 4 params
Debug: 84 3 tcl.c:591 jim_newtap_cmd(): Processing option: -irlen
Debug: 85 3 tcl.c:591 jim_newtap_cmd(): Processing option: -expected-id
Debug: 86 3 core.c:1300 jtag_tap_init(): Created Tap: riscv.cpu @ abs position 1, irlen 5, capture: 0x1 mask: 0x3
Debug: 87 3 command.c:143 script_debug(): command - target target create riscv.cpu riscv -chain-position riscv.cpu -coreid 0x3e0
Debug: 88 3 target.c:1966 target_free_all_working_areas_restore(): freeing all working areas
Debug: 89 3 command.c:355 register_command_handler(): registering 'riscv'...
Debug: 90 3 command.c:355 register_command_handler(): registering 'riscv'...
Debug: 91 3 command.c:355 register_command_handler(): registering 'riscv'...
Debug: 92 3 command.c:355 register_command_handler(): registering 'riscv'...
Debug: 93 3 command.c:355 register_command_handler(): registering 'riscv'...
Debug: 94 3 command.c:355 register_command_handler(): registering 'riscv'...
Debug: 95 3 command.c:355 register_command_handler(): registering 'riscv'...
Debug: 96 3 command.c:355 register_command_handler(): registering 'riscv'...
Debug: 97 3 command.c:355 register_command_handler(): registering 'riscv'...
Debug: 98 3 command.c:355 register_command_handler(): registering 'riscv'...
Debug: 99 3 command.c:355 register_command_handler(): registering 'riscv'...
Debug: 100 3 command.c:355 register_command_handler(): registering 'riscv'...
Debug: 101 3 command.c:355 register_command_handler(): registering 'riscv'...
Debug: 102 3 command.c:355 register_command_handler(): registering 'riscv'...
Debug: 103 3 command.c:355 register_command_handler(): registering 'riscv'...
Debug: 104 3 command.c:355 register_command_handler(): registering 'riscv'...
Debug: 105 3 command.c:355 register_command_handler(): registering 'arm'...
Debug: 106 3 command.c:355 register_command_handler(): registering 'arm'...
Debug: 107 3 command.c:355 register_command_handler(): registering 'arm'...
Debug: 108 3 command.c:355 register_command_handler(): registering 'arm'...
Debug: 109 3 command.c:355 register_command_handler(): registering 'riscv.cpu'...
Debug: 110 3 command.c:355 register_command_handler(): registering 'riscv.cpu'...
Debug: 111 3 command.c:355 register_command_handler(): registering 'riscv.cpu'...
Debug: 112 3 command.c:355 register_command_handler(): registering 'riscv.cpu'...
Debug: 113 3 command.c:355 register_command_handler(): registering 'riscv.cpu'...
Debug: 114 3 command.c:355 register_command_handler(): registering 'riscv.cpu'...
Debug: 115 3 command.c:355 register_command_handler(): registering 'riscv.cpu'...
Debug: 116 3 command.c:355 register_command_handler(): registering 'riscv.cpu'...
Debug: 117 3 command.c:355 register_command_handler(): registering 'riscv.cpu'...
Debug: 118 3 command.c:355 register_command_handler(): registering 'riscv.cpu'...
Debug: 119 3 command.c:355 register_command_handler(): registering 'riscv.cpu'...
Debug: 120 3 command.c:355 register_command_handler(): registering 'riscv.cpu'...
Debug: 121 3 command.c:355 register_command_handler(): registering 'riscv.cpu'...
Debug: 122 3 command.c:355 register_command_handler(): registering 'riscv.cpu'...
Debug: 123 3 command.c:355 register_command_handler(): registering 'riscv.cpu'...
Debug: 124 3 command.c:355 register_command_handler(): registering 'riscv.cpu'...
Debug: 125 3 command.c:355 register_command_handler(): registering 'riscv.cpu'...
Debug: 126 3 command.c:355 register_command_handler(): registering 'riscv.cpu'...
Debug: 127 3 command.c:355 register_command_handler(): registering 'riscv.cpu'...
Debug: 128 3 command.c:355 register_command_handler(): registering 'riscv.cpu'...
Debug: 129 3 command.c:355 register_command_handler(): registering 'riscv.cpu'...
Debug: 130 3 command.c:355 register_command_handler(): registering 'riscv.cpu'...
Debug: 131 3 command.c:355 register_command_handler(): registering 'riscv.cpu'...
Debug: 132 3 command.c:355 register_command_handler(): registering 'riscv.cpu'...
Debug: 133 3 command.c:355 register_command_handler(): registering 'riscv.cpu'...
Debug: 134 3 command.c:355 register_command_handler(): registering 'riscv.cpu'...
Debug: 135 3 command.c:355 register_command_handler(): registering 'riscv.cpu'...
Debug: 136 4 command.c:355 register_command_handler(): registering 'riscv.cpu'...
Debug: 137 4 command.c:355 register_command_handler(): registering 'riscv.cpu'...
Debug: 138 4 command.c:355 register_command_handler(): registering 'riscv.cpu'...
Debug: 139 4 command.c:355 register_command_handler(): registering 'riscv.cpu'...
Debug: 140 4 command.c:355 register_command_handler(): registering 'riscv.cpu'...
Debug: 141 4 command.c:355 register_command_handler(): registering 'riscv.cpu'...
Debug: 142 4 command.c:355 register_command_handler(): registering 'riscv.cpu'...
Debug: 143 4 command.c:355 register_command_handler(): registering 'riscv.cpu'...
Debug: 144 4 command.c:355 register_command_handler(): registering 'riscv.cpu'...
Debug: 145 4 command.c:355 register_command_handler(): registering 'riscv.cpu'...
Debug: 146 4 command.c:355 register_command_handler(): registering 'riscv.cpu'...
Debug: 147 4 command.c:355 register_command_handler(): registering 'riscv.cpu'...
Debug: 148 4 command.c:355 register_command_handler(): registering 'riscv.cpu'...
Debug: 149 4 command.c:355 register_command_handler(): registering 'riscv.cpu'...
Debug: 150 4 command.c:355 register_command_handler(): registering 'riscv.cpu'...
Debug: 151 4 command.c:355 register_command_handler(): registering 'riscv.cpu'...
Debug: 152 4 command.c:355 register_command_handler(): registering 'riscv.cpu'...
Debug: 153 4 command.c:355 register_command_handler(): registering 'riscv.cpu'...
Debug: 154 4 command.c:143 script_debug(): command - gdb_report_data_abort gdb_report_data_abort enable
Debug: 156 4 command.c:143 script_debug(): command - gdb_report_register_access_error gdb_report_register_access_error enable
Debug: 158 4 command.c:143 script_debug(): command - riscv riscv set_reset_timeout_sec 120
Debug: 160 4 command.c:143 script_debug(): command - riscv riscv set_command_timeout_sec 120
Debug: 162 4 command.c:143 script_debug(): command - riscv riscv set_prefer_sba on
Debug: 164 4 command.c:143 script_debug(): command - scan_chain scan_chain
Debug: 166 4 command.c:143 script_debug(): command - init init
Debug: 168 4 command.c:143 script_debug(): command - target target init
Debug: 170 4 command.c:143 script_debug(): command - target target names
Debug: 171 4 command.c:143 script_debug(): command - riscv.cpu riscv.cpu cget -event gdb-flash-erase-start
Debug: 172 4 command.c:143 script_debug(): command - riscv.cpu riscv.cpu configure -event gdb-flash-erase-start reset init
Debug: 173 4 command.c:143 script_debug(): command - riscv.cpu riscv.cpu cget -event gdb-flash-write-end
Debug: 174 4 command.c:143 script_debug(): command - riscv.cpu riscv.cpu configure -event gdb-flash-write-end reset halt
Debug: 175 4 command.c:143 script_debug(): command - riscv.cpu riscv.cpu cget -event gdb-attach
Debug: 176 4 command.c:143 script_debug(): command - riscv.cpu riscv.cpu configure -event gdb-attach halt
Debug: 177 4 target.c:1428 handle_target_init_command(): Initializing targets...
Debug: 178 4 riscv.c:430 riscv_init_target(): riscv_init_target()
Debug: 179 36 semihosting_common.c:97 semihosting_common_init():  
Debug: 180 36 command.c:355 register_command_handler(): registering 'target_request'...
Debug: 181 36 command.c:355 register_command_handler(): registering 'trace'...
Debug: 182 36 command.c:355 register_command_handler(): registering 'trace'...
Debug: 183 36 command.c:355 register_command_handler(): registering 'fast_load_image'...
Debug: 184 36 command.c:355 register_command_handler(): registering 'fast_load'...
Debug: 185 36 command.c:355 register_command_handler(): registering 'profile'...
Debug: 186 36 command.c:355 register_command_handler(): registering 'virt2phys'...
Debug: 187 36 command.c:355 register_command_handler(): registering 'reg'...
Debug: 188 36 command.c:355 register_command_handler(): registering 'poll'...
Debug: 189 36 command.c:355 register_command_handler(): registering 'wait_halt'...
Debug: 190 36 command.c:355 register_command_handler(): registering 'halt'...
Debug: 191 36 command.c:355 register_command_handler(): registering 'resume'...
Debug: 192 36 command.c:355 register_command_handler(): registering 'reset'...
Debug: 193 36 command.c:355 register_command_handler(): registering 'soft_reset_halt'...
Debug: 194 36 command.c:355 register_command_handler(): registering 'step'...
Debug: 195 36 command.c:355 register_command_handler(): registering 'mdd'...
Debug: 196 36 command.c:355 register_command_handler(): registering 'mdw'...
Debug: 197 36 command.c:355 register_command_handler(): registering 'mdh'...
Debug: 198 36 command.c:355 register_command_handler(): registering 'mdb'...
Debug: 199 36 command.c:355 register_command_handler(): registering 'mwd'...
Debug: 200 36 command.c:355 register_command_handler(): registering 'mww'...
Debug: 201 36 command.c:355 register_command_handler(): registering 'mwh'...
Debug: 202 36 command.c:355 register_command_handler(): registering 'mwb'...
Debug: 203 36 command.c:355 register_command_handler(): registering 'bp'...
Debug: 204 36 command.c:355 register_command_handler(): registering 'rbp'...
Debug: 205 36 command.c:355 register_command_handler(): registering 'wp'...
Debug: 206 36 command.c:355 register_command_handler(): registering 'rwp'...
Debug: 207 36 command.c:355 register_command_handler(): registering 'load_image'...
Debug: 208 36 command.c:355 register_command_handler(): registering 'dump_image'...
Debug: 209 36 command.c:355 register_command_handler(): registering 'verify_image_checksum'...
Debug: 210 36 command.c:355 register_command_handler(): registering 'verify_image'...
Debug: 211 36 command.c:355 register_command_handler(): registering 'test_image'...
Debug: 212 36 command.c:355 register_command_handler(): registering 'reset_nag'...
Debug: 213 36 command.c:355 register_command_handler(): registering 'ps'...
Debug: 214 36 command.c:355 register_command_handler(): registering 'test_mem_access'...
Debug: 215 36 ftdi.c:728 ftdi_initialize(): ftdi interface using shortest path jtag state transitions
Debug: 216 41 mpsse.c:425 mpsse_purge(): -
Debug: 217 41 mpsse.c:706 mpsse_loopback_config(): off
Debug: 218 41 mpsse.c:751 mpsse_set_frequency(): target 1000000 Hz
Debug: 219 41 mpsse.c:743 mpsse_rtck_config(): off
Debug: 220 41 mpsse.c:732 mpsse_divide_by_5_config(): off
Debug: 221 41 mpsse.c:712 mpsse_set_divisor(): 29
Debug: 222 41 mpsse.c:775 mpsse_set_frequency(): actually 1000000 Hz
Debug: 223 42 core.c:1599 adapter_khz_to_speed(): convert khz to interface specific speed value
Debug: 224 42 core.c:1603 adapter_khz_to_speed(): have interface set up
Debug: 225 42 mpsse.c:751 mpsse_set_frequency(): target 1000000 Hz
Debug: 226 42 mpsse.c:743 mpsse_rtck_config(): off
Debug: 227 42 mpsse.c:732 mpsse_divide_by_5_config(): off
Debug: 228 42 mpsse.c:712 mpsse_set_divisor(): 29
Debug: 229 42 mpsse.c:775 mpsse_set_frequency(): actually 1000000 Hz
Debug: 230 42 core.c:1599 adapter_khz_to_speed(): convert khz to interface specific speed value
Debug: 231 42 core.c:1603 adapter_khz_to_speed(): have interface set up
Info : 232 42 core.c:1381 adapter_init(): clock speed 1000 kHz
Debug: 233 42 openocd.c:141 handle_init_command(): Debug Adapter init complete
Debug: 234 42 command.c:143 script_debug(): command - transport transport init
Debug: 236 42 transport.c:239 handle_transport_init(): handle_transport_init
Debug: 237 42 core.c:729 jtag_add_reset(): SRST line released
Debug: 238 42 core.c:753 jtag_add_reset(): TRST line released
Debug: 239 42 core.c:327 jtag_call_event_callbacks(): jtag event: TAP reset
Debug: 240 42 command.c:143 script_debug(): command - jtag jtag arp_init
Debug: 241 42 core.c:1394 jtag_init_inner(): Init JTAG chain
Debug: 242 42 core.c:327 jtag_call_event_callbacks(): jtag event: TAP reset
Debug: 243 42 core.c:1060 jtag_examine_chain(): DR scan interrogation for IDCODE/BYPASS
Debug: 244 42 core.c:327 jtag_call_event_callbacks(): jtag event: TAP reset
Info : 245 43 core.c:959 jtag_examine_chain_display(): JTAG tap: riscv.unknown0 tap/device found: 0x5fffedb3 (mfg: 0x6d9 (<unknown>), part: 0xfffe, ver: 0x5)
Info : 246 43 core.c:959 jtag_examine_chain_display(): JTAG tap: riscv.cpu tap/device found: 0x50001db3 (mfg: 0x6d9 (<unknown>), part: 0x0001, ver: 0x5)
Debug: 247 43 core.c:1190 jtag_validate_ircapture(): IR capture validation scan
Debug: 248 43 core.c:1247 jtag_validate_ircapture(): riscv.unknown0: IR capture 0x05
Debug: 249 43 core.c:1247 jtag_validate_ircapture(): riscv.cpu: IR capture 0x05
Debug: 250 44 command.c:143 script_debug(): command - dap dap init
Debug: 252 44 arm_dap.c:105 dap_init_all(): Initializing all DAPs ...
Debug: 253 44 openocd.c:158 handle_init_command(): Examining targets...
Debug: 254 44 target.c:1614 target_call_event_callbacks(): target event 17 (examine-start) for core riscv.cpu
Debug: 255 44 riscv.c:972 riscv_examine(): riscv_examine()
Debug: 256 44 riscv.c:402 dtmcontrol_scan(): DTMCONTROL: 0x0 -> 0x1071
Debug: 257 44 riscv.c:982 riscv_examine(): dtmcontrol=0x1071
Debug: 258 44 riscv.c:984 riscv_examine():   version=0x1
Debug: 259 44 riscv-013.c:1756 init_target(): init
Debug: 260 44 riscv-013.c:452 dtmcontrol_scan(): DTMCS: 0x0 -> 0x1071
Debug: 261 44 riscv-013.c:1472 examine(): dtmcontrol=0x1071
Debug: 262 44 riscv-013.c:1473 examine():   dmireset=0
Debug: 263 44 riscv-013.c:1474 examine():   idle=1
Debug: 264 44 riscv-013.c:1475 examine():   dmistat=0
Debug: 265 44 riscv-013.c:1476 examine():   abits=7
Debug: 266 44 riscv-013.c:1477 examine():   version=1
Debug: 267 44 riscv-013.c:263 get_dm(): [992] Allocating new DM
Debug: 268 44 riscv-013.c:397 scan(): 41b 0i w 00000000 @10 -> + 00000000 @00
Debug: 269 44 riscv-013.c:397 scan(): 41b 0i - 00000000 @10 -> + 00000000 @10
Debug: 270 45 riscv-013.c:397 scan(): 41b 0i w 00000001 @10 -> + 00000000 @10
Debug: 271 45 riscv-013.c:408 scan():  dmactive -> 
Debug: 272 45 riscv-013.c:397 scan(): 41b 0i - 00000000 @10 -> + 00000001 @10
Debug: 273 45 riscv-013.c:408 scan():  ->  dmactive
Debug: 274 45 riscv-013.c:397 scan(): 41b 0i w 07ffffc1 @10 -> + 00000000 @10
Debug: 275 45 riscv-013.c:408 scan():  hasel hartselhi=1023 hartsello=1023 dmactive -> 
Debug: 276 45 riscv-013.c:397 scan(): 41b 0i - 00000000 @10 -> + 07ffffc1 @10
Debug: 277 46 riscv-013.c:408 scan():  ->  hasel hartselhi=1023 hartsello=1023 dmactive
Debug: 278 46 riscv-013.c:397 scan(): 41b 0i r 00000000 @10 -> + 00000000 @10
Debug: 279 46 riscv-013.c:397 scan(): 41b 0i - 00000000 @10 -> b 00000000 @10
Debug: 280 46 riscv-013.c:461 increase_dmi_busy_delay(): dtmcs_idle=1, dmi_busy_delay=1, ac_busy_delay=0
Debug: 281 46 riscv-013.c:452 dtmcontrol_scan(): DTMCS: 0x10000 -> 0x1c71
Debug: 282 47 riscv-013.c:397 scan(): 41b 1i - 00000000 @10 -> + 03ffffc1 @10
Debug: 283 47 riscv-013.c:408 scan():  ->  hartselhi=1023 hartsello=1023 dmactive
Debug: 284 47 riscv-013.c:397 scan(): 41b 1i r 00000000 @11 -> + 00000000 @10
Debug: 285 47 riscv-013.c:397 scan(): 41b 1i - 00000000 @11 -> b 00000000 @11
Debug: 286 47 riscv-013.c:461 increase_dmi_busy_delay(): dtmcs_idle=1, dmi_busy_delay=2, ac_busy_delay=0
Debug: 287 47 riscv-013.c:452 dtmcontrol_scan(): DTMCS: 0x10000 -> 0x1c71
Debug: 288 48 riscv-013.c:397 scan(): 41b 2i - 00000000 @11 -> + 0000f082 @11
Debug: 289 48 riscv-013.c:408 scan():  ->  allnonexistent anynonexistent allunavail anyunavail authenticated version=2
Debug: 290 48 riscv-013.c:1520 examine(): dmstatus:  0x0000f082
Debug: 291 48 riscv-013.c:1536 examine(): hartsellen=20
Debug: 292 48 riscv-013.c:397 scan(): 41b 2i r 00000000 @12 -> + 00000000 @11
Debug: 293 48 riscv-013.c:397 scan(): 41b 2i - 00000000 @12 -> b 00000000 @12
Debug: 294 48 riscv-013.c:461 increase_dmi_busy_delay(): dtmcs_idle=1, dmi_busy_delay=3, ac_busy_delay=0
Debug: 295 48 riscv-013.c:452 dtmcontrol_scan(): DTMCS: 0x10000 -> 0x1c71
Debug: 296 49 riscv-013.c:397 scan(): 41b 3i - 00000000 @12 -> + 00212380 @12
Debug: 297 49 riscv-013.c:397 scan(): 41b 3i r 00000000 @38 -> + 00000000 @12
Debug: 298 49 riscv-013.c:397 scan(): 41b 3i - 00000000 @38 -> b 00000000 @38
Debug: 299 49 riscv-013.c:461 increase_dmi_busy_delay(): dtmcs_idle=1, dmi_busy_delay=4, ac_busy_delay=0
Debug: 300 49 riscv-013.c:452 dtmcontrol_scan(): DTMCS: 0x10000 -> 0x1c71
Debug: 301 50 riscv-013.c:397 scan(): 41b 4i - 00000000 @38 -> + 20040407 @38
Debug: 302 50 riscv-013.c:408 scan():  ->  sbversion=1 sbaccess=2 sbasize=32 sbaccess32 sbaccess16 sbaccess8
Debug: 303 50 riscv-013.c:397 scan(): 41b 4i r 00000000 @16 -> + 00000000 @38
Debug: 304 50 riscv-013.c:397 scan(): 41b 4i - 00000000 @16 -> + 08000002 @16
Debug: 305 50 riscv-013.c:408 scan():  ->  progbufsize=8 datacount=2
Info : 306 50 riscv-013.c:1567 examine(): datacount=2 progbufsize=8
Debug: 307 51 riscv-013.c:397 scan(): 41b 4i r 00000000 @10 -> + 00000000 @16
Debug: 308 51 riscv-013.c:397 scan(): 41b 4i - 00000000 @10 -> + 03ffffc1 @10
Debug: 309 51 riscv-013.c:408 scan():  ->  hartselhi=1023 hartsello=1023 dmactive
Debug: 310 51 riscv-013.c:397 scan(): 41b 4i w 00000001 @10 -> + 00000000 @10
Debug: 311 51 riscv-013.c:408 scan():  dmactive -> 
Debug: 312 52 riscv-013.c:397 scan(): 41b 4i - 00000000 @10 -> + 00000001 @10
Debug: 313 52 riscv-013.c:408 scan():  ->  dmactive
Debug: 314 52 riscv-013.c:397 scan(): 41b 4i r 00000000 @11 -> + 00000000 @10
Debug: 315 52 riscv-013.c:397 scan(): 41b 4i - 00000000 @11 -> + 00000c82 @11
Debug: 316 52 riscv-013.c:408 scan():  ->  allrunning anyrunning authenticated version=2
Debug: 317 52 riscv-013.c:397 scan(): 41b 4i r 00000000 @10 -> + 00000000 @11
Debug: 318 52 riscv-013.c:397 scan(): 41b 4i - 00000000 @10 -> + 00000001 @10
Debug: 319 52 riscv-013.c:408 scan():  ->  dmactive
Debug: 320 53 riscv-013.c:397 scan(): 41b 4i w 00010001 @10 -> + 00000000 @10
Debug: 321 53 riscv-013.c:408 scan():  hartsello=1 dmactive -> 
Debug: 322 53 riscv-013.c:397 scan(): 41b 4i - 00000000 @10 -> + 00010001 @10
Debug: 323 53 riscv-013.c:408 scan():  ->  hartsello=1 dmactive
Debug: 324 53 riscv-013.c:397 scan(): 41b 4i r 00000000 @11 -> + 00000000 @10
Debug: 325 54 riscv-013.c:397 scan(): 41b 4i - 00000000 @11 -> + 00000c82 @11
Debug: 326 54 riscv-013.c:408 scan():  ->  allrunning anyrunning authenticated version=2
Debug: 327 54 riscv-013.c:397 scan(): 41b 4i r 00000000 @10 -> + 00000000 @11
Debug: 328 54 riscv-013.c:397 scan(): 41b 4i - 00000000 @10 -> + 00010001 @10
Debug: 329 54 riscv-013.c:408 scan():  ->  hartsello=1 dmactive
Debug: 330 55 riscv-013.c:397 scan(): 41b 4i w 00020001 @10 -> + 00000000 @10
Debug: 331 55 riscv-013.c:408 scan():  hartsello=2 dmactive -> 
Debug: 332 55 riscv-013.c:397 scan(): 41b 4i - 00000000 @10 -> + 00020001 @10
Debug: 333 55 riscv-013.c:408 scan():  ->  hartsello=2 dmactive
Debug: 334 55 riscv-013.c:397 scan(): 41b 4i r 00000000 @11 -> + 00000000 @10
Debug: 335 55 riscv-013.c:397 scan(): 41b 4i - 00000000 @11 -> + 00000c82 @11
Debug: 336 55 riscv-013.c:408 scan():  ->  allrunning anyrunning authenticated version=2
Debug: 337 56 riscv-013.c:397 scan(): 41b 4i r 00000000 @10 -> + 00000000 @11
Debug: 338 56 riscv-013.c:397 scan(): 41b 4i - 00000000 @10 -> + 00020001 @10
Debug: 339 56 riscv-013.c:408 scan():  ->  hartsello=2 dmactive
Debug: 340 56 riscv-013.c:397 scan(): 41b 4i w 00030001 @10 -> + 00000000 @10
Debug: 341 56 riscv-013.c:408 scan():  hartsello=3 dmactive -> 
Debug: 342 56 riscv-013.c:397 scan(): 41b 4i - 00000000 @10 -> + 00030001 @10
Debug: 343 56 riscv-013.c:408 scan():  ->  hartsello=3 dmactive
Debug: 344 57 riscv-013.c:397 scan(): 41b 4i r 00000000 @11 -> + 00000000 @10
Debug: 345 57 riscv-013.c:397 scan(): 41b 4i - 00000000 @11 -> + 00000c82 @11
Debug: 346 57 riscv-013.c:408 scan():  ->  allrunning anyrunning authenticated version=2
Debug: 347 57 riscv-013.c:397 scan(): 41b 4i r 00000000 @10 -> + 00000000 @11
Debug: 348 57 riscv-013.c:397 scan(): 41b 4i - 00000000 @10 -> + 00030001 @10
Debug: 349 57 riscv-013.c:408 scan():  ->  hartsello=3 dmactive
Debug: 350 58 riscv-013.c:397 scan(): 41b 4i w 00040001 @10 -> + 00000000 @10
Debug: 351 58 riscv-013.c:408 scan():  hartsello=4 dmactive -> 
Debug: 352 58 riscv-013.c:397 scan(): 41b 4i - 00000000 @10 -> + 00040001 @10
Debug: 353 58 riscv-013.c:408 scan():  ->  hartsello=4 dmactive
Debug: 354 58 riscv-013.c:397 scan(): 41b 4i r 00000000 @11 -> + 00000000 @10
Debug: 355 58 riscv-013.c:397 scan(): 41b 4i - 00000000 @11 -> + 00000c82 @11
Debug: 356 58 riscv-013.c:408 scan():  ->  allrunning anyrunning authenticated version=2
Debug: 357 59 riscv-013.c:397 scan(): 41b 4i r 00000000 @10 -> + 00000000 @11
Debug: 358 59 riscv-013.c:397 scan(): 41b 4i - 00000000 @10 -> + 00040001 @10
Debug: 359 59 riscv-013.c:408 scan():  ->  hartsello=4 dmactive
Debug: 360 59 riscv-013.c:397 scan(): 41b 4i w 00050001 @10 -> + 00000000 @10
Debug: 361 59 riscv-013.c:408 scan():  hartsello=5 dmactive -> 
Debug: 362 60 riscv-013.c:397 scan(): 41b 4i - 00000000 @10 -> + 00050001 @10
Debug: 363 60 riscv-013.c:408 scan():  ->  hartsello=5 dmactive
Debug: 364 60 riscv-013.c:397 scan(): 41b 4i r 00000000 @11 -> + 00000000 @10
Debug: 365 60 riscv-013.c:397 scan(): 41b 4i - 00000000 @11 -> + 00000c82 @11
Debug: 366 60 riscv-013.c:408 scan():  ->  allrunning anyrunning authenticated version=2
Debug: 367 60 riscv-013.c:397 scan(): 41b 4i r 00000000 @10 -> + 00000000 @11
Debug: 368 61 riscv-013.c:397 scan(): 41b 4i - 00000000 @10 -> + 00050001 @10
Debug: 369 61 riscv-013.c:408 scan():  ->  hartsello=5 dmactive
Debug: 370 61 riscv-013.c:397 scan(): 41b 4i w 00060001 @10 -> + 00000000 @10
Debug: 371 61 riscv-013.c:408 scan():  hartsello=6 dmactive -> 
Debug: 372 61 riscv-013.c:397 scan(): 41b 4i - 00000000 @10 -> + 00060001 @10
Debug: 373 61 riscv-013.c:408 scan():  ->  hartsello=6 dmactive
Debug: 374 62 riscv-013.c:397 scan(): 41b 4i r 00000000 @11 -> + 00000000 @10
Debug: 375 62 riscv-013.c:397 scan(): 41b 4i - 00000000 @11 -> + 00000c82 @11
Debug: 376 62 riscv-013.c:408 scan():  ->  allrunning anyrunning authenticated version=2
Debug: 377 62 riscv-013.c:397 scan(): 41b 4i r 00000000 @10 -> + 00000000 @11
Debug: 378 63 riscv-013.c:397 scan(): 41b 4i - 00000000 @10 -> + 00060001 @10
Debug: 379 63 riscv-013.c:408 scan():  ->  hartsello=6 dmactive
Debug: 380 63 riscv-013.c:397 scan(): 41b 4i w 00070001 @10 -> + 00000000 @10
Debug: 381 63 riscv-013.c:408 scan():  hartsello=7 dmactive -> 
Debug: 382 63 riscv-013.c:397 scan(): 41b 4i - 00000000 @10 -> + 00070001 @10
Debug: 383 63 riscv-013.c:408 scan():  ->  hartsello=7 dmactive
Debug: 384 64 riscv-013.c:397 scan(): 41b 4i r 00000000 @11 -> + 00000000 @10
Debug: 385 64 riscv-013.c:397 scan(): 41b 4i - 00000000 @11 -> + 00000c82 @11
Debug: 386 64 riscv-013.c:408 scan():  ->  allrunning anyrunning authenticated version=2
Debug: 387 64 riscv-013.c:397 scan(): 41b 4i r 00000000 @10 -> + 00000000 @11
Debug: 388 64 riscv-013.c:397 scan(): 41b 4i - 00000000 @10 -> + 00070001 @10
Debug: 389 64 riscv-013.c:408 scan():  ->  hartsello=7 dmactive
Debug: 390 65 riscv-013.c:397 scan(): 41b 4i w 00080001 @10 -> + 00000000 @10
Debug: 391 65 riscv-013.c:408 scan():  hartsello=8 dmactive -> 
Debug: 392 65 riscv-013.c:397 scan(): 41b 4i - 00000000 @10 -> + 00080001 @10
Debug: 393 65 riscv-013.c:408 scan():  ->  hartsello=8 dmactive
Debug: 394 65 riscv-013.c:397 scan(): 41b 4i r 00000000 @11 -> + 00000000 @10
Debug: 395 66 riscv-013.c:397 scan(): 41b 4i - 00000000 @11 -> + 00003082 @11
Debug: 396 66 riscv-013.c:408 scan():  ->  allunavail anyunavail authenticated version=2
Debug: 397 66 riscv-013.c:397 scan(): 41b 4i r 00000000 @10 -> + 00000000 @11
Debug: 398 66 riscv-013.c:397 scan(): 41b 4i - 00000000 @10 -> + 00080001 @10
Debug: 399 66 riscv-013.c:408 scan():  ->  hartsello=8 dmactive
Debug: 400 66 riscv-013.c:397 scan(): 41b 4i w 00090001 @10 -> + 00000000 @10
Debug: 401 66 riscv-013.c:408 scan():  hartsello=9 dmactive -> 
Debug: 402 67 riscv-013.c:397 scan(): 41b 4i - 00000000 @10 -> + 00090001 @10
Debug: 403 67 riscv-013.c:408 scan():  ->  hartsello=9 dmactive
Debug: 404 67 riscv-013.c:397 scan(): 41b 4i r 00000000 @11 -> + 00000000 @10
Debug: 405 67 riscv-013.c:397 scan(): 41b 4i - 00000000 @11 -> + 00003082 @11
Debug: 406 67 riscv-013.c:408 scan():  ->  allunavail anyunavail authenticated version=2
Debug: 407 67 riscv-013.c:397 scan(): 41b 4i r 00000000 @10 -> + 00000000 @11
Debug: 408 68 riscv-013.c:397 scan(): 41b 4i - 00000000 @10 -> + 00090001 @10
Debug: 409 68 riscv-013.c:408 scan():  ->  hartsello=9 dmactive
Debug: 410 68 riscv-013.c:397 scan(): 41b 4i w 000a0001 @10 -> + 00000000 @10
Debug: 411 68 riscv-013.c:408 scan():  hartsello=10 dmactive -> 
Debug: 412 68 riscv-013.c:397 scan(): 41b 4i - 00000000 @10 -> + 000a0001 @10
Debug: 413 68 riscv-013.c:408 scan():  ->  hartsello=10 dmactive
Debug: 414 68 riscv-013.c:397 scan(): 41b 4i r 00000000 @11 -> + 00000000 @10
Debug: 415 69 riscv-013.c:397 scan(): 41b 4i - 00000000 @11 -> + 00003082 @11
Debug: 416 69 riscv-013.c:408 scan():  ->  allunavail anyunavail authenticated version=2
Debug: 417 69 riscv-013.c:397 scan(): 41b 4i r 00000000 @10 -> + 00000000 @11
Debug: 418 69 riscv-013.c:397 scan(): 41b 4i - 00000000 @10 -> + 000a0001 @10
Debug: 419 69 riscv-013.c:408 scan():  ->  hartsello=10 dmactive
Debug: 420 70 riscv-013.c:397 scan(): 41b 4i w 000b0001 @10 -> + 00000000 @10
Debug: 421 70 riscv-013.c:408 scan():  hartsello=11 dmactive -> 
Debug: 422 70 riscv-013.c:397 scan(): 41b 4i - 00000000 @10 -> + 000b0001 @10
Debug: 423 70 riscv-013.c:408 scan():  ->  hartsello=11 dmactive
Debug: 424 70 riscv-013.c:397 scan(): 41b 4i r 00000000 @11 -> + 00000000 @10
Debug: 425 71 riscv-013.c:397 scan(): 41b 4i - 00000000 @11 -> + 00003082 @11
Debug: 426 71 riscv-013.c:408 scan():  ->  allunavail anyunavail authenticated version=2
Debug: 427 71 riscv-013.c:397 scan(): 41b 4i r 00000000 @10 -> + 00000000 @11
Debug: 428 71 riscv-013.c:397 scan(): 41b 4i - 00000000 @10 -> + 000b0001 @10
Debug: 429 71 riscv-013.c:408 scan():  ->  hartsello=11 dmactive
Debug: 430 71 riscv-013.c:397 scan(): 41b 4i w 000c0001 @10 -> + 00000000 @10
Debug: 431 71 riscv-013.c:408 scan():  hartsello=12 dmactive -> 
Debug: 432 72 riscv-013.c:397 scan(): 41b 4i - 00000000 @10 -> + 000c0001 @10
Debug: 433 72 riscv-013.c:408 scan():  ->  hartsello=12 dmactive
Debug: 434 72 riscv-013.c:397 scan(): 41b 4i r 00000000 @11 -> + 00000000 @10
Debug: 435 72 riscv-013.c:397 scan(): 41b 4i - 00000000 @11 -> + 00003082 @11
Debug: 436 72 riscv-013.c:408 scan():  ->  allunavail anyunavail authenticated version=2
Debug: 437 72 riscv-013.c:397 scan(): 41b 4i r 00000000 @10 -> + 00000000 @11
Debug: 438 73 riscv-013.c:397 scan(): 41b 4i - 00000000 @10 -> + 000c0001 @10
Debug: 439 73 riscv-013.c:408 scan():  ->  hartsello=12 dmactive
Debug: 440 73 riscv-013.c:397 scan(): 41b 4i w 000d0001 @10 -> + 00000000 @10
Debug: 441 73 riscv-013.c:408 scan():  hartsello=13 dmactive -> 
Debug: 442 73 riscv-013.c:397 scan(): 41b 4i - 00000000 @10 -> + 000d0001 @10
Debug: 443 73 riscv-013.c:408 scan():  ->  hartsello=13 dmactive
Debug: 444 73 riscv-013.c:397 scan(): 41b 4i r 00000000 @11 -> + 00000000 @10
Debug: 445 74 riscv-013.c:397 scan(): 41b 4i - 00000000 @11 -> + 00003082 @11
Debug: 446 74 riscv-013.c:408 scan():  ->  allunavail anyunavail authenticated version=2
Debug: 447 74 riscv-013.c:397 scan(): 41b 4i r 00000000 @10 -> + 00000000 @11
Debug: 448 74 riscv-013.c:397 scan(): 41b 4i - 00000000 @10 -> + 000d0001 @10
Debug: 449 74 riscv-013.c:408 scan():  ->  hartsello=13 dmactive
Debug: 450 74 riscv-013.c:397 scan(): 41b 4i w 000e0001 @10 -> + 00000000 @10
Debug: 451 74 riscv-013.c:408 scan():  hartsello=14 dmactive -> 
Debug: 452 75 riscv-013.c:397 scan(): 41b 4i - 00000000 @10 -> + 000e0001 @10
Debug: 453 75 riscv-013.c:408 scan():  ->  hartsello=14 dmactive
Debug: 454 75 riscv-013.c:397 scan(): 41b 4i r 00000000 @11 -> + 00000000 @10
Debug: 455 75 riscv-013.c:397 scan(): 41b 4i - 00000000 @11 -> + 00003082 @11
Debug: 456 75 riscv-013.c:408 scan():  ->  allunavail anyunavail authenticated version=2
Debug: 457 75 riscv-013.c:397 scan(): 41b 4i r 00000000 @10 -> + 00000000 @11
Debug: 458 76 riscv-013.c:397 scan(): 41b 4i - 00000000 @10 -> + 000e0001 @10
Debug: 459 76 riscv-013.c:408 scan():  ->  hartsello=14 dmactive
Debug: 460 76 riscv-013.c:397 scan(): 41b 4i w 000f0001 @10 -> + 00000000 @10
Debug: 461 76 riscv-013.c:408 scan():  hartsello=15 dmactive -> 
Debug: 462 76 riscv-013.c:397 scan(): 41b 4i - 00000000 @10 -> + 000f0001 @10
Debug: 463 76 riscv-013.c:408 scan():  ->  hartsello=15 dmactive
Debug: 464 76 riscv-013.c:397 scan(): 41b 4i r 00000000 @11 -> + 00000000 @10
Debug: 465 77 riscv-013.c:397 scan(): 41b 4i - 00000000 @11 -> + 00003082 @11
Debug: 466 77 riscv-013.c:408 scan():  ->  allunavail anyunavail authenticated version=2
Debug: 467 77 riscv-013.c:397 scan(): 41b 4i r 00000000 @10 -> + 00000000 @11
Debug: 468 77 riscv-013.c:397 scan(): 41b 4i - 00000000 @10 -> + 000f0001 @10
Debug: 469 77 riscv-013.c:408 scan():  ->  hartsello=15 dmactive
Debug: 470 77 riscv-013.c:397 scan(): 41b 4i w 00100001 @10 -> + 00000000 @10
Debug: 471 78 riscv-013.c:408 scan():  hartsello=16 dmactive -> 
Debug: 472 78 riscv-013.c:397 scan(): 41b 4i - 00000000 @10 -> + 00100001 @10
Debug: 473 78 riscv-013.c:408 scan():  ->  hartsello=16 dmactive
Debug: 474 78 riscv-013.c:397 scan(): 41b 4i r 00000000 @11 -> + 00000000 @10
Debug: 475 78 riscv-013.c:397 scan(): 41b 4i - 00000000 @11 -> + 00003082 @11
Debug: 476 78 riscv-013.c:408 scan():  ->  allunavail anyunavail authenticated version=2
Debug: 477 79 riscv-013.c:397 scan(): 41b 4i r 00000000 @10 -> + 00000000 @11
Debug: 478 79 riscv-013.c:397 scan(): 41b 4i - 00000000 @10 -> + 00100001 @10
Debug: 479 79 riscv-013.c:408 scan():  ->  hartsello=16 dmactive
Debug: 480 79 riscv-013.c:397 scan(): 41b 4i w 00110001 @10 -> + 00000000 @10
Debug: 481 79 riscv-013.c:408 scan():  hartsello=17 dmactive -> 
Debug: 482 79 riscv-013.c:397 scan(): 41b 4i - 00000000 @10 -> + 00110001 @10
Debug: 483 79 riscv-013.c:408 scan():  ->  hartsello=17 dmactive
Debug: 484 80 riscv-013.c:397 scan(): 41b 4i r 00000000 @11 -> + 00000000 @10
Debug: 485 80 riscv-013.c:397 scan(): 41b 4i - 00000000 @11 -> + 00003082 @11
Debug: 486 80 riscv-013.c:408 scan():  ->  allunavail anyunavail authenticated version=2
Debug: 487 80 riscv-013.c:397 scan(): 41b 4i r 00000000 @10 -> + 00000000 @11
Debug: 488 80 riscv-013.c:397 scan(): 41b 4i - 00000000 @10 -> + 00110001 @10
Debug: 489 81 riscv-013.c:408 scan():  ->  hartsello=17 dmactive
Debug: 490 81 riscv-013.c:397 scan(): 41b 4i w 00120001 @10 -> + 00000000 @10
Debug: 491 81 riscv-013.c:408 scan():  hartsello=18 dmactive -> 
Debug: 492 81 riscv-013.c:397 scan(): 41b 4i - 00000000 @10 -> + 00120001 @10
Debug: 493 81 riscv-013.c:408 scan():  ->  hartsello=18 dmactive
Debug: 494 81 riscv-013.c:397 scan(): 41b 4i r 00000000 @11 -> + 00000000 @10
Debug: 495 82 riscv-013.c:397 scan(): 41b 4i - 00000000 @11 -> + 00003082 @11
Debug: 496 82 riscv-013.c:408 scan():  ->  allunavail anyunavail authenticated version=2
Debug: 497 82 riscv-013.c:397 scan(): 41b 4i r 00000000 @10 -> + 00000000 @11
Debug: 498 82 riscv-013.c:397 scan(): 41b 4i - 00000000 @10 -> + 00120001 @10
Debug: 499 82 riscv-013.c:408 scan():  ->  hartsello=18 dmactive
Debug: 500 83 riscv-013.c:397 scan(): 41b 4i w 00130001 @10 -> + 00000000 @10
Debug: 501 83 riscv-013.c:408 scan():  hartsello=19 dmactive -> 
Debug: 502 83 riscv-013.c:397 scan(): 41b 4i - 00000000 @10 -> + 00130001 @10
Debug: 503 83 riscv-013.c:408 scan():  ->  hartsello=19 dmactive
Debug: 504 83 riscv-013.c:397 scan(): 41b 4i r 00000000 @11 -> + 00000000 @10
Debug: 505 83 riscv-013.c:397 scan(): 41b 4i - 00000000 @11 -> + 00003082 @11
Debug: 506 84 riscv-013.c:408 scan():  ->  allunavail anyunavail authenticated version=2
Debug: 507 84 riscv-013.c:397 scan(): 41b 4i r 00000000 @10 -> + 00000000 @11
Debug: 508 84 riscv-013.c:397 scan(): 41b 4i - 00000000 @10 -> + 00130001 @10
Debug: 509 84 riscv-013.c:408 scan():  ->  hartsello=19 dmactive
Debug: 510 84 riscv-013.c:397 scan(): 41b 4i w 00140001 @10 -> + 00000000 @10
Debug: 511 84 riscv-013.c:408 scan():  hartsello=20 dmactive -> 
Debug: 512 85 riscv-013.c:397 scan(): 41b 4i - 00000000 @10 -> + 00140001 @10
Debug: 513 85 riscv-013.c:408 scan():  ->  hartsello=20 dmactive
Debug: 514 85 riscv-013.c:397 scan(): 41b 4i r 00000000 @11 -> + 00000000 @10
Debug: 515 85 riscv-013.c:397 scan(): 41b 4i - 00000000 @11 -> + 00003082 @11
Debug: 516 85 riscv-013.c:408 scan():  ->  allunavail anyunavail authenticated version=2
Debug: 517 85 riscv-013.c:397 scan(): 41b 4i r 00000000 @10 -> + 00000000 @11
Debug: 518 86 riscv-013.c:397 scan(): 41b 4i - 00000000 @10 -> + 00140001 @10
Debug: 519 86 riscv-013.c:408 scan():  ->  hartsello=20 dmactive
Debug: 520 86 riscv-013.c:397 scan(): 41b 4i w 00150001 @10 -> + 00000000 @10
Debug: 521 86 riscv-013.c:408 scan():  hartsello=21 dmactive -> 
Debug: 522 86 riscv-013.c:397 scan(): 41b 4i - 00000000 @10 -> + 00150001 @10
Debug: 523 86 riscv-013.c:408 scan():  ->  hartsello=21 dmactive
Debug: 524 87 riscv-013.c:397 scan(): 41b 4i r 00000000 @11 -> + 00000000 @10
Debug: 525 87 riscv-013.c:397 scan(): 41b 4i - 00000000 @11 -> + 00003082 @11
Debug: 526 87 riscv-013.c:408 scan():  ->  allunavail anyunavail authenticated version=2
Debug: 527 87 riscv-013.c:397 scan(): 41b 4i r 00000000 @10 -> + 00000000 @11
Debug: 528 87 riscv-013.c:397 scan(): 41b 4i - 00000000 @10 -> + 00150001 @10
Debug: 529 87 riscv-013.c:408 scan():  ->  hartsello=21 dmactive
Debug: 530 88 riscv-013.c:397 scan(): 41b 4i w 00160001 @10 -> + 00000000 @10
Debug: 531 88 riscv-013.c:408 scan():  hartsello=22 dmactive -> 
Debug: 532 88 riscv-013.c:397 scan(): 41b 4i - 00000000 @10 -> + 00160001 @10
Debug: 533 88 riscv-013.c:408 scan():  ->  hartsello=22 dmactive
Debug: 534 88 riscv-013.c:397 scan(): 41b 4i r 00000000 @11 -> + 00000000 @10
Debug: 535 88 riscv-013.c:397 scan(): 41b 4i - 00000000 @11 -> + 00003082 @11
Debug: 536 88 riscv-013.c:408 scan():  ->  allunavail anyunavail authenticated version=2
Debug: 537 89 riscv-013.c:397 scan(): 41b 4i r 00000000 @10 -> + 00000000 @11
Debug: 538 89 riscv-013.c:397 scan(): 41b 4i - 00000000 @10 -> + 00160001 @10
Debug: 539 89 riscv-013.c:408 scan():  ->  hartsello=22 dmactive
Debug: 540 89 riscv-013.c:397 scan(): 41b 4i w 00170001 @10 -> + 00000000 @10
Debug: 541 89 riscv-013.c:408 scan():  hartsello=23 dmactive -> 
Debug: 542 89 riscv-013.c:397 scan(): 41b 4i - 00000000 @10 -> + 00170001 @10
Debug: 543 89 riscv-013.c:408 scan():  ->  hartsello=23 dmactive
Debug: 544 90 riscv-013.c:397 scan(): 41b 4i r 00000000 @11 -> + 00000000 @10
Debug: 545 90 riscv-013.c:397 scan(): 41b 4i - 00000000 @11 -> + 00003082 @11
Debug: 546 90 riscv-013.c:408 scan():  ->  allunavail anyunavail authenticated version=2
Debug: 547 90 riscv-013.c:397 scan(): 41b 4i r 00000000 @10 -> + 00000000 @11
Debug: 548 90 riscv-013.c:397 scan(): 41b 4i - 00000000 @10 -> + 00170001 @10
Debug: 549 91 riscv-013.c:408 scan():  ->  hartsello=23 dmactive
Debug: 550 91 riscv-013.c:397 scan(): 41b 4i w 00180001 @10 -> + 00000000 @10
Debug: 551 91 riscv-013.c:408 scan():  hartsello=24 dmactive -> 
Debug: 552 91 riscv-013.c:397 scan(): 41b 4i - 00000000 @10 -> + 00180001 @10
Debug: 553 91 riscv-013.c:408 scan():  ->  hartsello=24 dmactive
Debug: 554 92 riscv-013.c:397 scan(): 41b 4i r 00000000 @11 -> + 00000000 @10
Debug: 555 92 riscv-013.c:397 scan(): 41b 4i - 00000000 @11 -> + 00003082 @11
Debug: 556 92 riscv-013.c:408 scan():  ->  allunavail anyunavail authenticated version=2
Debug: 557 92 riscv-013.c:397 scan(): 41b 4i r 00000000 @10 -> + 00000000 @11
Debug: 558 93 riscv-013.c:397 scan(): 41b 4i - 00000000 @10 -> + 00180001 @10
Debug: 559 93 riscv-013.c:408 scan():  ->  hartsello=24 dmactive
Debug: 560 93 riscv-013.c:397 scan(): 41b 4i w 00190001 @10 -> + 00000000 @10
Debug: 561 93 riscv-013.c:408 scan():  hartsello=25 dmactive -> 
Debug: 562 93 riscv-013.c:397 scan(): 41b 4i - 00000000 @10 -> + 00190001 @10
Debug: 563 93 riscv-013.c:408 scan():  ->  hartsello=25 dmactive
Debug: 564 94 riscv-013.c:397 scan(): 41b 4i r 00000000 @11 -> + 00000000 @10
Debug: 565 94 riscv-013.c:397 scan(): 41b 4i - 00000000 @11 -> + 00003082 @11
Debug: 566 94 riscv-013.c:408 scan():  ->  allunavail anyunavail authenticated version=2
Debug: 567 94 riscv-013.c:397 scan(): 41b 4i r 00000000 @10 -> + 00000000 @11
Debug: 568 95 riscv-013.c:397 scan(): 41b 4i - 00000000 @10 -> + 00190001 @10
Debug: 569 95 riscv-013.c:408 scan():  ->  hartsello=25 dmactive
Debug: 570 95 riscv-013.c:397 scan(): 41b 4i w 001a0001 @10 -> + 00000000 @10
Debug: 571 95 riscv-013.c:408 scan():  hartsello=26 dmactive -> 
Debug: 572 95 riscv-013.c:397 scan(): 41b 4i - 00000000 @10 -> + 001a0001 @10
Debug: 573 95 riscv-013.c:408 scan():  ->  hartsello=26 dmactive
Debug: 574 96 riscv-013.c:397 scan(): 41b 4i r 00000000 @11 -> + 00000000 @10
Debug: 575 96 riscv-013.c:397 scan(): 41b 4i - 00000000 @11 -> + 00003082 @11
Debug: 576 96 riscv-013.c:408 scan():  ->  allunavail anyunavail authenticated version=2
Debug: 577 96 riscv-013.c:397 scan(): 41b 4i r 00000000 @10 -> + 00000000 @11
Debug: 578 96 riscv-013.c:397 scan(): 41b 4i - 00000000 @10 -> + 001a0001 @10
Debug: 579 96 riscv-013.c:408 scan():  ->  hartsello=26 dmactive
Debug: 580 97 riscv-013.c:397 scan(): 41b 4i w 001b0001 @10 -> + 00000000 @10
Debug: 581 97 riscv-013.c:408 scan():  hartsello=27 dmactive -> 
Debug: 582 97 riscv-013.c:397 scan(): 41b 4i - 00000000 @10 -> + 001b0001 @10
Debug: 583 97 riscv-013.c:408 scan():  ->  hartsello=27 dmactive
Debug: 584 97 riscv-013.c:397 scan(): 41b 4i r 00000000 @11 -> + 00000000 @10
Debug: 585 97 riscv-013.c:397 scan(): 41b 4i - 00000000 @11 -> + 00003082 @11
Debug: 586 97 riscv-013.c:408 scan():  ->  allunavail anyunavail authenticated version=2
Debug: 587 98 riscv-013.c:397 scan(): 41b 4i r 00000000 @10 -> + 00000000 @11
Debug: 588 98 riscv-013.c:397 scan(): 41b 4i - 00000000 @10 -> + 001b0001 @10
Debug: 589 98 riscv-013.c:408 scan():  ->  hartsello=27 dmactive
Debug: 590 98 riscv-013.c:397 scan(): 41b 4i w 001c0001 @10 -> + 00000000 @10
Debug: 591 98 riscv-013.c:408 scan():  hartsello=28 dmactive -> 
Debug: 592 99 riscv-013.c:397 scan(): 41b 4i - 00000000 @10 -> + 001c0001 @10
Debug: 593 99 riscv-013.c:408 scan():  ->  hartsello=28 dmactive
Debug: 594 99 riscv-013.c:397 scan(): 41b 4i r 00000000 @11 -> + 00000000 @10
Debug: 595 99 riscv-013.c:397 scan(): 41b 4i - 00000000 @11 -> + 00003082 @11
Debug: 596 99 riscv-013.c:408 scan():  ->  allunavail anyunavail authenticated version=2
Debug: 597 100 riscv-013.c:397 scan(): 41b 4i r 00000000 @10 -> + 00000000 @11
Debug: 598 100 riscv-013.c:397 scan(): 41b 4i - 00000000 @10 -> + 001c0001 @10
Debug: 599 100 riscv-013.c:408 scan():  ->  hartsello=28 dmactive
Debug: 600 100 riscv-013.c:397 scan(): 41b 4i w 001d0001 @10 -> + 00000000 @10
Debug: 601 100 riscv-013.c:408 scan():  hartsello=29 dmactive -> 
Debug: 602 100 riscv-013.c:397 scan(): 41b 4i - 00000000 @10 -> + 001d0001 @10
Debug: 603 100 riscv-013.c:408 scan():  ->  hartsello=29 dmactive
Debug: 604 101 riscv-013.c:397 scan(): 41b 4i r 00000000 @11 -> + 00000000 @10
Debug: 605 101 riscv-013.c:397 scan(): 41b 4i - 00000000 @11 -> + 00003082 @11
Debug: 606 101 riscv-013.c:408 scan():  ->  allunavail anyunavail authenticated version=2
Debug: 607 101 riscv-013.c:397 scan(): 41b 4i r 00000000 @10 -> + 00000000 @11
Debug: 608 102 riscv-013.c:397 scan(): 41b 4i - 00000000 @10 -> + 001d0001 @10
Debug: 609 102 riscv-013.c:408 scan():  ->  hartsello=29 dmactive
Debug: 610 102 riscv-013.c:397 scan(): 41b 4i w 001e0001 @10 -> + 00000000 @10
Debug: 611 102 riscv-013.c:408 scan():  hartsello=30 dmactive -> 
Debug: 612 102 riscv-013.c:397 scan(): 41b 4i - 00000000 @10 -> + 001e0001 @10
Debug: 613 102 riscv-013.c:408 scan():  ->  hartsello=30 dmactive
Debug: 614 103 riscv-013.c:397 scan(): 41b 4i r 00000000 @11 -> + 00000000 @10
Debug: 615 103 riscv-013.c:397 scan(): 41b 4i - 00000000 @11 -> + 00003082 @11
Debug: 616 103 riscv-013.c:408 scan():  ->  allunavail anyunavail authenticated version=2
Debug: 617 103 riscv-013.c:397 scan(): 41b 4i r 00000000 @10 -> + 00000000 @11
Debug: 618 103 riscv-013.c:397 scan(): 41b 4i - 00000000 @10 -> + 001e0001 @10
Debug: 619 103 riscv-013.c:408 scan():  ->  hartsello=30 dmactive
Debug: 620 104 riscv-013.c:397 scan(): 41b 4i w 001f0001 @10 -> + 00000000 @10
Debug: 621 104 riscv-013.c:408 scan():  hartsello=31 dmactive -> 
Debug: 622 104 riscv-013.c:397 scan(): 41b 4i - 00000000 @10 -> + 001f0001 @10
Debug: 623 104 riscv-013.c:408 scan():  ->  hartsello=31 dmactive
Debug: 624 105 riscv-013.c:397 scan(): 41b 4i r 00000000 @11 -> + 00000000 @10
Debug: 625 105 riscv-013.c:397 scan(): 41b 4i - 00000000 @11 -> + 00003082 @11
Debug: 626 105 riscv-013.c:408 scan():  ->  allunavail anyunavail authenticated version=2
Debug: 627 105 riscv-013.c:397 scan(): 41b 4i r 00000000 @10 -> + 00000000 @11
Debug: 628 105 riscv-013.c:397 scan(): 41b 4i - 00000000 @10 -> + 001f0001 @10
Debug: 629 105 riscv-013.c:408 scan():  ->  hartsello=31 dmactive
Debug: 630 106 riscv-013.c:397 scan(): 41b 4i w 00200001 @10 -> + 00000000 @10
Debug: 631 106 riscv-013.c:408 scan():  hartsello=32 dmactive -> 
Debug: 632 106 riscv-013.c:397 scan(): 41b 4i - 00000000 @10 -> + 00200001 @10
Debug: 633 106 riscv-013.c:408 scan():  ->  hartsello=32 dmactive
Debug: 634 106 riscv-013.c:397 scan(): 41b 4i r 00000000 @11 -> + 00000000 @10
Debug: 635 107 riscv-013.c:397 scan(): 41b 4i - 00000000 @11 -> + 00003082 @11
Debug: 636 107 riscv-013.c:408 scan():  ->  allunavail anyunavail authenticated version=2
Debug: 637 107 riscv-013.c:397 scan(): 41b 4i r 00000000 @10 -> + 00000000 @11
Debug: 638 107 riscv-013.c:397 scan(): 41b 4i - 00000000 @10 -> + 00200001 @10
Debug: 639 107 riscv-013.c:408 scan():  ->  hartsello=32 dmactive
Debug: 640 108 riscv-013.c:397 scan(): 41b 4i w 00210001 @10 -> + 00000000 @10
Debug: 641 108 riscv-013.c:408 scan():  hartsello=33 dmactive -> 
Debug: 642 108 riscv-013.c:397 scan(): 41b 4i - 00000000 @10 -> + 00210001 @10
Debug: 643 108 riscv-013.c:408 scan():  ->  hartsello=33 dmactive
Debug: 644 108 riscv-013.c:397 scan(): 41b 4i r 00000000 @11 -> + 00000000 @10
Debug: 645 109 riscv-013.c:397 scan(): 41b 4i - 00000000 @11 -> + 00003082 @11
Debug: 646 109 riscv-013.c:408 scan():  ->  allunavail anyunavail authenticated version=2
Debug: 647 109 riscv-013.c:397 scan(): 41b 4i r 00000000 @10 -> + 00000000 @11
Debug: 648 109 riscv-013.c:397 scan(): 41b 4i - 00000000 @10 -> + 00210001 @10
Debug: 649 109 riscv-013.c:408 scan():  ->  hartsello=33 dmactive
Debug: 650 110 riscv-013.c:397 scan(): 41b 4i w 00220001 @10 -> + 00000000 @10
Debug: 651 110 riscv-013.c:408 scan():  hartsello=34 dmactive -> 
Debug: 652 110 riscv-013.c:397 scan(): 41b 4i - 00000000 @10 -> + 00220001 @10
Debug: 653 110 riscv-013.c:408 scan():  ->  hartsello=34 dmactive
Debug: 654 110 riscv-013.c:397 scan(): 41b 4i r 00000000 @11 -> + 00000000 @10
Debug: 655 110 riscv-013.c:397 scan(): 41b 4i - 00000000 @11 -> + 00003082 @11
Debug: 656 110 riscv-013.c:408 scan():  ->  allunavail anyunavail authenticated version=2
Debug: 657 111 riscv-013.c:397 scan(): 41b 4i r 00000000 @10 -> + 00000000 @11
Debug: 658 111 riscv-013.c:397 scan(): 41b 4i - 00000000 @10 -> + 00220001 @10
Debug: 659 111 riscv-013.c:408 scan():  ->  hartsello=34 dmactive
Debug: 660 111 riscv-013.c:397 scan(): 41b 4i w 00230001 @10 -> + 00000000 @10
Debug: 661 111 riscv-013.c:408 scan():  hartsello=35 dmactive -> 
Debug: 662 112 riscv-013.c:397 scan(): 41b 4i - 00000000 @10 -> + 00230001 @10
Debug: 663 112 riscv-013.c:408 scan():  ->  hartsello=35 dmactive
Debug: 664 112 riscv-013.c:397 scan(): 41b 4i r 00000000 @11 -> + 00000000 @10
Debug: 665 112 riscv-013.c:397 scan(): 41b 4i - 00000000 @11 -> + 00003082 @11
Debug: 666 112 riscv-013.c:408 scan():  ->  allunavail anyunavail authenticated version=2
Debug: 667 113 riscv-013.c:397 scan(): 41b 4i r 00000000 @10 -> + 00000000 @11
Debug: 668 113 riscv-013.c:397 scan(): 41b 4i - 00000000 @10 -> + 00230001 @10
Debug: 669 113 riscv-013.c:408 scan():  ->  hartsello=35 dmactive
Debug: 670 113 riscv-013.c:397 scan(): 41b 4i w 00240001 @10 -> + 00000000 @10
Debug: 671 113 riscv-013.c:408 scan():  hartsello=36 dmactive -> 
Debug: 672 113 riscv-013.c:397 scan(): 41b 4i - 00000000 @10 -> + 00240001 @10
Debug: 673 113 riscv-013.c:408 scan():  ->  hartsello=36 dmactive
Debug: 674 114 riscv-013.c:397 scan(): 41b 4i r 00000000 @11 -> + 00000000 @10
Debug: 675 114 riscv-013.c:397 scan(): 41b 4i - 00000000 @11 -> + 00003082 @11
Debug: 676 114 riscv-013.c:408 scan():  ->  allunavail anyunavail authenticated version=2
Debug: 677 114 riscv-013.c:397 scan(): 41b 4i r 00000000 @10 -> + 00000000 @11
Debug: 678 114 riscv-013.c:397 scan(): 41b 4i - 00000000 @10 -> + 00240001 @10
Debug: 679 114 riscv-013.c:408 scan():  ->  hartsello=36 dmactive
Debug: 680 115 riscv-013.c:397 scan(): 41b 4i w 00250001 @10 -> + 00000000 @10
Debug: 681 115 riscv-013.c:408 scan():  hartsello=37 dmactive -> 
Debug: 682 115 riscv-013.c:397 scan(): 41b 4i - 00000000 @10 -> + 00250001 @10
Debug: 683 115 riscv-013.c:408 scan():  ->  hartsello=37 dmactive
Debug: 684 115 riscv-013.c:397 scan(): 41b 4i r 00000000 @11 -> + 00000000 @10
Debug: 685 116 riscv-013.c:397 scan(): 41b 4i - 00000000 @11 -> + 00003082 @11
Debug: 686 116 riscv-013.c:408 scan():  ->  allunavail anyunavail authenticated version=2
Debug: 687 116 riscv-013.c:397 scan(): 41b 4i r 00000000 @10 -> + 00000000 @11
Debug: 688 116 riscv-013.c:397 scan(): 41b 4i - 00000000 @10 -> + 00250001 @10
Debug: 689 116 riscv-013.c:408 scan():  ->  hartsello=37 dmactive
Debug: 690 117 riscv-013.c:397 scan(): 41b 4i w 00260001 @10 -> + 00000000 @10
Debug: 691 117 riscv-013.c:408 scan():  hartsello=38 dmactive -> 
Debug: 692 117 riscv-013.c:397 scan(): 41b 4i - 00000000 @10 -> + 00260001 @10
Debug: 693 117 riscv-013.c:408 scan():  ->  hartsello=38 dmactive
Debug: 694 117 riscv-013.c:397 scan(): 41b 4i r 00000000 @11 -> + 00000000 @10
Debug: 695 118 riscv-013.c:397 scan(): 41b 4i - 00000000 @11 -> + 00003082 @11
Debug: 696 118 riscv-013.c:408 scan():  ->  allunavail anyunavail authenticated version=2
Debug: 697 118 riscv-013.c:397 scan(): 41b 4i r 00000000 @10 -> + 00000000 @11
Debug: 698 118 riscv-013.c:397 scan(): 41b 4i - 00000000 @10 -> + 00260001 @10
Debug: 699 118 riscv-013.c:408 scan():  ->  hartsello=38 dmactive
Debug: 700 118 riscv-013.c:397 scan(): 41b 4i w 00270001 @10 -> + 00000000 @10
Debug: 701 118 riscv-013.c:408 scan():  hartsello=39 dmactive -> 
Debug: 702 118 riscv-013.c:397 scan(): 41b 4i - 00000000 @10 -> + 00270001 @10
Debug: 703 119 riscv-013.c:408 scan():  ->  hartsello=39 dmactive
Debug: 704 119 riscv-013.c:397 scan(): 41b 4i r 00000000 @11 -> + 00000000 @10
Debug: 705 119 riscv-013.c:397 scan(): 41b 4i - 00000000 @11 -> + 00003082 @11
Debug: 706 119 riscv-013.c:408 scan():  ->  allunavail anyunavail authenticated version=2
Debug: 707 119 riscv-013.c:397 scan(): 41b 4i r 00000000 @10 -> + 00000000 @11
Debug: 708 120 riscv-013.c:397 scan(): 41b 4i - 00000000 @10 -> + 00270001 @10
Debug: 709 120 riscv-013.c:408 scan():  ->  hartsello=39 dmactive
Debug: 710 120 riscv-013.c:397 scan(): 41b 4i w 00280001 @10 -> + 00000000 @10
Debug: 711 120 riscv-013.c:408 scan():  hartsello=40 dmactive -> 
Debug: 712 120 riscv-013.c:397 scan(): 41b 4i - 00000000 @10 -> + 00280001 @10
Debug: 713 120 riscv-013.c:408 scan():  ->  hartsello=40 dmactive
Debug: 714 121 riscv-013.c:397 scan(): 41b 4i r 00000000 @11 -> + 00000000 @10
Debug: 715 121 riscv-013.c:397 scan(): 41b 4i - 00000000 @11 -> + 00003082 @11
Debug: 716 121 riscv-013.c:408 scan():  ->  allunavail anyunavail authenticated version=2
Debug: 717 121 riscv-013.c:397 scan(): 41b 4i r 00000000 @10 -> + 00000000 @11
Debug: 718 121 riscv-013.c:397 scan(): 41b 4i - 00000000 @10 -> + 00280001 @10
Debug: 719 121 riscv-013.c:408 scan():  ->  hartsello=40 dmactive
Debug: 720 122 riscv-013.c:397 scan(): 41b 4i w 00290001 @10 -> + 00000000 @10
Debug: 721 122 riscv-013.c:408 scan():  hartsello=41 dmactive -> 
Debug: 722 122 riscv-013.c:397 scan(): 41b 4i - 00000000 @10 -> + 00290001 @10
Debug: 723 122 riscv-013.c:408 scan():  ->  hartsello=41 dmactive
Debug: 724 122 riscv-013.c:397 scan(): 41b 4i r 00000000 @11 -> + 00000000 @10
Debug: 725 123 riscv-013.c:397 scan(): 41b 4i - 00000000 @11 -> + 00003082 @11
Debug: 726 123 riscv-013.c:408 scan():  ->  allunavail anyunavail authenticated version=2
Debug: 727 123 riscv-013.c:397 scan(): 41b 4i r 00000000 @10 -> + 00000000 @11
Debug: 728 123 riscv-013.c:397 scan(): 41b 4i - 00000000 @10 -> + 00290001 @10
Debug: 729 123 riscv-013.c:408 scan():  ->  hartsello=41 dmactive
Debug: 730 124 riscv-013.c:397 scan(): 41b 4i w 002a0001 @10 -> + 00000000 @10
Debug: 731 124 riscv-013.c:408 scan():  hartsello=42 dmactive -> 
Debug: 732 124 riscv-013.c:397 scan(): 41b 4i - 00000000 @10 -> + 002a0001 @10
Debug: 733 124 riscv-013.c:408 scan():  ->  hartsello=42 dmactive
Debug: 734 124 riscv-013.c:397 scan(): 41b 4i r 00000000 @11 -> + 00000000 @10
Debug: 735 125 riscv-013.c:397 scan(): 41b 4i - 00000000 @11 -> + 00003082 @11
Debug: 736 125 riscv-013.c:408 scan():  ->  allunavail anyunavail authenticated version=2
Debug: 737 125 riscv-013.c:397 scan(): 41b 4i r 00000000 @10 -> + 00000000 @11
Debug: 738 125 riscv-013.c:397 scan(): 41b 4i - 00000000 @10 -> + 002a0001 @10
Debug: 739 125 riscv-013.c:408 scan():  ->  hartsello=42 dmactive
Debug: 740 126 riscv-013.c:397 scan(): 41b 4i w 002b0001 @10 -> + 00000000 @10
Debug: 741 126 riscv-013.c:408 scan():  hartsello=43 dmactive -> 
Debug: 742 126 riscv-013.c:397 scan(): 41b 4i - 00000000 @10 -> + 002b0001 @10
Debug: 743 126 riscv-013.c:408 scan():  ->  hartsello=43 dmactive
Debug: 744 126 riscv-013.c:397 scan(): 41b 4i r 00000000 @11 -> + 00000000 @10
Debug: 745 126 riscv-013.c:397 scan(): 41b 4i - 00000000 @11 -> + 00003082 @11
Debug: 746 126 riscv-013.c:408 scan():  ->  allunavail anyunavail authenticated version=2
Debug: 747 127 riscv-013.c:397 scan(): 41b 4i r 00000000 @10 -> + 00000000 @11
Debug: 748 127 riscv-013.c:397 scan(): 41b 4i - 00000000 @10 -> + 002b0001 @10
Debug: 749 127 riscv-013.c:408 scan():  ->  hartsello=43 dmactive
Debug: 750 127 riscv-013.c:397 scan(): 41b 4i w 002c0001 @10 -> + 00000000 @10
Debug: 751 127 riscv-013.c:408 scan():  hartsello=44 dmactive -> 
Debug: 752 128 riscv-013.c:397 scan(): 41b 4i - 00000000 @10 -> + 002c0001 @10
Debug: 753 128 riscv-013.c:408 scan():  ->  hartsello=44 dmactive
Debug: 754 128 riscv-013.c:397 scan(): 41b 4i r 00000000 @11 -> + 00000000 @10
Debug: 755 128 riscv-013.c:397 scan(): 41b 4i - 00000000 @11 -> + 00003082 @11
Debug: 756 128 riscv-013.c:408 scan():  ->  allunavail anyunavail authenticated version=2
Debug: 757 129 riscv-013.c:397 scan(): 41b 4i r 00000000 @10 -> + 00000000 @11
Debug: 758 129 riscv-013.c:397 scan(): 41b 4i - 00000000 @10 -> + 002c0001 @10
Debug: 759 129 riscv-013.c:408 scan():  ->  hartsello=44 dmactive
Debug: 760 129 riscv-013.c:397 scan(): 41b 4i w 002d0001 @10 -> + 00000000 @10
Debug: 761 129 riscv-013.c:408 scan():  hartsello=45 dmactive -> 
Debug: 762 130 riscv-013.c:397 scan(): 41b 4i - 00000000 @10 -> + 002d0001 @10
Debug: 763 130 riscv-013.c:408 scan():  ->  hartsello=45 dmactive
Debug: 764 130 riscv-013.c:397 scan(): 41b 4i r 00000000 @11 -> + 00000000 @10
Debug: 765 130 riscv-013.c:397 scan(): 41b 4i - 00000000 @11 -> + 00003082 @11
Debug: 766 130 riscv-013.c:408 scan():  ->  allunavail anyunavail authenticated version=2
Debug: 767 131 riscv-013.c:397 scan(): 41b 4i r 00000000 @10 -> + 00000000 @11
Debug: 768 131 riscv-013.c:397 scan(): 41b 4i - 00000000 @10 -> + 002d0001 @10
Debug: 769 131 riscv-013.c:408 scan():  ->  hartsello=45 dmactive
Debug: 770 131 riscv-013.c:397 scan(): 41b 4i w 002e0001 @10 -> + 00000000 @10
Debug: 771 131 riscv-013.c:408 scan():  hartsello=46 dmactive -> 
Debug: 772 131 riscv-013.c:397 scan(): 41b 4i - 00000000 @10 -> + 002e0001 @10
Debug: 773 131 riscv-013.c:408 scan():  ->  hartsello=46 dmactive
Debug: 774 132 riscv-013.c:397 scan(): 41b 4i r 00000000 @11 -> + 00000000 @10
Debug: 775 132 riscv-013.c:397 scan(): 41b 4i - 00000000 @11 -> + 00003082 @11
Debug: 776 132 riscv-013.c:408 scan():  ->  allunavail anyunavail authenticated version=2
Debug: 777 132 riscv-013.c:397 scan(): 41b 4i r 00000000 @10 -> + 00000000 @11
Debug: 778 133 riscv-013.c:397 scan(): 41b 4i - 00000000 @10 -> + 002e0001 @10
Debug: 779 133 riscv-013.c:408 scan():  ->  hartsello=46 dmactive
Debug: 780 133 riscv-013.c:397 scan(): 41b 4i w 002f0001 @10 -> + 00000000 @10
Debug: 781 133 riscv-013.c:408 scan():  hartsello=47 dmactive -> 
Debug: 782 133 riscv-013.c:397 scan(): 41b 4i - 00000000 @10 -> + 002f0001 @10
Debug: 783 133 riscv-013.c:408 scan():  ->  hartsello=47 dmactive
Debug: 784 133 riscv-013.c:397 scan(): 41b 4i r 00000000 @11 -> + 00000000 @10
Debug: 785 134 riscv-013.c:397 scan(): 41b 4i - 00000000 @11 -> + 00003082 @11
Debug: 786 134 riscv-013.c:408 scan():  ->  allunavail anyunavail authenticated version=2
Debug: 787 134 riscv-013.c:397 scan(): 41b 4i r 00000000 @10 -> + 00000000 @11
Debug: 788 134 riscv-013.c:397 scan(): 41b 4i - 00000000 @10 -> + 002f0001 @10
Debug: 789 134 riscv-013.c:408 scan():  ->  hartsello=47 dmactive
Debug: 790 134 riscv-013.c:397 scan(): 41b 4i w 00300001 @10 -> + 00000000 @10
Debug: 791 134 riscv-013.c:408 scan():  hartsello=48 dmactive -> 
Debug: 792 135 riscv-013.c:397 scan(): 41b 4i - 00000000 @10 -> + 00300001 @10
Debug: 793 135 riscv-013.c:408 scan():  ->  hartsello=48 dmactive
Debug: 794 135 riscv-013.c:397 scan(): 41b 4i r 00000000 @11 -> + 00000000 @10
Debug: 795 135 riscv-013.c:397 scan(): 41b 4i - 00000000 @11 -> + 00003082 @11
Debug: 796 135 riscv-013.c:408 scan():  ->  allunavail anyunavail authenticated version=2
Debug: 797 136 riscv-013.c:397 scan(): 41b 4i r 00000000 @10 -> + 00000000 @11
Debug: 798 136 riscv-013.c:397 scan(): 41b 4i - 00000000 @10 -> + 00300001 @10
Debug: 799 136 riscv-013.c:408 scan():  ->  hartsello=48 dmactive
Debug: 800 136 riscv-013.c:397 scan(): 41b 4i w 00310001 @10 -> + 00000000 @10
Debug: 801 136 riscv-013.c:408 scan():  hartsello=49 dmactive -> 
Debug: 802 136 riscv-013.c:397 scan(): 41b 4i - 00000000 @10 -> + 00310001 @10
Debug: 803 137 riscv-013.c:408 scan():  ->  hartsello=49 dmactive
Debug: 804 137 riscv-013.c:397 scan(): 41b 4i r 00000000 @11 -> + 00000000 @10
Debug: 805 137 riscv-013.c:397 scan(): 41b 4i - 00000000 @11 -> + 00003082 @11
Debug: 806 137 riscv-013.c:408 scan():  ->  allunavail anyunavail authenticated version=2
Debug: 807 137 riscv-013.c:397 scan(): 41b 4i r 00000000 @10 -> + 00000000 @11
Debug: 808 137 riscv-013.c:397 scan(): 41b 4i - 00000000 @10 -> + 00310001 @10
Debug: 809 137 riscv-013.c:408 scan():  ->  hartsello=49 dmactive
Debug: 810 138 riscv-013.c:397 scan(): 41b 4i w 00320001 @10 -> + 00000000 @10
Debug: 811 138 riscv-013.c:408 scan():  hartsello=50 dmactive -> 
Debug: 812 138 riscv-013.c:397 scan(): 41b 4i - 00000000 @10 -> + 00320001 @10
Debug: 813 138 riscv-013.c:408 scan():  ->  hartsello=50 dmactive
Debug: 814 138 riscv-013.c:397 scan(): 41b 4i r 00000000 @11 -> + 00000000 @10
Debug: 815 139 riscv-013.c:397 scan(): 41b 4i - 00000000 @11 -> + 00003082 @11
Debug: 816 139 riscv-013.c:408 scan():  ->  allunavail anyunavail authenticated version=2
Debug: 817 139 riscv-013.c:397 scan(): 41b 4i r 00000000 @10 -> + 00000000 @11
Debug: 818 139 riscv-013.c:397 scan(): 41b 4i - 00000000 @10 -> + 00320001 @10
Debug: 819 139 riscv-013.c:408 scan():  ->  hartsello=50 dmactive
Debug: 820 140 riscv-013.c:397 scan(): 41b 4i w 00330001 @10 -> + 00000000 @10
Debug: 821 140 riscv-013.c:408 scan():  hartsello=51 dmactive -> 
Debug: 822 140 riscv-013.c:397 scan(): 41b 4i - 00000000 @10 -> + 00330001 @10
Debug: 823 140 riscv-013.c:408 scan():  ->  hartsello=51 dmactive
Debug: 824 140 riscv-013.c:397 scan(): 41b 4i r 00000000 @11 -> + 00000000 @10
Debug: 825 141 riscv-013.c:397 scan(): 41b 4i - 00000000 @11 -> + 00003082 @11
Debug: 826 141 riscv-013.c:408 scan():  ->  allunavail anyunavail authenticated version=2
Debug: 827 141 riscv-013.c:397 scan(): 41b 4i r 00000000 @10 -> + 00000000 @11
Debug: 828 141 riscv-013.c:397 scan(): 41b 4i - 00000000 @10 -> + 00330001 @10
Debug: 829 141 riscv-013.c:408 scan():  ->  hartsello=51 dmactive
Debug: 830 142 riscv-013.c:397 scan(): 41b 4i w 00340001 @10 -> + 00000000 @10
Debug: 831 142 riscv-013.c:408 scan():  hartsello=52 dmactive -> 
Debug: 832 142 riscv-013.c:397 scan(): 41b 4i - 00000000 @10 -> + 00340001 @10
Debug: 833 142 riscv-013.c:408 scan():  ->  hartsello=52 dmactive
Debug: 834 142 riscv-013.c:397 scan(): 41b 4i r 00000000 @11 -> + 00000000 @10
Debug: 835 143 riscv-013.c:397 scan(): 41b 4i - 00000000 @11 -> + 00003082 @11
Debug: 836 143 riscv-013.c:408 scan():  ->  allunavail anyunavail authenticated version=2
Debug: 837 143 riscv-013.c:397 scan(): 41b 4i r 00000000 @10 -> + 00000000 @11
Debug: 838 143 riscv-013.c:397 scan(): 41b 4i - 00000000 @10 -> + 00340001 @10
Debug: 839 143 riscv-013.c:408 scan():  ->  hartsello=52 dmactive
Debug: 840 144 riscv-013.c:397 scan(): 41b 4i w 00350001 @10 -> + 00000000 @10
Debug: 841 144 riscv-013.c:408 scan():  hartsello=53 dmactive -> 
Debug: 842 144 riscv-013.c:397 scan(): 41b 4i - 00000000 @10 -> + 00350001 @10
Debug: 843 144 riscv-013.c:408 scan():  ->  hartsello=53 dmactive
Debug: 844 144 riscv-013.c:397 scan(): 41b 4i r 00000000 @11 -> + 00000000 @10
Debug: 845 145 riscv-013.c:397 scan(): 41b 4i - 00000000 @11 -> + 00003082 @11
Debug: 846 145 riscv-013.c:408 scan():  ->  allunavail anyunavail authenticated version=2
Debug: 847 145 riscv-013.c:397 scan(): 41b 4i r 00000000 @10 -> + 00000000 @11
Debug: 848 145 riscv-013.c:397 scan(): 41b 4i - 00000000 @10 -> + 00350001 @10
Debug: 849 145 riscv-013.c:408 scan():  ->  hartsello=53 dmactive
Debug: 850 145 riscv-013.c:397 scan(): 41b 4i w 00360001 @10 -> + 00000000 @10
Debug: 851 145 riscv-013.c:408 scan():  hartsello=54 dmactive -> 
Debug: 852 146 riscv-013.c:397 scan(): 41b 4i - 00000000 @10 -> + 00360001 @10
Debug: 853 146 riscv-013.c:408 scan():  ->  hartsello=54 dmactive
Debug: 854 146 riscv-013.c:397 scan(): 41b 4i r 00000000 @11 -> + 00000000 @10
Debug: 855 146 riscv-013.c:397 scan(): 41b 4i - 00000000 @11 -> + 00003082 @11
Debug: 856 146 riscv-013.c:408 scan():  ->  allunavail anyunavail authenticated version=2
Debug: 857 147 riscv-013.c:397 scan(): 41b 4i r 00000000 @10 -> + 00000000 @11
Debug: 858 147 riscv-013.c:397 scan(): 41b 4i - 00000000 @10 -> + 00360001 @10
Debug: 859 147 riscv-013.c:408 scan():  ->  hartsello=54 dmactive
Debug: 860 147 riscv-013.c:397 scan(): 41b 4i w 00370001 @10 -> + 00000000 @10
Debug: 861 147 riscv-013.c:408 scan():  hartsello=55 dmactive -> 
Debug: 862 147 riscv-013.c:397 scan(): 41b 4i - 00000000 @10 -> + 00370001 @10
Debug: 863 147 riscv-013.c:408 scan():  ->  hartsello=55 dmactive
Debug: 864 148 riscv-013.c:397 scan(): 41b 4i r 00000000 @11 -> + 00000000 @10
Debug: 865 148 riscv-013.c:397 scan(): 41b 4i - 00000000 @11 -> + 00003082 @11
Debug: 866 148 riscv-013.c:408 scan():  ->  allunavail anyunavail authenticated version=2
Debug: 867 149 riscv-013.c:397 scan(): 41b 4i r 00000000 @10 -> + 00000000 @11
Debug: 868 149 riscv-013.c:397 scan(): 41b 4i - 00000000 @10 -> + 00370001 @10
Debug: 869 149 riscv-013.c:408 scan():  ->  hartsello=55 dmactive
Debug: 870 149 riscv-013.c:397 scan(): 41b 4i w 00380001 @10 -> + 00000000 @10
Debug: 871 149 riscv-013.c:408 scan():  hartsello=56 dmactive -> 
Debug: 872 149 riscv-013.c:397 scan(): 41b 4i - 00000000 @10 -> + 00380001 @10
Debug: 873 150 riscv-013.c:408 scan():  ->  hartsello=56 dmactive
Debug: 874 150 riscv-013.c:397 scan(): 41b 4i r 00000000 @11 -> + 00000000 @10
Debug: 875 150 riscv-013.c:397 scan(): 41b 4i - 00000000 @11 -> + 00003082 @11
Debug: 876 150 riscv-013.c:408 scan():  ->  allunavail anyunavail authenticated version=2
Debug: 877 150 riscv-013.c:397 scan(): 41b 4i r 00000000 @10 -> + 00000000 @11
Debug: 878 151 riscv-013.c:397 scan(): 41b 4i - 00000000 @10 -> + 00380001 @10
Debug: 879 151 riscv-013.c:408 scan():  ->  hartsello=56 dmactive
Debug: 880 151 riscv-013.c:397 scan(): 41b 4i w 00390001 @10 -> + 00000000 @10
Debug: 881 151 riscv-013.c:408 scan():  hartsello=57 dmactive -> 
Debug: 882 151 riscv-013.c:397 scan(): 41b 4i - 00000000 @10 -> + 00390001 @10
Debug: 883 151 riscv-013.c:408 scan():  ->  hartsello=57 dmactive
Debug: 884 152 riscv-013.c:397 scan(): 41b 4i r 00000000 @11 -> + 00000000 @10
Debug: 885 152 riscv-013.c:397 scan(): 41b 4i - 00000000 @11 -> + 00003082 @11
Debug: 886 152 riscv-013.c:408 scan():  ->  allunavail anyunavail authenticated version=2
Debug: 887 152 riscv-013.c:397 scan(): 41b 4i r 00000000 @10 -> + 00000000 @11
Debug: 888 153 riscv-013.c:397 scan(): 41b 4i - 00000000 @10 -> + 00390001 @10
Debug: 889 153 riscv-013.c:408 scan():  ->  hartsello=57 dmactive
Debug: 890 153 riscv-013.c:397 scan(): 41b 4i w 003a0001 @10 -> + 00000000 @10
Debug: 891 153 riscv-013.c:408 scan():  hartsello=58 dmactive -> 
Debug: 892 153 riscv-013.c:397 scan(): 41b 4i - 00000000 @10 -> + 003a0001 @10
Debug: 893 153 riscv-013.c:408 scan():  ->  hartsello=58 dmactive
Debug: 894 153 riscv-013.c:397 scan(): 41b 4i r 00000000 @11 -> + 00000000 @10
Debug: 895 154 riscv-013.c:397 scan(): 41b 4i - 00000000 @11 -> + 00003082 @11
Debug: 896 154 riscv-013.c:408 scan():  ->  allunavail anyunavail authenticated version=2
Debug: 897 154 riscv-013.c:397 scan(): 41b 4i r 00000000 @10 -> + 00000000 @11
Debug: 898 154 riscv-013.c:397 scan(): 41b 4i - 00000000 @10 -> + 003a0001 @10
Debug: 899 154 riscv-013.c:408 scan():  ->  hartsello=58 dmactive
Debug: 900 154 riscv-013.c:397 scan(): 41b 4i w 003b0001 @10 -> + 00000000 @10
Debug: 901 154 riscv-013.c:408 scan():  hartsello=59 dmactive -> 
Debug: 902 155 riscv-013.c:397 scan(): 41b 4i - 00000000 @10 -> + 003b0001 @10
Debug: 903 155 riscv-013.c:408 scan():  ->  hartsello=59 dmactive
Debug: 904 155 riscv-013.c:397 scan(): 41b 4i r 00000000 @11 -> + 00000000 @10
Debug: 905 155 riscv-013.c:397 scan(): 41b 4i - 00000000 @11 -> + 00003082 @11
Debug: 906 155 riscv-013.c:408 scan():  ->  allunavail anyunavail authenticated version=2
Debug: 907 155 riscv-013.c:397 scan(): 41b 4i r 00000000 @10 -> + 00000000 @11
Debug: 908 156 riscv-013.c:397 scan(): 41b 4i - 00000000 @10 -> + 003b0001 @10
Debug: 909 156 riscv-013.c:408 scan():  ->  hartsello=59 dmactive
Debug: 910 156 riscv-013.c:397 scan(): 41b 4i w 003c0001 @10 -> + 00000000 @10
Debug: 911 156 riscv-013.c:408 scan():  hartsello=60 dmactive -> 
Debug: 912 156 riscv-013.c:397 scan(): 41b 4i - 00000000 @10 -> + 003c0001 @10
Debug: 913 156 riscv-013.c:408 scan():  ->  hartsello=60 dmactive
Debug: 914 157 riscv-013.c:397 scan(): 41b 4i r 00000000 @11 -> + 00000000 @10
Debug: 915 157 riscv-013.c:397 scan(): 41b 4i - 00000000 @11 -> + 00003082 @11
Debug: 916 157 riscv-013.c:408 scan():  ->  allunavail anyunavail authenticated version=2
Debug: 917 157 riscv-013.c:397 scan(): 41b 4i r 00000000 @10 -> + 00000000 @11
Debug: 918 157 riscv-013.c:397 scan(): 41b 4i - 00000000 @10 -> + 003c0001 @10
Debug: 919 157 riscv-013.c:408 scan():  ->  hartsello=60 dmactive
Debug: 920 158 riscv-013.c:397 scan(): 41b 4i w 003d0001 @10 -> + 00000000 @10
Debug: 921 158 riscv-013.c:408 scan():  hartsello=61 dmactive -> 
Debug: 922 158 riscv-013.c:397 scan(): 41b 4i - 00000000 @10 -> + 003d0001 @10
Debug: 923 158 riscv-013.c:408 scan():  ->  hartsello=61 dmactive
Debug: 924 158 riscv-013.c:397 scan(): 41b 4i r 00000000 @11 -> + 00000000 @10
Debug: 925 158 riscv-013.c:397 scan(): 41b 4i - 00000000 @11 -> + 00003082 @11
Debug: 926 158 riscv-013.c:408 scan():  ->  allunavail anyunavail authenticated version=2
Debug: 927 159 riscv-013.c:397 scan(): 41b 4i r 00000000 @10 -> + 00000000 @11
Debug: 928 159 riscv-013.c:397 scan(): 41b 4i - 00000000 @10 -> + 003d0001 @10
Debug: 929 159 riscv-013.c:408 scan():  ->  hartsello=61 dmactive
Debug: 930 159 riscv-013.c:397 scan(): 41b 4i w 003e0001 @10 -> + 00000000 @10
Debug: 931 159 riscv-013.c:408 scan():  hartsello=62 dmactive -> 
Debug: 932 160 riscv-013.c:397 scan(): 41b 4i - 00000000 @10 -> + 003e0001 @10
Debug: 933 160 riscv-013.c:408 scan():  ->  hartsello=62 dmactive
Debug: 934 160 riscv-013.c:397 scan(): 41b 4i r 00000000 @11 -> + 00000000 @10
Debug: 935 160 riscv-013.c:397 scan(): 41b 4i - 00000000 @11 -> + 00003082 @11
Debug: 936 160 riscv-013.c:408 scan():  ->  allunavail anyunavail authenticated version=2
Debug: 937 160 riscv-013.c:397 scan(): 41b 4i r 00000000 @10 -> + 00000000 @11
Debug: 938 161 riscv-013.c:397 scan(): 41b 4i - 00000000 @10 -> + 003e0001 @10
Debug: 939 161 riscv-013.c:408 scan():  ->  hartsello=62 dmactive
Debug: 940 161 riscv-013.c:397 scan(): 41b 4i w 003f0001 @10 -> + 00000000 @10
Debug: 941 161 riscv-013.c:408 scan():  hartsello=63 dmactive -> 
Debug: 942 161 riscv-013.c:397 scan(): 41b 4i - 00000000 @10 -> + 003f0001 @10
Debug: 943 161 riscv-013.c:408 scan():  ->  hartsello=63 dmactive
Debug: 944 162 riscv-013.c:397 scan(): 41b 4i r 00000000 @11 -> + 00000000 @10
Debug: 945 162 riscv-013.c:397 scan(): 41b 4i - 00000000 @11 -> + 00003082 @11
Debug: 946 162 riscv-013.c:408 scan():  ->  allunavail anyunavail authenticated version=2
Debug: 947 162 riscv-013.c:397 scan(): 41b 4i r 00000000 @10 -> + 00000000 @11
Debug: 948 162 riscv-013.c:397 scan(): 41b 4i - 00000000 @10 -> + 003f0001 @10
Debug: 949 162 riscv-013.c:408 scan():  ->  hartsello=63 dmactive
Debug: 950 163 riscv-013.c:397 scan(): 41b 4i w 00400001 @10 -> + 00000000 @10
Debug: 951 163 riscv-013.c:408 scan():  hartsello=64 dmactive -> 
Debug: 952 163 riscv-013.c:397 scan(): 41b 4i - 00000000 @10 -> + 00400001 @10
Debug: 953 163 riscv-013.c:408 scan():  ->  hartsello=64 dmactive
Debug: 954 163 riscv-013.c:397 scan(): 41b 4i r 00000000 @11 -> + 00000000 @10
Debug: 955 163 riscv-013.c:397 scan(): 41b 4i - 00000000 @11 -> + 00003082 @11
Debug: 956 163 riscv-013.c:408 scan():  ->  allunavail anyunavail authenticated version=2
Debug: 957 164 riscv-013.c:397 scan(): 41b 4i r 00000000 @10 -> + 00000000 @11
Debug: 958 164 riscv-013.c:397 scan(): 41b 4i - 00000000 @10 -> + 00400001 @10
Debug: 959 164 riscv-013.c:408 scan():  ->  hartsello=64 dmactive
Debug: 960 164 riscv-013.c:397 scan(): 41b 4i w 00410001 @10 -> + 00000000 @10
Debug: 961 164 riscv-013.c:408 scan():  hartsello=65 dmactive -> 
Debug: 962 165 riscv-013.c:397 scan(): 41b 4i - 00000000 @10 -> + 00410001 @10
Debug: 963 165 riscv-013.c:408 scan():  ->  hartsello=65 dmactive
Debug: 964 165 riscv-013.c:397 scan(): 41b 4i r 00000000 @11 -> + 00000000 @10
Debug: 965 165 riscv-013.c:397 scan(): 41b 4i - 00000000 @11 -> + 00003082 @11
Debug: 966 165 riscv-013.c:408 scan():  ->  allunavail anyunavail authenticated version=2
Debug: 967 166 riscv-013.c:397 scan(): 41b 4i r 00000000 @10 -> + 00000000 @11
Debug: 968 166 riscv-013.c:397 scan(): 41b 4i - 00000000 @10 -> + 00410001 @10
Debug: 969 166 riscv-013.c:408 scan():  ->  hartsello=65 dmactive
Debug: 970 166 riscv-013.c:397 scan(): 41b 4i w 00420001 @10 -> + 00000000 @10
Debug: 971 166 riscv-013.c:408 scan():  hartsello=66 dmactive -> 
Debug: 972 166 riscv-013.c:397 scan(): 41b 4i - 00000000 @10 -> + 00420001 @10
Debug: 973 166 riscv-013.c:408 scan():  ->  hartsello=66 dmactive
Debug: 974 166 riscv-013.c:397 scan(): 41b 4i r 00000000 @11 -> + 00000000 @10
Debug: 975 167 riscv-013.c:397 scan(): 41b 4i - 00000000 @11 -> + 00003082 @11
Debug: 976 167 riscv-013.c:408 scan():  ->  allunavail anyunavail authenticated version=2
Debug: 977 167 riscv-013.c:397 scan(): 41b 4i r 00000000 @10 -> + 00000000 @11
Debug: 978 167 riscv-013.c:397 scan(): 41b 4i - 00000000 @10 -> + 00420001 @10
Debug: 979 167 riscv-013.c:408 scan():  ->  hartsello=66 dmactive
Debug: 980 167 riscv-013.c:397 scan(): 41b 4i w 00430001 @10 -> + 00000000 @10
Debug: 981 167 riscv-013.c:408 scan():  hartsello=67 dmactive -> 
Debug: 982 168 riscv-013.c:397 scan(): 41b 4i - 00000000 @10 -> + 00430001 @10
Debug: 983 168 riscv-013.c:408 scan():  ->  hartsello=67 dmactive
Debug: 984 168 riscv-013.c:397 scan(): 41b 4i r 00000000 @11 -> + 00000000 @10
Debug: 985 168 riscv-013.c:397 scan(): 41b 4i - 00000000 @11 -> + 00003082 @11
Debug: 986 168 riscv-013.c:408 scan():  ->  allunavail anyunavail authenticated version=2
Debug: 987 168 riscv-013.c:397 scan(): 41b 4i r 00000000 @10 -> + 00000000 @11
Debug: 988 169 riscv-013.c:397 scan(): 41b 4i - 00000000 @10 -> + 00430001 @10
Debug: 989 169 riscv-013.c:408 scan():  ->  hartsello=67 dmactive
Debug: 990 169 riscv-013.c:397 scan(): 41b 4i w 00440001 @10 -> + 00000000 @10
Debug: 991 169 riscv-013.c:408 scan():  hartsello=68 dmactive -> 
Debug: 992 169 riscv-013.c:397 scan(): 41b 4i - 00000000 @10 -> + 00440001 @10
Debug: 993 169 riscv-013.c:408 scan():  ->  hartsello=68 dmactive
Debug: 994 169 riscv-013.c:397 scan(): 41b 4i r 00000000 @11 -> + 00000000 @10
Debug: 995 170 riscv-013.c:397 scan(): 41b 4i - 00000000 @11 -> + 00003082 @11
Debug: 996 170 riscv-013.c:408 scan():  ->  allunavail anyunavail authenticated version=2
Debug: 997 170 riscv-013.c:397 scan(): 41b 4i r 00000000 @10 -> + 00000000 @11
Debug: 998 170 riscv-013.c:397 scan(): 41b 4i - 00000000 @10 -> + 00440001 @10
Debug: 999 170 riscv-013.c:408 scan():  ->  hartsello=68 dmactive
Debug: 1000 170 riscv-013.c:397 scan(): 41b 4i w 00450001 @10 -> + 00000000 @10
Debug: 1001 170 riscv-013.c:408 scan():  hartsello=69 dmactive -> 
Debug: 1002 171 riscv-013.c:397 scan(): 41b 4i - 00000000 @10 -> + 00450001 @10
Debug: 1003 171 riscv-013.c:408 scan():  ->  hartsello=69 dmactive
Debug: 1004 171 riscv-013.c:397 scan(): 41b 4i r 00000000 @11 -> + 00000000 @10
Debug: 1005 171 riscv-013.c:397 scan(): 41b 4i - 00000000 @11 -> + 00003082 @11
Debug: 1006 171 riscv-013.c:408 scan():  ->  allunavail anyunavail authenticated version=2
Debug: 1007 171 riscv-013.c:397 scan(): 41b 4i r 00000000 @10 -> + 00000000 @11
Debug: 1008 172 riscv-013.c:397 scan(): 41b 4i - 00000000 @10 -> + 00450001 @10
Debug: 1009 172 riscv-013.c:408 scan():  ->  hartsello=69 dmactive
Debug: 1010 172 riscv-013.c:397 scan(): 41b 4i w 00460001 @10 -> + 00000000 @10
Debug: 1011 172 riscv-013.c:408 scan():  hartsello=70 dmactive -> 
Debug: 1012 172 riscv-013.c:397 scan(): 41b 4i - 00000000 @10 -> + 00460001 @10
Debug: 1013 172 riscv-013.c:408 scan():  ->  hartsello=70 dmactive
Debug: 1014 172 riscv-013.c:397 scan(): 41b 4i r 00000000 @11 -> + 00000000 @10
Debug: 1015 173 riscv-013.c:397 scan(): 41b 4i - 00000000 @11 -> + 00003082 @11
Debug: 1016 173 riscv-013.c:408 scan():  ->  allunavail anyunavail authenticated version=2
Debug: 1017 173 riscv-013.c:397 scan(): 41b 4i r 00000000 @10 -> + 00000000 @11
Debug: 1018 173 riscv-013.c:397 scan(): 41b 4i - 00000000 @10 -> + 00460001 @10
Debug: 1019 173 riscv-013.c:408 scan():  ->  hartsello=70 dmactive
Debug: 1020 173 riscv-013.c:397 scan(): 41b 4i w 00470001 @10 -> + 00000000 @10
Debug: 1021 173 riscv-013.c:408 scan():  hartsello=71 dmactive -> 
Debug: 1022 174 riscv-013.c:397 scan(): 41b 4i - 00000000 @10 -> + 00470001 @10
Debug: 1023 174 riscv-013.c:408 scan():  ->  hartsello=71 dmactive
Debug: 1024 174 riscv-013.c:397 scan(): 41b 4i r 00000000 @11 -> + 00000000 @10
Debug: 1025 174 riscv-013.c:397 scan(): 41b 4i - 00000000 @11 -> + 00003082 @11
Debug: 1026 174 riscv-013.c:408 scan():  ->  allunavail anyunavail authenticated version=2
Debug: 1027 174 riscv-013.c:397 scan(): 41b 4i r 00000000 @10 -> + 00000000 @11
Debug: 1028 175 riscv-013.c:397 scan(): 41b 4i - 00000000 @10 -> + 00470001 @10
Debug: 1029 175 riscv-013.c:408 scan():  ->  hartsello=71 dmactive
Debug: 1030 175 riscv-013.c:397 scan(): 41b 4i w 00480001 @10 -> + 00000000 @10
Debug: 1031 175 riscv-013.c:408 scan():  hartsello=72 dmactive -> 
Debug: 1032 175 riscv-013.c:397 scan(): 41b 4i - 00000000 @10 -> + 00480001 @10
Debug: 1033 175 riscv-013.c:408 scan():  ->  hartsello=72 dmactive
Debug: 1034 175 riscv-013.c:397 scan(): 41b 4i r 00000000 @11 -> + 00000000 @10
Debug: 1035 175 riscv-013.c:397 scan(): 41b 4i - 00000000 @11 -> + 00003082 @11
Debug: 1036 175 riscv-013.c:408 scan():  ->  allunavail anyunavail authenticated version=2
Debug: 1037 176 riscv-013.c:397 scan(): 41b 4i r 00000000 @10 -> + 00000000 @11
Debug: 1038 176 riscv-013.c:397 scan(): 41b 4i - 00000000 @10 -> + 00480001 @10
Debug: 1039 176 riscv-013.c:408 scan():  ->  hartsello=72 dmactive
Debug: 1040 176 riscv-013.c:397 scan(): 41b 4i w 00490001 @10 -> + 00000000 @10
Debug: 1041 176 riscv-013.c:408 scan():  hartsello=73 dmactive -> 
Debug: 1042 176 riscv-013.c:397 scan(): 41b 4i - 00000000 @10 -> + 00490001 @10
Debug: 1043 176 riscv-013.c:408 scan():  ->  hartsello=73 dmactive
Debug: 1044 176 riscv-013.c:397 scan(): 41b 4i r 00000000 @11 -> + 00000000 @10
Debug: 1045 177 riscv-013.c:397 scan(): 41b 4i - 00000000 @11 -> + 00003082 @11
Debug: 1046 177 riscv-013.c:408 scan():  ->  allunavail anyunavail authenticated version=2
Debug: 1047 177 riscv-013.c:397 scan(): 41b 4i r 00000000 @10 -> + 00000000 @11
Debug: 1048 177 riscv-013.c:397 scan(): 41b 4i - 00000000 @10 -> + 00490001 @10
Debug: 1049 177 riscv-013.c:408 scan():  ->  hartsello=73 dmactive
Debug: 1050 178 riscv-013.c:397 scan(): 41b 4i w 004a0001 @10 -> + 00000000 @10
Debug: 1051 178 riscv-013.c:408 scan():  hartsello=74 dmactive -> 
Debug: 1052 178 riscv-013.c:397 scan(): 41b 4i - 00000000 @10 -> + 004a0001 @10
Debug: 1053 178 riscv-013.c:408 scan():  ->  hartsello=74 dmactive
Debug: 1054 178 riscv-013.c:397 scan(): 41b 4i r 00000000 @11 -> + 00000000 @10
Debug: 1055 178 riscv-013.c:397 scan(): 41b 4i - 00000000 @11 -> + 00003082 @11
Debug: 1056 178 riscv-013.c:408 scan():  ->  allunavail anyunavail authenticated version=2
Debug: 1057 178 riscv-013.c:397 scan(): 41b 4i r 00000000 @10 -> + 00000000 @11
Debug: 1058 178 riscv-013.c:397 scan(): 41b 4i - 00000000 @10 -> + 004a0001 @10
Debug: 1059 178 riscv-013.c:408 scan():  ->  hartsello=74 dmactive
Debug: 1060 179 riscv-013.c:397 scan(): 41b 4i w 004b0001 @10 -> + 00000000 @10
Debug: 1061 179 riscv-013.c:408 scan():  hartsello=75 dmactive -> 
Debug: 1062 179 riscv-013.c:397 scan(): 41b 4i - 00000000 @10 -> + 004b0001 @10
Debug: 1063 179 riscv-013.c:408 scan():  ->  hartsello=75 dmactive
Debug: 1064 179 riscv-013.c:397 scan(): 41b 4i r 00000000 @11 -> + 00000000 @10
Debug: 1065 179 riscv-013.c:397 scan(): 41b 4i - 00000000 @11 -> + 00003082 @11
Debug: 1066 180 riscv-013.c:408 scan():  ->  allunavail anyunavail authenticated version=2
Debug: 1067 180 riscv-013.c:397 scan(): 41b 4i r 00000000 @10 -> + 00000000 @11
Debug: 1068 180 riscv-013.c:397 scan(): 41b 4i - 00000000 @10 -> + 004b0001 @10
Debug: 1069 180 riscv-013.c:408 scan():  ->  hartsello=75 dmactive
Debug: 1070 180 riscv-013.c:397 scan(): 41b 4i w 004c0001 @10 -> + 00000000 @10
Debug: 1071 180 riscv-013.c:408 scan():  hartsello=76 dmactive -> 
Debug: 1072 180 riscv-013.c:397 scan(): 41b 4i - 00000000 @10 -> + 004c0001 @10
Debug: 1073 181 riscv-013.c:408 scan():  ->  hartsello=76 dmactive
Debug: 1074 181 riscv-013.c:397 scan(): 41b 4i r 00000000 @11 -> + 00000000 @10
Debug: 1075 181 riscv-013.c:397 scan(): 41b 4i - 00000000 @11 -> + 00003082 @11
Debug: 1076 181 riscv-013.c:408 scan():  ->  allunavail anyunavail authenticated version=2
Debug: 1077 181 riscv-013.c:397 scan(): 41b 4i r 00000000 @10 -> + 00000000 @11
Debug: 1078 181 riscv-013.c:397 scan(): 41b 4i - 00000000 @10 -> + 004c0001 @10
Debug: 1079 182 riscv-013.c:408 scan():  ->  hartsello=76 dmactive
Debug: 1080 182 riscv-013.c:397 scan(): 41b 4i w 004d0001 @10 -> + 00000000 @10
Debug: 1081 182 riscv-013.c:408 scan():  hartsello=77 dmactive -> 
Debug: 1082 182 riscv-013.c:397 scan(): 41b 4i - 00000000 @10 -> + 004d0001 @10
Debug: 1083 182 riscv-013.c:408 scan():  ->  hartsello=77 dmactive
Debug: 1084 182 riscv-013.c:397 scan(): 41b 4i r 00000000 @11 -> + 00000000 @10
Debug: 1085 182 riscv-013.c:397 scan(): 41b 4i - 00000000 @11 -> + 00003082 @11
Debug: 1086 183 riscv-013.c:408 scan():  ->  allunavail anyunavail authenticated version=2
Debug: 1087 183 riscv-013.c:397 scan(): 41b 4i r 00000000 @10 -> + 00000000 @11
Debug: 1088 183 riscv-013.c:397 scan(): 41b 4i - 00000000 @10 -> + 004d0001 @10
Debug: 1089 183 riscv-013.c:408 scan():  ->  hartsello=77 dmactive
Debug: 1090 183 riscv-013.c:397 scan(): 41b 4i w 004e0001 @10 -> + 00000000 @10
Debug: 1091 183 riscv-013.c:408 scan():  hartsello=78 dmactive -> 
Debug: 1092 183 riscv-013.c:397 scan(): 41b 4i - 00000000 @10 -> + 004e0001 @10
Debug: 1093 183 riscv-013.c:408 scan():  ->  hartsello=78 dmactive
Debug: 1094 184 riscv-013.c:397 scan(): 41b 4i r 00000000 @11 -> + 00000000 @10
Debug: 1095 184 riscv-013.c:397 scan(): 41b 4i - 00000000 @11 -> + 00003082 @11
Debug: 1096 184 riscv-013.c:408 scan():  ->  allunavail anyunavail authenticated version=2
Debug: 1097 184 riscv-013.c:397 scan(): 41b 4i r 00000000 @10 -> + 00000000 @11
Debug: 1098 184 riscv-013.c:397 scan(): 41b 4i - 00000000 @10 -> + 004e0001 @10
Debug: 1099 184 riscv-013.c:408 scan():  ->  hartsello=78 dmactive
Debug: 1100 185 riscv-013.c:397 scan(): 41b 4i w 004f0001 @10 -> + 00000000 @10
Debug: 1101 185 riscv-013.c:408 scan():  hartsello=79 dmactive -> 
Debug: 1102 185 riscv-013.c:397 scan(): 41b 4i - 00000000 @10 -> + 004f0001 @10
Debug: 1103 185 riscv-013.c:408 scan():  ->  hartsello=79 dmactive
Debug: 1104 185 riscv-013.c:397 scan(): 41b 4i r 00000000 @11 -> + 00000000 @10
Debug: 1105 185 riscv-013.c:397 scan(): 41b 4i - 00000000 @11 -> + 00003082 @11
Debug: 1106 185 riscv-013.c:408 scan():  ->  allunavail anyunavail authenticated version=2
Debug: 1107 186 riscv-013.c:397 scan(): 41b 4i r 00000000 @10 -> + 00000000 @11
Debug: 1108 186 riscv-013.c:397 scan(): 41b 4i - 00000000 @10 -> + 004f0001 @10
Debug: 1109 186 riscv-013.c:408 scan():  ->  hartsello=79 dmactive
Debug: 1110 186 riscv-013.c:397 scan(): 41b 4i w 00500001 @10 -> + 00000000 @10
Debug: 1111 186 riscv-013.c:408 scan():  hartsello=80 dmactive -> 
Debug: 1112 186 riscv-013.c:397 scan(): 41b 4i - 00000000 @10 -> + 00500001 @10
Debug: 1113 186 riscv-013.c:408 scan():  ->  hartsello=80 dmactive
Debug: 1114 187 riscv-013.c:397 scan(): 41b 4i r 00000000 @11 -> + 00000000 @10
Debug: 1115 187 riscv-013.c:397 scan(): 41b 4i - 00000000 @11 -> + 00003082 @11
Debug: 1116 187 riscv-013.c:408 scan():  ->  allunavail anyunavail authenticated version=2
Debug: 1117 187 riscv-013.c:397 scan(): 41b 4i r 00000000 @10 -> + 00000000 @11
Debug: 1118 187 riscv-013.c:397 scan(): 41b 4i - 00000000 @10 -> + 00500001 @10
Debug: 1119 187 riscv-013.c:408 scan():  ->  hartsello=80 dmactive
Debug: 1120 187 riscv-013.c:397 scan(): 41b 4i w 00510001 @10 -> + 00000000 @10
Debug: 1121 188 riscv-013.c:408 scan():  hartsello=81 dmactive -> 
Debug: 1122 188 riscv-013.c:397 scan(): 41b 4i - 00000000 @10 -> + 00510001 @10
Debug: 1123 188 riscv-013.c:408 scan():  ->  hartsello=81 dmactive
Debug: 1124 188 riscv-013.c:397 scan(): 41b 4i r 00000000 @11 -> + 00000000 @10
Debug: 1125 188 riscv-013.c:397 scan(): 41b 4i - 00000000 @11 -> + 00003082 @11
Debug: 1126 188 riscv-013.c:408 scan():  ->  allunavail anyunavail authenticated version=2
Debug: 1127 188 riscv-013.c:397 scan(): 41b 4i r 00000000 @10 -> + 00000000 @11
Debug: 1128 189 riscv-013.c:397 scan(): 41b 4i - 00000000 @10 -> + 00510001 @10
Debug: 1129 189 riscv-013.c:408 scan():  ->  hartsello=81 dmactive
Debug: 1130 189 riscv-013.c:397 scan(): 41b 4i w 00520001 @10 -> + 00000000 @10
Debug: 1131 189 riscv-013.c:408 scan():  hartsello=82 dmactive -> 
Debug: 1132 189 riscv-013.c:397 scan(): 41b 4i - 00000000 @10 -> + 00520001 @10
Debug: 1133 189 riscv-013.c:408 scan():  ->  hartsello=82 dmactive
Debug: 1134 189 riscv-013.c:397 scan(): 41b 4i r 00000000 @11 -> + 00000000 @10
Debug: 1135 190 riscv-013.c:397 scan(): 41b 4i - 00000000 @11 -> + 00003082 @11
Debug: 1136 190 riscv-013.c:408 scan():  ->  allunavail anyunavail authenticated version=2
Debug: 1137 190 riscv-013.c:397 scan(): 41b 4i r 00000000 @10 -> + 00000000 @11
Debug: 1138 190 riscv-013.c:397 scan(): 41b 4i - 00000000 @10 -> + 00520001 @10
Debug: 1139 190 riscv-013.c:408 scan():  ->  hartsello=82 dmactive
Debug: 1140 190 riscv-013.c:397 scan(): 41b 4i w 00530001 @10 -> + 00000000 @10
Debug: 1141 190 riscv-013.c:408 scan():  hartsello=83 dmactive -> 
Debug: 1142 190 riscv-013.c:397 scan(): 41b 4i - 00000000 @10 -> + 00530001 @10
Debug: 1143 190 riscv-013.c:408 scan():  ->  hartsello=83 dmactive
Debug: 1144 191 riscv-013.c:397 scan(): 41b 4i r 00000000 @11 -> + 00000000 @10
Debug: 1145 191 riscv-013.c:397 scan(): 41b 4i - 00000000 @11 -> + 00003082 @11
Debug: 1146 191 riscv-013.c:408 scan():  ->  allunavail anyunavail authenticated version=2
Debug: 1147 191 riscv-013.c:397 scan(): 41b 4i r 00000000 @10 -> + 00000000 @11
Debug: 1148 191 riscv-013.c:397 scan(): 41b 4i - 00000000 @10 -> + 00530001 @10
Debug: 1149 191 riscv-013.c:408 scan():  ->  hartsello=83 dmactive
Debug: 1150 191 riscv-013.c:397 scan(): 41b 4i w 00540001 @10 -> + 00000000 @10
Debug: 1151 191 riscv-013.c:408 scan():  hartsello=84 dmactive -> 
Debug: 1152 192 riscv-013.c:397 scan(): 41b 4i - 00000000 @10 -> + 00540001 @10
Debug: 1153 192 riscv-013.c:408 scan():  ->  hartsello=84 dmactive
Debug: 1154 192 riscv-013.c:397 scan(): 41b 4i r 00000000 @11 -> + 00000000 @10
Debug: 1155 192 riscv-013.c:397 scan(): 41b 4i - 00000000 @11 -> + 00003082 @11
Debug: 1156 192 riscv-013.c:408 scan():  ->  allunavail anyunavail authenticated version=2
Debug: 1157 192 riscv-013.c:397 scan(): 41b 4i r 00000000 @10 -> + 00000000 @11
Debug: 1158 193 riscv-013.c:397 scan(): 41b 4i - 00000000 @10 -> + 00540001 @10
Debug: 1159 193 riscv-013.c:408 scan():  ->  hartsello=84 dmactive
Debug: 1160 193 riscv-013.c:397 scan(): 41b 4i w 00550001 @10 -> + 00000000 @10
Debug: 1161 193 riscv-013.c:408 scan():  hartsello=85 dmactive -> 
Debug: 1162 193 riscv-013.c:397 scan(): 41b 4i - 00000000 @10 -> + 00550001 @10
Debug: 1163 193 riscv-013.c:408 scan():  ->  hartsello=85 dmactive
Debug: 1164 193 riscv-013.c:397 scan(): 41b 4i r 00000000 @11 -> + 00000000 @10
Debug: 1165 193 riscv-013.c:397 scan(): 41b 4i - 00000000 @11 -> + 00003082 @11
Debug: 1166 193 riscv-013.c:408 scan():  ->  allunavail anyunavail authenticated version=2
Debug: 1167 194 riscv-013.c:397 scan(): 41b 4i r 00000000 @10 -> + 00000000 @11
Debug: 1168 194 riscv-013.c:397 scan(): 41b 4i - 00000000 @10 -> + 00550001 @10
Debug: 1169 194 riscv-013.c:408 scan():  ->  hartsello=85 dmactive
Debug: 1170 194 riscv-013.c:397 scan(): 41b 4i w 00560001 @10 -> + 00000000 @10
Debug: 1171 194 riscv-013.c:408 scan():  hartsello=86 dmactive -> 
Debug: 1172 194 riscv-013.c:397 scan(): 41b 4i - 00000000 @10 -> + 00560001 @10
Debug: 1173 194 riscv-013.c:408 scan():  ->  hartsello=86 dmactive
Debug: 1174 195 riscv-013.c:397 scan(): 41b 4i r 00000000 @11 -> + 00000000 @10
Debug: 1175 195 riscv-013.c:397 scan(): 41b 4i - 00000000 @11 -> + 00003082 @11
Debug: 1176 195 riscv-013.c:408 scan():  ->  allunavail anyunavail authenticated version=2
Debug: 1177 195 riscv-013.c:397 scan(): 41b 4i r 00000000 @10 -> + 00000000 @11
Debug: 1178 195 riscv-013.c:397 scan(): 41b 4i - 00000000 @10 -> + 00560001 @10
Debug: 1179 195 riscv-013.c:408 scan():  ->  hartsello=86 dmactive
Debug: 1180 196 riscv-013.c:397 scan(): 41b 4i w 00570001 @10 -> + 00000000 @10
Debug: 1181 196 riscv-013.c:408 scan():  hartsello=87 dmactive -> 
Debug: 1182 196 riscv-013.c:397 scan(): 41b 4i - 00000000 @10 -> + 00570001 @10
Debug: 1183 196 riscv-013.c:408 scan():  ->  hartsello=87 dmactive
Debug: 1184 196 riscv-013.c:397 scan(): 41b 4i r 00000000 @11 -> + 00000000 @10
Debug: 1185 196 riscv-013.c:397 scan(): 41b 4i - 00000000 @11 -> + 00003082 @11
Debug: 1186 196 riscv-013.c:408 scan():  ->  allunavail anyunavail authenticated version=2
Debug: 1187 196 riscv-013.c:397 scan(): 41b 4i r 00000000 @10 -> + 00000000 @11
Debug: 1188 196 riscv-013.c:397 scan(): 41b 4i - 00000000 @10 -> + 00570001 @10
Debug: 1189 196 riscv-013.c:408 scan():  ->  hartsello=87 dmactive
Debug: 1190 197 riscv-013.c:397 scan(): 41b 4i w 00580001 @10 -> + 00000000 @10
Debug: 1191 197 riscv-013.c:408 scan():  hartsello=88 dmactive -> 
Debug: 1192 197 riscv-013.c:397 scan(): 41b 4i - 00000000 @10 -> + 00580001 @10
Debug: 1193 197 riscv-013.c:408 scan():  ->  hartsello=88 dmactive
Debug: 1194 197 riscv-013.c:397 scan(): 41b 4i r 00000000 @11 -> + 00000000 @10
Debug: 1195 197 riscv-013.c:397 scan(): 41b 4i - 00000000 @11 -> + 00003082 @11
Debug: 1196 197 riscv-013.c:408 scan():  ->  allunavail anyunavail authenticated version=2
Debug: 1197 197 riscv-013.c:397 scan(): 41b 4i r 00000000 @10 -> + 00000000 @11
Debug: 1198 197 riscv-013.c:397 scan(): 41b 4i - 00000000 @10 -> + 00580001 @10
Debug: 1199 197 riscv-013.c:408 scan():  ->  hartsello=88 dmactive
Debug: 1200 198 riscv-013.c:397 scan(): 41b 4i w 00590001 @10 -> + 00000000 @10
Debug: 1201 198 riscv-013.c:408 scan():  hartsello=89 dmactive -> 
Debug: 1202 198 riscv-013.c:397 scan(): 41b 4i - 00000000 @10 -> + 00590001 @10
Debug: 1203 198 riscv-013.c:408 scan():  ->  hartsello=89 dmactive
Debug: 1204 198 riscv-013.c:397 scan(): 41b 4i r 00000000 @11 -> + 00000000 @10
Debug: 1205 198 riscv-013.c:397 scan(): 41b 4i - 00000000 @11 -> + 00003082 @11
Debug: 1206 198 riscv-013.c:408 scan():  ->  allunavail anyunavail authenticated version=2
Debug: 1207 198 riscv-013.c:397 scan(): 41b 4i r 00000000 @10 -> + 00000000 @11
Debug: 1208 199 riscv-013.c:397 scan(): 41b 4i - 00000000 @10 -> + 00590001 @10
Debug: 1209 199 riscv-013.c:408 scan():  ->  hartsello=89 dmactive
Debug: 1210 199 riscv-013.c:397 scan(): 41b 4i w 005a0001 @10 -> + 00000000 @10
Debug: 1211 199 riscv-013.c:408 scan():  hartsello=90 dmactive -> 
Debug: 1212 199 riscv-013.c:397 scan(): 41b 4i - 00000000 @10 -> + 005a0001 @10
Debug: 1213 199 riscv-013.c:408 scan():  ->  hartsello=90 dmactive
Debug: 1214 199 riscv-013.c:397 scan(): 41b 4i r 00000000 @11 -> + 00000000 @10
Debug: 1215 200 riscv-013.c:397 scan(): 41b 4i - 00000000 @11 -> + 00003082 @11
Debug: 1216 200 riscv-013.c:408 scan():  ->  allunavail anyunavail authenticated version=2
Debug: 1217 200 riscv-013.c:397 scan(): 41b 4i r 00000000 @10 -> + 00000000 @11
Debug: 1218 200 riscv-013.c:397 scan(): 41b 4i - 00000000 @10 -> + 005a0001 @10
Debug: 1219 200 riscv-013.c:408 scan():  ->  hartsello=90 dmactive
Debug: 1220 200 riscv-013.c:397 scan(): 41b 4i w 005b0001 @10 -> + 00000000 @10
Debug: 1221 200 riscv-013.c:408 scan():  hartsello=91 dmactive -> 
Debug: 1222 201 riscv-013.c:397 scan(): 41b 4i - 00000000 @10 -> + 005b0001 @10
Debug: 1223 201 riscv-013.c:408 scan():  ->  hartsello=91 dmactive
Debug: 1224 201 riscv-013.c:397 scan(): 41b 4i r 00000000 @11 -> + 00000000 @10
Debug: 1225 201 riscv-013.c:397 scan(): 41b 4i - 00000000 @11 -> + 00003082 @11
Debug: 1226 201 riscv-013.c:408 scan():  ->  allunavail anyunavail authenticated version=2
Debug: 1227 201 riscv-013.c:397 scan(): 41b 4i r 00000000 @10 -> + 00000000 @11
Debug: 1228 202 riscv-013.c:397 scan(): 41b 4i - 00000000 @10 -> + 005b0001 @10
Debug: 1229 202 riscv-013.c:408 scan():  ->  hartsello=91 dmactive
Debug: 1230 202 riscv-013.c:397 scan(): 41b 4i w 005c0001 @10 -> + 00000000 @10
Debug: 1231 202 riscv-013.c:408 scan():  hartsello=92 dmactive -> 
Debug: 1232 202 riscv-013.c:397 scan(): 41b 4i - 00000000 @10 -> + 005c0001 @10
Debug: 1233 202 riscv-013.c:408 scan():  ->  hartsello=92 dmactive
Debug: 1234 202 riscv-013.c:397 scan(): 41b 4i r 00000000 @11 -> + 00000000 @10
Debug: 1235 202 riscv-013.c:397 scan(): 41b 4i - 00000000 @11 -> + 00003082 @11
Debug: 1236 202 riscv-013.c:408 scan():  ->  allunavail anyunavail authenticated version=2
Debug: 1237 203 riscv-013.c:397 scan(): 41b 4i r 00000000 @10 -> + 00000000 @11
Debug: 1238 203 riscv-013.c:397 scan(): 41b 4i - 00000000 @10 -> + 005c0001 @10
Debug: 1239 203 riscv-013.c:408 scan():  ->  hartsello=92 dmactive
Debug: 1240 203 riscv-013.c:397 scan(): 41b 4i w 005d0001 @10 -> + 00000000 @10
Debug: 1241 203 riscv-013.c:408 scan():  hartsello=93 dmactive -> 
Debug: 1242 203 riscv-013.c:397 scan(): 41b 4i - 00000000 @10 -> + 005d0001 @10
Debug: 1243 203 riscv-013.c:408 scan():  ->  hartsello=93 dmactive
Debug: 1244 204 riscv-013.c:397 scan(): 41b 4i r 00000000 @11 -> + 00000000 @10
Debug: 1245 204 riscv-013.c:397 scan(): 41b 4i - 00000000 @11 -> + 00003082 @11
Debug: 1246 204 riscv-013.c:408 scan():  ->  allunavail anyunavail authenticated version=2
Debug: 1247 204 riscv-013.c:397 scan(): 41b 4i r 00000000 @10 -> + 00000000 @11
Debug: 1248 204 riscv-013.c:397 scan(): 41b 4i - 00000000 @10 -> + 005d0001 @10
Debug: 1249 204 riscv-013.c:408 scan():  ->  hartsello=93 dmactive
Debug: 1250 205 riscv-013.c:397 scan(): 41b 4i w 005e0001 @10 -> + 00000000 @10
Debug: 1251 205 riscv-013.c:408 scan():  hartsello=94 dmactive -> 
Debug: 1252 205 riscv-013.c:397 scan(): 41b 4i - 00000000 @10 -> + 005e0001 @10
Debug: 1253 205 riscv-013.c:408 scan():  ->  hartsello=94 dmactive
Debug: 1254 205 riscv-013.c:397 scan(): 41b 4i r 00000000 @11 -> + 00000000 @10
Debug: 1255 205 riscv-013.c:397 scan(): 41b 4i - 00000000 @11 -> + 00003082 @11
Debug: 1256 205 riscv-013.c:408 scan():  ->  allunavail anyunavail authenticated version=2
Debug: 1257 206 riscv-013.c:397 scan(): 41b 4i r 00000000 @10 -> + 00000000 @11
Debug: 1258 206 riscv-013.c:397 scan(): 41b 4i - 00000000 @10 -> + 005e0001 @10
Debug: 1259 206 riscv-013.c:408 scan():  ->  hartsello=94 dmactive
Debug: 1260 206 riscv-013.c:397 scan(): 41b 4i w 005f0001 @10 -> + 00000000 @10
Debug: 1261 206 riscv-013.c:408 scan():  hartsello=95 dmactive -> 
Debug: 1262 206 riscv-013.c:397 scan(): 41b 4i - 00000000 @10 -> + 005f0001 @10
Debug: 1263 206 riscv-013.c:408 scan():  ->  hartsello=95 dmactive
Debug: 1264 207 riscv-013.c:397 scan(): 41b 4i r 00000000 @11 -> + 00000000 @10
Debug: 1265 207 riscv-013.c:397 scan(): 41b 4i - 00000000 @11 -> + 00003082 @11
Debug: 1266 207 riscv-013.c:408 scan():  ->  allunavail anyunavail authenticated version=2
Debug: 1267 207 riscv-013.c:397 scan(): 41b 4i r 00000000 @10 -> + 00000000 @11
Debug: 1268 207 riscv-013.c:397 scan(): 41b 4i - 00000000 @10 -> + 005f0001 @10
Debug: 1269 207 riscv-013.c:408 scan():  ->  hartsello=95 dmactive
Debug: 1270 208 riscv-013.c:397 scan(): 41b 4i w 00600001 @10 -> + 00000000 @10
Debug: 1271 208 riscv-013.c:408 scan():  hartsello=96 dmactive -> 
Debug: 1272 208 riscv-013.c:397 scan(): 41b 4i - 00000000 @10 -> + 00600001 @10
Debug: 1273 208 riscv-013.c:408 scan():  ->  hartsello=96 dmactive
Debug: 1274 208 riscv-013.c:397 scan(): 41b 4i r 00000000 @11 -> + 00000000 @10
Debug: 1275 208 riscv-013.c:397 scan(): 41b 4i - 00000000 @11 -> + 00003082 @11
Debug: 1276 208 riscv-013.c:408 scan():  ->  allunavail anyunavail authenticated version=2
Debug: 1277 209 riscv-013.c:397 scan(): 41b 4i r 00000000 @10 -> + 00000000 @11
Debug: 1278 209 riscv-013.c:397 scan(): 41b 4i - 00000000 @10 -> + 00600001 @10
Debug: 1279 209 riscv-013.c:408 scan():  ->  hartsello=96 dmactive
Debug: 1280 209 riscv-013.c:397 scan(): 41b 4i w 00610001 @10 -> + 00000000 @10
Debug: 1281 209 riscv-013.c:408 scan():  hartsello=97 dmactive -> 
Debug: 1282 209 riscv-013.c:397 scan(): 41b 4i - 00000000 @10 -> + 00610001 @10
Debug: 1283 209 riscv-013.c:408 scan():  ->  hartsello=97 dmactive
Debug: 1284 209 riscv-013.c:397 scan(): 41b 4i r 00000000 @11 -> + 00000000 @10
Debug: 1285 210 riscv-013.c:397 scan(): 41b 4i - 00000000 @11 -> + 00003082 @11
Debug: 1286 210 riscv-013.c:408 scan():  ->  allunavail anyunavail authenticated version=2
Debug: 1287 210 riscv-013.c:397 scan(): 41b 4i r 00000000 @10 -> + 00000000 @11
Debug: 1288 210 riscv-013.c:397 scan(): 41b 4i - 00000000 @10 -> + 00610001 @10
Debug: 1289 210 riscv-013.c:408 scan():  ->  hartsello=97 dmactive
Debug: 1290 210 riscv-013.c:397 scan(): 41b 4i w 00620001 @10 -> + 00000000 @10
Debug: 1291 210 riscv-013.c:408 scan():  hartsello=98 dmactive -> 
Debug: 1292 211 riscv-013.c:397 scan(): 41b 4i - 00000000 @10 -> + 00620001 @10
Debug: 1293 211 riscv-013.c:408 scan():  ->  hartsello=98 dmactive
Debug: 1294 211 riscv-013.c:397 scan(): 41b 4i r 00000000 @11 -> + 00000000 @10
Debug: 1295 211 riscv-013.c:397 scan(): 41b 4i - 00000000 @11 -> + 00003082 @11
Debug: 1296 211 riscv-013.c:408 scan():  ->  allunavail anyunavail authenticated version=2
Debug: 1297 211 riscv-013.c:397 scan(): 41b 4i r 00000000 @10 -> + 00000000 @11
Debug: 1298 212 riscv-013.c:397 scan(): 41b 4i - 00000000 @10 -> + 00620001 @10
Debug: 1299 212 riscv-013.c:408 scan():  ->  hartsello=98 dmactive
Debug: 1300 212 riscv-013.c:397 scan(): 41b 4i w 00630001 @10 -> + 00000000 @10
Debug: 1301 212 riscv-013.c:408 scan():  hartsello=99 dmactive -> 
Debug: 1302 212 riscv-013.c:397 scan(): 41b 4i - 00000000 @10 -> + 00630001 @10
Debug: 1303 212 riscv-013.c:408 scan():  ->  hartsello=99 dmactive
Debug: 1304 212 riscv-013.c:397 scan(): 41b 4i r 00000000 @11 -> + 00000000 @10
Debug: 1305 213 riscv-013.c:397 scan(): 41b 4i - 00000000 @11 -> + 00003082 @11
Debug: 1306 213 riscv-013.c:408 scan():  ->  allunavail anyunavail authenticated version=2
Debug: 1307 213 riscv-013.c:397 scan(): 41b 4i r 00000000 @10 -> + 00000000 @11
Debug: 1308 213 riscv-013.c:397 scan(): 41b 4i - 00000000 @10 -> + 00630001 @10
Debug: 1309 213 riscv-013.c:408 scan():  ->  hartsello=99 dmactive
Debug: 1310 214 riscv-013.c:397 scan(): 41b 4i w 00640001 @10 -> + 00000000 @10
Debug: 1311 214 riscv-013.c:408 scan():  hartsello=100 dmactive -> 
Debug: 1312 214 riscv-013.c:397 scan(): 41b 4i - 00000000 @10 -> + 00640001 @10
Debug: 1313 214 riscv-013.c:408 scan():  ->  hartsello=100 dmactive
Debug: 1314 214 riscv-013.c:397 scan(): 41b 4i r 00000000 @11 -> + 00000000 @10
Debug: 1315 214 riscv-013.c:397 scan(): 41b 4i - 00000000 @11 -> + 00003082 @11
Debug: 1316 215 riscv-013.c:408 scan():  ->  allunavail anyunavail authenticated version=2
Debug: 1317 215 riscv-013.c:397 scan(): 41b 4i r 00000000 @10 -> + 00000000 @11
Debug: 1318 215 riscv-013.c:397 scan(): 41b 4i - 00000000 @10 -> + 00640001 @10
Debug: 1319 215 riscv-013.c:408 scan():  ->  hartsello=100 dmactive
Debug: 1320 215 riscv-013.c:397 scan(): 41b 4i w 00650001 @10 -> + 00000000 @10
Debug: 1321 215 riscv-013.c:408 scan():  hartsello=101 dmactive -> 
Debug: 1322 216 riscv-013.c:397 scan(): 41b 4i - 00000000 @10 -> + 00650001 @10
Debug: 1323 216 riscv-013.c:408 scan():  ->  hartsello=101 dmactive
Debug: 1324 216 riscv-013.c:397 scan(): 41b 4i r 00000000 @11 -> + 00000000 @10
Debug: 1325 216 riscv-013.c:397 scan(): 41b 4i - 00000000 @11 -> + 00003082 @11
Debug: 1326 216 riscv-013.c:408 scan():  ->  allunavail anyunavail authenticated version=2
Debug: 1327 217 riscv-013.c:397 scan(): 41b 4i r 00000000 @10 -> + 00000000 @11
Debug: 1328 217 riscv-013.c:397 scan(): 41b 4i - 00000000 @10 -> + 00650001 @10
Debug: 1329 217 riscv-013.c:408 scan():  ->  hartsello=101 dmactive
Debug: 1330 217 riscv-013.c:397 scan(): 41b 4i w 00660001 @10 -> + 00000000 @10
Debug: 1331 217 riscv-013.c:408 scan():  hartsello=102 dmactive -> 
Debug: 1332 217 riscv-013.c:397 scan(): 41b 4i - 00000000 @10 -> + 00660001 @10
Debug: 1333 217 riscv-013.c:408 scan():  ->  hartsello=102 dmactive
Debug: 1334 218 riscv-013.c:397 scan(): 41b 4i r 00000000 @11 -> + 00000000 @10
Debug: 1335 218 riscv-013.c:397 scan(): 41b 4i - 00000000 @11 -> + 00003082 @11
Debug: 1336 218 riscv-013.c:408 scan():  ->  allunavail anyunavail authenticated version=2
Debug: 1337 218 riscv-013.c:397 scan(): 41b 4i r 00000000 @10 -> + 00000000 @11
Debug: 1338 218 riscv-013.c:397 scan(): 41b 4i - 00000000 @10 -> + 00660001 @10
Debug: 1339 219 riscv-013.c:408 scan():  ->  hartsello=102 dmactive
Debug: 1340 219 riscv-013.c:397 scan(): 41b 4i w 00670001 @10 -> + 00000000 @10
Debug: 1341 219 riscv-013.c:408 scan():  hartsello=103 dmactive -> 
Debug: 1342 219 riscv-013.c:397 scan(): 41b 4i - 00000000 @10 -> + 00670001 @10
Debug: 1343 219 riscv-013.c:408 scan():  ->  hartsello=103 dmactive
Debug: 1344 219 riscv-013.c:397 scan(): 41b 4i r 00000000 @11 -> + 00000000 @10
Debug: 1345 220 riscv-013.c:397 scan(): 41b 4i - 00000000 @11 -> + 00003082 @11
Debug: 1346 220 riscv-013.c:408 scan():  ->  allunavail anyunavail authenticated version=2
Debug: 1347 220 riscv-013.c:397 scan(): 41b 4i r 00000000 @10 -> + 00000000 @11
Debug: 1348 220 riscv-013.c:397 scan(): 41b 4i - 00000000 @10 -> + 00670001 @10
Debug: 1349 220 riscv-013.c:408 scan():  ->  hartsello=103 dmactive
Debug: 1350 220 riscv-013.c:397 scan(): 41b 4i w 00680001 @10 -> + 00000000 @10
Debug: 1351 220 riscv-013.c:408 scan():  hartsello=104 dmactive -> 
Debug: 1352 220 riscv-013.c:397 scan(): 41b 4i - 00000000 @10 -> + 00680001 @10
Debug: 1353 220 riscv-013.c:408 scan():  ->  hartsello=104 dmactive
Debug: 1354 221 riscv-013.c:397 scan(): 41b 4i r 00000000 @11 -> + 00000000 @10
Debug: 1355 221 riscv-013.c:397 scan(): 41b 4i - 00000000 @11 -> + 00003082 @11
Debug: 1356 221 riscv-013.c:408 scan():  ->  allunavail anyunavail authenticated version=2
Debug: 1357 221 riscv-013.c:397 scan(): 41b 4i r 00000000 @10 -> + 00000000 @11
Debug: 1358 221 riscv-013.c:397 scan(): 41b 4i - 00000000 @10 -> + 00680001 @10
Debug: 1359 221 riscv-013.c:408 scan():  ->  hartsello=104 dmactive
Debug: 1360 222 riscv-013.c:397 scan(): 41b 4i w 00690001 @10 -> + 00000000 @10
Debug: 1361 222 riscv-013.c:408 scan():  hartsello=105 dmactive -> 
Debug: 1362 222 riscv-013.c:397 scan(): 41b 4i - 00000000 @10 -> + 00690001 @10
Debug: 1363 222 riscv-013.c:408 scan():  ->  hartsello=105 dmactive
Debug: 1364 222 riscv-013.c:397 scan(): 41b 4i r 00000000 @11 -> + 00000000 @10
Debug: 1365 222 riscv-013.c:397 scan(): 41b 4i - 00000000 @11 -> + 00003082 @11
Debug: 1366 222 riscv-013.c:408 scan():  ->  allunavail anyunavail authenticated version=2
Debug: 1367 222 riscv-013.c:397 scan(): 41b 4i r 00000000 @10 -> + 00000000 @11
Debug: 1368 223 riscv-013.c:397 scan(): 41b 4i - 00000000 @10 -> + 00690001 @10
Debug: 1369 223 riscv-013.c:408 scan():  ->  hartsello=105 dmactive
Debug: 1370 223 riscv-013.c:397 scan(): 41b 4i w 006a0001 @10 -> + 00000000 @10
Debug: 1371 223 riscv-013.c:408 scan():  hartsello=106 dmactive -> 
Debug: 1372 223 riscv-013.c:397 scan(): 41b 4i - 00000000 @10 -> + 006a0001 @10
Debug: 1373 223 riscv-013.c:408 scan():  ->  hartsello=106 dmactive
Debug: 1374 223 riscv-013.c:397 scan(): 41b 4i r 00000000 @11 -> + 00000000 @10
Debug: 1375 224 riscv-013.c:397 scan(): 41b 4i - 00000000 @11 -> + 00003082 @11
Debug: 1376 224 riscv-013.c:408 scan():  ->  allunavail anyunavail authenticated version=2
Debug: 1377 224 riscv-013.c:397 scan(): 41b 4i r 00000000 @10 -> + 00000000 @11
Debug: 1378 224 riscv-013.c:397 scan(): 41b 4i - 00000000 @10 -> + 006a0001 @10
Debug: 1379 224 riscv-013.c:408 scan():  ->  hartsello=106 dmactive
Debug: 1380 224 riscv-013.c:397 scan(): 41b 4i w 006b0001 @10 -> + 00000000 @10
Debug: 1381 224 riscv-013.c:408 scan():  hartsello=107 dmactive -> 
Debug: 1382 225 riscv-013.c:397 scan(): 41b 4i - 00000000 @10 -> + 006b0001 @10
Debug: 1383 225 riscv-013.c:408 scan():  ->  hartsello=107 dmactive
Debug: 1384 225 riscv-013.c:397 scan(): 41b 4i r 00000000 @11 -> + 00000000 @10
Debug: 1385 225 riscv-013.c:397 scan(): 41b 4i - 00000000 @11 -> + 00003082 @11
Debug: 1386 225 riscv-013.c:408 scan():  ->  allunavail anyunavail authenticated version=2
Debug: 1387 225 riscv-013.c:397 scan(): 41b 4i r 00000000 @10 -> + 00000000 @11
Debug: 1388 225 riscv-013.c:397 scan(): 41b 4i - 00000000 @10 -> + 006b0001 @10
Debug: 1389 225 riscv-013.c:408 scan():  ->  hartsello=107 dmactive
Debug: 1390 226 riscv-013.c:397 scan(): 41b 4i w 006c0001 @10 -> + 00000000 @10
Debug: 1391 226 riscv-013.c:408 scan():  hartsello=108 dmactive -> 
Debug: 1392 226 riscv-013.c:397 scan(): 41b 4i - 00000000 @10 -> + 006c0001 @10
Debug: 1393 226 riscv-013.c:408 scan():  ->  hartsello=108 dmactive
Debug: 1394 226 riscv-013.c:397 scan(): 41b 4i r 00000000 @11 -> + 00000000 @10
Debug: 1395 226 riscv-013.c:397 scan(): 41b 4i - 00000000 @11 -> + 00003082 @11
Debug: 1396 226 riscv-013.c:408 scan():  ->  allunavail anyunavail authenticated version=2
Debug: 1397 226 riscv-013.c:397 scan(): 41b 4i r 00000000 @10 -> + 00000000 @11
Debug: 1398 226 riscv-013.c:397 scan(): 41b 4i - 00000000 @10 -> + 006c0001 @10
Debug: 1399 226 riscv-013.c:408 scan():  ->  hartsello=108 dmactive
Debug: 1400 226 riscv-013.c:397 scan(): 41b 4i w 006d0001 @10 -> + 00000000 @10
Debug: 1401 226 riscv-013.c:408 scan():  hartsello=109 dmactive -> 
Debug: 1402 227 riscv-013.c:397 scan(): 41b 4i - 00000000 @10 -> + 006d0001 @10
Debug: 1403 227 riscv-013.c:408 scan():  ->  hartsello=109 dmactive
Debug: 1404 227 riscv-013.c:397 scan(): 41b 4i r 00000000 @11 -> + 00000000 @10
Debug: 1405 227 riscv-013.c:397 scan(): 41b 4i - 00000000 @11 -> + 00003082 @11
Debug: 1406 227 riscv-013.c:408 scan():  ->  allunavail anyunavail authenticated version=2
Debug: 1407 227 riscv-013.c:397 scan(): 41b 4i r 00000000 @10 -> + 00000000 @11
Debug: 1408 227 riscv-013.c:397 scan(): 41b 4i - 00000000 @10 -> + 006d0001 @10
Debug: 1409 227 riscv-013.c:408 scan():  ->  hartsello=109 dmactive
Debug: 1410 227 riscv-013.c:397 scan(): 41b 4i w 006e0001 @10 -> + 00000000 @10
Debug: 1411 228 riscv-013.c:408 scan():  hartsello=110 dmactive -> 
Debug: 1412 228 riscv-013.c:397 scan(): 41b 4i - 00000000 @10 -> + 006e0001 @10
Debug: 1413 228 riscv-013.c:408 scan():  ->  hartsello=110 dmactive
Debug: 1414 228 riscv-013.c:397 scan(): 41b 4i r 00000000 @11 -> + 00000000 @10
Debug: 1415 228 riscv-013.c:397 scan(): 41b 4i - 00000000 @11 -> + 00003082 @11
Debug: 1416 228 riscv-013.c:408 scan():  ->  allunavail anyunavail authenticated version=2
Debug: 1417 229 riscv-013.c:397 scan(): 41b 4i r 00000000 @10 -> + 00000000 @11
Debug: 1418 229 riscv-013.c:397 scan(): 41b 4i - 00000000 @10 -> + 006e0001 @10
Debug: 1419 229 riscv-013.c:408 scan():  ->  hartsello=110 dmactive
Debug: 1420 229 riscv-013.c:397 scan(): 41b 4i w 006f0001 @10 -> + 00000000 @10
Debug: 1421 229 riscv-013.c:408 scan():  hartsello=111 dmactive -> 
Debug: 1422 229 riscv-013.c:397 scan(): 41b 4i - 00000000 @10 -> + 006f0001 @10
Debug: 1423 229 riscv-013.c:408 scan():  ->  hartsello=111 dmactive
Debug: 1424 230 riscv-013.c:397 scan(): 41b 4i r 00000000 @11 -> + 00000000 @10
Debug: 1425 230 riscv-013.c:397 scan(): 41b 4i - 00000000 @11 -> + 00003082 @11
Debug: 1426 230 riscv-013.c:408 scan():  ->  allunavail anyunavail authenticated version=2
Debug: 1427 230 riscv-013.c:397 scan(): 41b 4i r 00000000 @10 -> + 00000000 @11
Debug: 1428 230 riscv-013.c:397 scan(): 41b 4i - 00000000 @10 -> + 006f0001 @10
Debug: 1429 230 riscv-013.c:408 scan():  ->  hartsello=111 dmactive
Debug: 1430 231 riscv-013.c:397 scan(): 41b 4i w 00700001 @10 -> + 00000000 @10
Debug: 1431 231 riscv-013.c:408 scan():  hartsello=112 dmactive -> 
Debug: 1432 231 riscv-013.c:397 scan(): 41b 4i - 00000000 @10 -> + 00700001 @10
Debug: 1433 231 riscv-013.c:408 scan():  ->  hartsello=112 dmactive
Debug: 1434 231 riscv-013.c:397 scan(): 41b 4i r 00000000 @11 -> + 00000000 @10
Debug: 1435 231 riscv-013.c:397 scan(): 41b 4i - 00000000 @11 -> + 00003082 @11
Debug: 1436 231 riscv-013.c:408 scan():  ->  allunavail anyunavail authenticated version=2
Debug: 1437 232 riscv-013.c:397 scan(): 41b 4i r 00000000 @10 -> + 00000000 @11
Debug: 1438 232 riscv-013.c:397 scan(): 41b 4i - 00000000 @10 -> + 00700001 @10
Debug: 1439 232 riscv-013.c:408 scan():  ->  hartsello=112 dmactive
Debug: 1440 232 riscv-013.c:397 scan(): 41b 4i w 00710001 @10 -> + 00000000 @10
Debug: 1441 232 riscv-013.c:408 scan():  hartsello=113 dmactive -> 
Debug: 1442 233 riscv-013.c:397 scan(): 41b 4i - 00000000 @10 -> + 00710001 @10
Debug: 1443 233 riscv-013.c:408 scan():  ->  hartsello=113 dmactive
Debug: 1444 233 riscv-013.c:397 scan(): 41b 4i r 00000000 @11 -> + 00000000 @10
Debug: 1445 233 riscv-013.c:397 scan(): 41b 4i - 00000000 @11 -> + 00003082 @11
Debug: 1446 233 riscv-013.c:408 scan():  ->  allunavail anyunavail authenticated version=2
Debug: 1447 233 riscv-013.c:397 scan(): 41b 4i r 00000000 @10 -> + 00000000 @11
Debug: 1448 234 riscv-013.c:397 scan(): 41b 4i - 00000000 @10 -> + 00710001 @10
Debug: 1449 234 riscv-013.c:408 scan():  ->  hartsello=113 dmactive
Debug: 1450 234 riscv-013.c:397 scan(): 41b 4i w 00720001 @10 -> + 00000000 @10
Debug: 1451 234 riscv-013.c:408 scan():  hartsello=114 dmactive -> 
Debug: 1452 234 riscv-013.c:397 scan(): 41b 4i - 00000000 @10 -> + 00720001 @10
Debug: 1453 234 riscv-013.c:408 scan():  ->  hartsello=114 dmactive
Debug: 1454 234 riscv-013.c:397 scan(): 41b 4i r 00000000 @11 -> + 00000000 @10
Debug: 1455 235 riscv-013.c:397 scan(): 41b 4i - 00000000 @11 -> + 00003082 @11
Debug: 1456 235 riscv-013.c:408 scan():  ->  allunavail anyunavail authenticated version=2
Debug: 1457 235 riscv-013.c:397 scan(): 41b 4i r 00000000 @10 -> + 00000000 @11
Debug: 1458 235 riscv-013.c:397 scan(): 41b 4i - 00000000 @10 -> + 00720001 @10
Debug: 1459 235 riscv-013.c:408 scan():  ->  hartsello=114 dmactive
Debug: 1460 236 riscv-013.c:397 scan(): 41b 4i w 00730001 @10 -> + 00000000 @10
Debug: 1461 236 riscv-013.c:408 scan():  hartsello=115 dmactive -> 
Debug: 1462 236 riscv-013.c:397 scan(): 41b 4i - 00000000 @10 -> + 00730001 @10
Debug: 1463 236 riscv-013.c:408 scan():  ->  hartsello=115 dmactive
Debug: 1464 236 riscv-013.c:397 scan(): 41b 4i r 00000000 @11 -> + 00000000 @10
Debug: 1465 237 riscv-013.c:397 scan(): 41b 4i - 00000000 @11 -> + 00003082 @11
Debug: 1466 237 riscv-013.c:408 scan():  ->  allunavail anyunavail authenticated version=2
Debug: 1467 237 riscv-013.c:397 scan(): 41b 4i r 00000000 @10 -> + 00000000 @11
Debug: 1468 237 riscv-013.c:397 scan(): 41b 4i - 00000000 @10 -> + 00730001 @10
Debug: 1469 237 riscv-013.c:408 scan():  ->  hartsello=115 dmactive
Debug: 1470 237 riscv-013.c:397 scan(): 41b 4i w 00740001 @10 -> + 00000000 @10
Debug: 1471 237 riscv-013.c:408 scan():  hartsello=116 dmactive -> 
Debug: 1472 238 riscv-013.c:397 scan(): 41b 4i - 00000000 @10 -> + 00740001 @10
Debug: 1473 238 riscv-013.c:408 scan():  ->  hartsello=116 dmactive
Debug: 1474 238 riscv-013.c:397 scan(): 41b 4i r 00000000 @11 -> + 00000000 @10
Debug: 1475 238 riscv-013.c:397 scan(): 41b 4i - 00000000 @11 -> + 00003082 @11
Debug: 1476 238 riscv-013.c:408 scan():  ->  allunavail anyunavail authenticated version=2
Debug: 1477 238 riscv-013.c:397 scan(): 41b 4i r 00000000 @10 -> + 00000000 @11
Debug: 1478 238 riscv-013.c:397 scan(): 41b 4i - 00000000 @10 -> + 00740001 @10
Debug: 1479 238 riscv-013.c:408 scan():  ->  hartsello=116 dmactive
Debug: 1480 239 riscv-013.c:397 scan(): 41b 4i w 00750001 @10 -> + 00000000 @10
Debug: 1481 239 riscv-013.c:408 scan():  hartsello=117 dmactive -> 
Debug: 1482 239 riscv-013.c:397 scan(): 41b 4i - 00000000 @10 -> + 00750001 @10
Debug: 1483 239 riscv-013.c:408 scan():  ->  hartsello=117 dmactive
Debug: 1484 239 riscv-013.c:397 scan(): 41b 4i r 00000000 @11 -> + 00000000 @10
Debug: 1485 240 riscv-013.c:397 scan(): 41b 4i - 00000000 @11 -> + 00003082 @11
Debug: 1486 240 riscv-013.c:408 scan():  ->  allunavail anyunavail authenticated version=2
Debug: 1487 240 riscv-013.c:397 scan(): 41b 4i r 00000000 @10 -> + 00000000 @11
Debug: 1488 240 riscv-013.c:397 scan(): 41b 4i - 00000000 @10 -> + 00750001 @10
Debug: 1489 240 riscv-013.c:408 scan():  ->  hartsello=117 dmactive
Debug: 1490 240 riscv-013.c:397 scan(): 41b 4i w 00760001 @10 -> + 00000000 @10
Debug: 1491 240 riscv-013.c:408 scan():  hartsello=118 dmactive -> 
Debug: 1492 241 riscv-013.c:397 scan(): 41b 4i - 00000000 @10 -> + 00760001 @10
Debug: 1493 241 riscv-013.c:408 scan():  ->  hartsello=118 dmactive
Debug: 1494 241 riscv-013.c:397 scan(): 41b 4i r 00000000 @11 -> + 00000000 @10
Debug: 1495 241 riscv-013.c:397 scan(): 41b 4i - 00000000 @11 -> + 00003082 @11
Debug: 1496 241 riscv-013.c:408 scan():  ->  allunavail anyunavail authenticated version=2
Debug: 1497 242 riscv-013.c:397 scan(): 41b 4i r 00000000 @10 -> + 00000000 @11
Debug: 1498 242 riscv-013.c:397 scan(): 41b 4i - 00000000 @10 -> + 00760001 @10
Debug: 1499 242 riscv-013.c:408 scan():  ->  hartsello=118 dmactive
Debug: 1500 242 riscv-013.c:397 scan(): 41b 4i w 00770001 @10 -> + 00000000 @10
Debug: 1501 242 riscv-013.c:408 scan():  hartsello=119 dmactive -> 
Debug: 1502 242 riscv-013.c:397 scan(): 41b 4i - 00000000 @10 -> + 00770001 @10
Debug: 1503 242 riscv-013.c:408 scan():  ->  hartsello=119 dmactive
Debug: 1504 243 riscv-013.c:397 scan(): 41b 4i r 00000000 @11 -> + 00000000 @10
Debug: 1505 243 riscv-013.c:397 scan(): 41b 4i - 00000000 @11 -> + 00003082 @11
Debug: 1506 243 riscv-013.c:408 scan():  ->  allunavail anyunavail authenticated version=2
Debug: 1507 243 riscv-013.c:397 scan(): 41b 4i r 00000000 @10 -> + 00000000 @11
Debug: 1508 243 riscv-013.c:397 scan(): 41b 4i - 00000000 @10 -> + 00770001 @10
Debug: 1509 243 riscv-013.c:408 scan():  ->  hartsello=119 dmactive
Debug: 1510 244 riscv-013.c:397 scan(): 41b 4i w 00780001 @10 -> + 00000000 @10
Debug: 1511 244 riscv-013.c:408 scan():  hartsello=120 dmactive -> 
Debug: 1512 244 riscv-013.c:397 scan(): 41b 4i - 00000000 @10 -> + 00780001 @10
Debug: 1513 244 riscv-013.c:408 scan():  ->  hartsello=120 dmactive
Debug: 1514 244 riscv-013.c:397 scan(): 41b 4i r 00000000 @11 -> + 00000000 @10
Debug: 1515 244 riscv-013.c:397 scan(): 41b 4i - 00000000 @11 -> + 00003082 @11
Debug: 1516 244 riscv-013.c:408 scan():  ->  allunavail anyunavail authenticated version=2
Debug: 1517 245 riscv-013.c:397 scan(): 41b 4i r 00000000 @10 -> + 00000000 @11
Debug: 1518 245 riscv-013.c:397 scan(): 41b 4i - 00000000 @10 -> + 00780001 @10
Debug: 1519 245 riscv-013.c:408 scan():  ->  hartsello=120 dmactive
Debug: 1520 245 riscv-013.c:397 scan(): 41b 4i w 00790001 @10 -> + 00000000 @10
Debug: 1521 245 riscv-013.c:408 scan():  hartsello=121 dmactive -> 
Debug: 1522 245 riscv-013.c:397 scan(): 41b 4i - 00000000 @10 -> + 00790001 @10
Debug: 1523 245 riscv-013.c:408 scan():  ->  hartsello=121 dmactive
Debug: 1524 246 riscv-013.c:397 scan(): 41b 4i r 00000000 @11 -> + 00000000 @10
Debug: 1525 246 riscv-013.c:397 scan(): 41b 4i - 00000000 @11 -> + 00003082 @11
Debug: 1526 246 riscv-013.c:408 scan():  ->  allunavail anyunavail authenticated version=2
Debug: 1527 246 riscv-013.c:397 scan(): 41b 4i r 00000000 @10 -> + 00000000 @11
Debug: 1528 246 riscv-013.c:397 scan(): 41b 4i - 00000000 @10 -> + 00790001 @10
Debug: 1529 246 riscv-013.c:408 scan():  ->  hartsello=121 dmactive
Debug: 1530 247 riscv-013.c:397 scan(): 41b 4i w 007a0001 @10 -> + 00000000 @10
Debug: 1531 247 riscv-013.c:408 scan():  hartsello=122 dmactive -> 
Debug: 1532 247 riscv-013.c:397 scan(): 41b 4i - 00000000 @10 -> + 007a0001 @10
Debug: 1533 247 riscv-013.c:408 scan():  ->  hartsello=122 dmactive
Debug: 1534 247 riscv-013.c:397 scan(): 41b 4i r 00000000 @11 -> + 00000000 @10
Debug: 1535 247 riscv-013.c:397 scan(): 41b 4i - 00000000 @11 -> + 00003082 @11
Debug: 1536 247 riscv-013.c:408 scan():  ->  allunavail anyunavail authenticated version=2
Debug: 1537 247 riscv-013.c:397 scan(): 41b 4i r 00000000 @10 -> + 00000000 @11
Debug: 1538 248 riscv-013.c:397 scan(): 41b 4i - 00000000 @10 -> + 007a0001 @10
Debug: 1539 248 riscv-013.c:408 scan():  ->  hartsello=122 dmactive
Debug: 1540 248 riscv-013.c:397 scan(): 41b 4i w 007b0001 @10 -> + 00000000 @10
Debug: 1541 248 riscv-013.c:408 scan():  hartsello=123 dmactive -> 
Debug: 1542 248 riscv-013.c:397 scan(): 41b 4i - 00000000 @10 -> + 007b0001 @10
Debug: 1543 248 riscv-013.c:408 scan():  ->  hartsello=123 dmactive
Debug: 1544 248 riscv-013.c:397 scan(): 41b 4i r 00000000 @11 -> + 00000000 @10
Debug: 1545 248 riscv-013.c:397 scan(): 41b 4i - 00000000 @11 -> + 00003082 @11
Debug: 1546 248 riscv-013.c:408 scan():  ->  allunavail anyunavail authenticated version=2
Debug: 1547 249 riscv-013.c:397 scan(): 41b 4i r 00000000 @10 -> + 00000000 @11
Debug: 1548 249 riscv-013.c:397 scan(): 41b 4i - 00000000 @10 -> + 007b0001 @10
Debug: 1549 249 riscv-013.c:408 scan():  ->  hartsello=123 dmactive
Debug: 1550 249 riscv-013.c:397 scan(): 41b 4i w 007c0001 @10 -> + 00000000 @10
Debug: 1551 249 riscv-013.c:408 scan():  hartsello=124 dmactive -> 
Debug: 1552 249 riscv-013.c:397 scan(): 41b 4i - 00000000 @10 -> + 007c0001 @10
Debug: 1553 249 riscv-013.c:408 scan():  ->  hartsello=124 dmactive
Debug: 1554 249 riscv-013.c:397 scan(): 41b 4i r 00000000 @11 -> + 00000000 @10
Debug: 1555 250 riscv-013.c:397 scan(): 41b 4i - 00000000 @11 -> + 00003082 @11
Debug: 1556 250 riscv-013.c:408 scan():  ->  allunavail anyunavail authenticated version=2
Debug: 1557 250 riscv-013.c:397 scan(): 41b 4i r 00000000 @10 -> + 00000000 @11
Debug: 1558 250 riscv-013.c:397 scan(): 41b 4i - 00000000 @10 -> + 007c0001 @10
Debug: 1559 250 riscv-013.c:408 scan():  ->  hartsello=124 dmactive
Debug: 1560 250 riscv-013.c:397 scan(): 41b 4i w 007d0001 @10 -> + 00000000 @10
Debug: 1561 250 riscv-013.c:408 scan():  hartsello=125 dmactive -> 
Debug: 1562 250 riscv-013.c:397 scan(): 41b 4i - 00000000 @10 -> + 007d0001 @10
Debug: 1563 250 riscv-013.c:408 scan():  ->  hartsello=125 dmactive
Debug: 1564 250 riscv-013.c:397 scan(): 41b 4i r 00000000 @11 -> + 00000000 @10
Debug: 1565 250 riscv-013.c:397 scan(): 41b 4i - 00000000 @11 -> + 00003082 @11
Debug: 1566 250 riscv-013.c:408 scan():  ->  allunavail anyunavail authenticated version=2
Debug: 1567 251 riscv-013.c:397 scan(): 41b 4i r 00000000 @10 -> + 00000000 @11
Debug: 1568 251 riscv-013.c:397 scan(): 41b 4i - 00000000 @10 -> + 007d0001 @10
Debug: 1569 251 riscv-013.c:408 scan():  ->  hartsello=125 dmactive
Debug: 1570 251 riscv-013.c:397 scan(): 41b 4i w 007e0001 @10 -> + 00000000 @10
Debug: 1571 251 riscv-013.c:408 scan():  hartsello=126 dmactive -> 
Debug: 1572 251 riscv-013.c:397 scan(): 41b 4i - 00000000 @10 -> + 007e0001 @10
Debug: 1573 251 riscv-013.c:408 scan():  ->  hartsello=126 dmactive
Debug: 1574 251 riscv-013.c:397 scan(): 41b 4i r 00000000 @11 -> + 00000000 @10
Debug: 1575 252 riscv-013.c:397 scan(): 41b 4i - 00000000 @11 -> + 00003082 @11
Debug: 1576 252 riscv-013.c:408 scan():  ->  allunavail anyunavail authenticated version=2
Debug: 1577 252 riscv-013.c:397 scan(): 41b 4i r 00000000 @10 -> + 00000000 @11
Debug: 1578 252 riscv-013.c:397 scan(): 41b 4i - 00000000 @10 -> + 007e0001 @10
Debug: 1579 252 riscv-013.c:408 scan():  ->  hartsello=126 dmactive
Debug: 1580 252 riscv-013.c:397 scan(): 41b 4i w 007f0001 @10 -> + 00000000 @10
Debug: 1581 252 riscv-013.c:408 scan():  hartsello=127 dmactive -> 
Debug: 1582 253 riscv-013.c:397 scan(): 41b 4i - 00000000 @10 -> + 007f0001 @10
Debug: 1583 253 riscv-013.c:408 scan():  ->  hartsello=127 dmactive
Debug: 1584 253 riscv-013.c:397 scan(): 41b 4i r 00000000 @11 -> + 00000000 @10
Debug: 1585 253 riscv-013.c:397 scan(): 41b 4i - 00000000 @11 -> + 00003082 @11
Debug: 1586 253 riscv-013.c:408 scan():  ->  allunavail anyunavail authenticated version=2
Debug: 1587 253 riscv-013.c:397 scan(): 41b 4i r 00000000 @10 -> + 00000000 @11
Debug: 1588 254 riscv-013.c:397 scan(): 41b 4i - 00000000 @10 -> + 007f0001 @10
Debug: 1589 254 riscv-013.c:408 scan():  ->  hartsello=127 dmactive
Debug: 1590 254 riscv-013.c:397 scan(): 41b 4i w 00800001 @10 -> + 00000000 @10
Debug: 1591 254 riscv-013.c:408 scan():  hartsello=128 dmactive -> 
Debug: 1592 254 riscv-013.c:397 scan(): 41b 4i - 00000000 @10 -> + 00800001 @10
Debug: 1593 254 riscv-013.c:408 scan():  ->  hartsello=128 dmactive
Debug: 1594 255 riscv-013.c:397 scan(): 41b 4i r 00000000 @11 -> + 00000000 @10
Debug: 1595 255 riscv-013.c:397 scan(): 41b 4i - 00000000 @11 -> + 00003082 @11
Debug: 1596 255 riscv-013.c:408 scan():  ->  allunavail anyunavail authenticated version=2
Debug: 1597 255 riscv-013.c:397 scan(): 41b 4i r 00000000 @10 -> + 00000000 @11
Debug: 1598 255 riscv-013.c:397 scan(): 41b 4i - 00000000 @10 -> + 00800001 @10
Debug: 1599 255 riscv-013.c:408 scan():  ->  hartsello=128 dmactive
Debug: 1600 256 riscv-013.c:397 scan(): 41b 4i w 00810001 @10 -> + 00000000 @10
Debug: 1601 256 riscv-013.c:408 scan():  hartsello=129 dmactive -> 
Debug: 1602 256 riscv-013.c:397 scan(): 41b 4i - 00000000 @10 -> + 00810001 @10
Debug: 1603 256 riscv-013.c:408 scan():  ->  hartsello=129 dmactive
Debug: 1604 256 riscv-013.c:397 scan(): 41b 4i r 00000000 @11 -> + 00000000 @10
Debug: 1605 256 riscv-013.c:397 scan(): 41b 4i - 00000000 @11 -> + 00003082 @11
Debug: 1606 256 riscv-013.c:408 scan():  ->  allunavail anyunavail authenticated version=2
Debug: 1607 257 riscv-013.c:397 scan(): 41b 4i r 00000000 @10 -> + 00000000 @11
Debug: 1608 257 riscv-013.c:397 scan(): 41b 4i - 00000000 @10 -> + 00810001 @10
Debug: 1609 257 riscv-013.c:408 scan():  ->  hartsello=129 dmactive
Debug: 1610 257 riscv-013.c:397 scan(): 41b 4i w 00820001 @10 -> + 00000000 @10
Debug: 1611 257 riscv-013.c:408 scan():  hartsello=130 dmactive -> 
Debug: 1612 257 riscv-013.c:397 scan(): 41b 4i - 00000000 @10 -> + 00820001 @10
Debug: 1613 257 riscv-013.c:408 scan():  ->  hartsello=130 dmactive
Debug: 1614 258 riscv-013.c:397 scan(): 41b 4i r 00000000 @11 -> + 00000000 @10
Debug: 1615 258 riscv-013.c:397 scan(): 41b 4i - 00000000 @11 -> + 00003082 @11
Debug: 1616 258 riscv-013.c:408 scan():  ->  allunavail anyunavail authenticated version=2
Debug: 1617 258 riscv-013.c:397 scan(): 41b 4i r 00000000 @10 -> + 00000000 @11
Debug: 1618 259 riscv-013.c:397 scan(): 41b 4i - 00000000 @10 -> + 00820001 @10
Debug: 1619 259 riscv-013.c:408 scan():  ->  hartsello=130 dmactive
Debug: 1620 259 riscv-013.c:397 scan(): 41b 4i w 00830001 @10 -> + 00000000 @10
Debug: 1621 259 riscv-013.c:408 scan():  hartsello=131 dmactive -> 
Debug: 1622 259 riscv-013.c:397 scan(): 41b 4i - 00000000 @10 -> + 00830001 @10
Debug: 1623 259 riscv-013.c:408 scan():  ->  hartsello=131 dmactive
Debug: 1624 259 riscv-013.c:397 scan(): 41b 4i r 00000000 @11 -> + 00000000 @10
Debug: 1625 260 riscv-013.c:397 scan(): 41b 4i - 00000000 @11 -> + 00003082 @11
Debug: 1626 260 riscv-013.c:408 scan():  ->  allunavail anyunavail authenticated version=2
Debug: 1627 260 riscv-013.c:397 scan(): 41b 4i r 00000000 @10 -> + 00000000 @11
Debug: 1628 260 riscv-013.c:397 scan(): 41b 4i - 00000000 @10 -> + 00830001 @10
Debug: 1629 260 riscv-013.c:408 scan():  ->  hartsello=131 dmactive
Debug: 1630 260 riscv-013.c:397 scan(): 41b 4i w 00840001 @10 -> + 00000000 @10
Debug: 1631 260 riscv-013.c:408 scan():  hartsello=132 dmactive -> 
Debug: 1632 261 riscv-013.c:397 scan(): 41b 4i - 00000000 @10 -> + 00840001 @10
Debug: 1633 261 riscv-013.c:408 scan():  ->  hartsello=132 dmactive
Debug: 1634 261 riscv-013.c:397 scan(): 41b 4i r 00000000 @11 -> + 00000000 @10
Debug: 1635 261 riscv-013.c:397 scan(): 41b 4i - 00000000 @11 -> + 00003082 @11
Debug: 1636 261 riscv-013.c:408 scan():  ->  allunavail anyunavail authenticated version=2
Debug: 1637 262 riscv-013.c:397 scan(): 41b 4i r 00000000 @10 -> + 00000000 @11
Debug: 1638 262 riscv-013.c:397 scan(): 41b 4i - 00000000 @10 -> + 00840001 @10
Debug: 1639 262 riscv-013.c:408 scan():  ->  hartsello=132 dmactive
Debug: 1640 262 riscv-013.c:397 scan(): 41b 4i w 00850001 @10 -> + 00000000 @10
Debug: 1641 262 riscv-013.c:408 scan():  hartsello=133 dmactive -> 
Debug: 1642 262 riscv-013.c:397 scan(): 41b 4i - 00000000 @10 -> + 00850001 @10
Debug: 1643 262 riscv-013.c:408 scan():  ->  hartsello=133 dmactive
Debug: 1644 263 riscv-013.c:397 scan(): 41b 4i r 00000000 @11 -> + 00000000 @10
Debug: 1645 263 riscv-013.c:397 scan(): 41b 4i - 00000000 @11 -> + 00003082 @11
Debug: 1646 263 riscv-013.c:408 scan():  ->  allunavail anyunavail authenticated version=2
Debug: 1647 263 riscv-013.c:397 scan(): 41b 4i r 00000000 @10 -> + 00000000 @11
Debug: 1648 263 riscv-013.c:397 scan(): 41b 4i - 00000000 @10 -> + 00850001 @10
Debug: 1649 263 riscv-013.c:408 scan():  ->  hartsello=133 dmactive
Debug: 1650 264 riscv-013.c:397 scan(): 41b 4i w 00860001 @10 -> + 00000000 @10
Debug: 1651 264 riscv-013.c:408 scan():  hartsello=134 dmactive -> 
Debug: 1652 264 riscv-013.c:397 scan(): 41b 4i - 00000000 @10 -> + 00860001 @10
Debug: 1653 264 riscv-013.c:408 scan():  ->  hartsello=134 dmactive
Debug: 1654 264 riscv-013.c:397 scan(): 41b 4i r 00000000 @11 -> + 00000000 @10
Debug: 1655 264 riscv-013.c:397 scan(): 41b 4i - 00000000 @11 -> + 00003082 @11
Debug: 1656 264 riscv-013.c:408 scan():  ->  allunavail anyunavail authenticated version=2
Debug: 1657 265 riscv-013.c:397 scan(): 41b 4i r 00000000 @10 -> + 00000000 @11
Debug: 1658 265 riscv-013.c:397 scan(): 41b 4i - 00000000 @10 -> + 00860001 @10
Debug: 1659 265 riscv-013.c:408 scan():  ->  hartsello=134 dmactive
Debug: 1660 265 riscv-013.c:397 scan(): 41b 4i w 00870001 @10 -> + 00000000 @10
Debug: 1661 265 riscv-013.c:408 scan():  hartsello=135 dmactive -> 
Debug: 1662 266 riscv-013.c:397 scan(): 41b 4i - 00000000 @10 -> + 00870001 @10
Debug: 1663 266 riscv-013.c:408 scan():  ->  hartsello=135 dmactive
Debug: 1664 266 riscv-013.c:397 scan(): 41b 4i r 00000000 @11 -> + 00000000 @10
Debug: 1665 266 riscv-013.c:397 scan(): 41b 4i - 00000000 @11 -> + 00003082 @11
Debug: 1666 266 riscv-013.c:408 scan():  ->  allunavail anyunavail authenticated version=2
Debug: 1667 266 riscv-013.c:397 scan(): 41b 4i r 00000000 @10 -> + 00000000 @11
Debug: 1668 267 riscv-013.c:397 scan(): 41b 4i - 00000000 @10 -> + 00870001 @10
Debug: 1669 267 riscv-013.c:408 scan():  ->  hartsello=135 dmactive
Debug: 1670 267 riscv-013.c:397 scan(): 41b 4i w 00880001 @10 -> + 00000000 @10
Debug: 1671 267 riscv-013.c:408 scan():  hartsello=136 dmactive -> 
Debug: 1672 267 riscv-013.c:397 scan(): 41b 4i - 00000000 @10 -> + 00880001 @10
Debug: 1673 267 riscv-013.c:408 scan():  ->  hartsello=136 dmactive
Debug: 1674 267 riscv-013.c:397 scan(): 41b 4i r 00000000 @11 -> + 00000000 @10
Debug: 1675 267 riscv-013.c:397 scan(): 41b 4i - 00000000 @11 -> + 00003082 @11
Debug: 1676 267 riscv-013.c:408 scan():  ->  allunavail anyunavail authenticated version=2
Debug: 1677 267 riscv-013.c:397 scan(): 41b 4i r 00000000 @10 -> + 00000000 @11
Debug: 1678 268 riscv-013.c:397 scan(): 41b 4i - 00000000 @10 -> + 00880001 @10
Debug: 1679 268 riscv-013.c:408 scan():  ->  hartsello=136 dmactive
Debug: 1680 268 riscv-013.c:397 scan(): 41b 4i w 00890001 @10 -> + 00000000 @10
Debug: 1681 268 riscv-013.c:408 scan():  hartsello=137 dmactive -> 
Debug: 1682 268 riscv-013.c:397 scan(): 41b 4i - 00000000 @10 -> + 00890001 @10
Debug: 1683 268 riscv-013.c:408 scan():  ->  hartsello=137 dmactive
Debug: 1684 268 riscv-013.c:397 scan(): 41b 4i r 00000000 @11 -> + 00000000 @10
Debug: 1685 269 riscv-013.c:397 scan(): 41b 4i - 00000000 @11 -> + 00003082 @11
Debug: 1686 269 riscv-013.c:408 scan():  ->  allunavail anyunavail authenticated version=2
Debug: 1687 269 riscv-013.c:397 scan(): 41b 4i r 00000000 @10 -> + 00000000 @11
Debug: 1688 269 riscv-013.c:397 scan(): 41b 4i - 00000000 @10 -> + 00890001 @10
Debug: 1689 269 riscv-013.c:408 scan():  ->  hartsello=137 dmactive
Debug: 1690 269 riscv-013.c:397 scan(): 41b 4i w 008a0001 @10 -> + 00000000 @10
Debug: 1691 269 riscv-013.c:408 scan():  hartsello=138 dmactive -> 
Debug: 1692 270 riscv-013.c:397 scan(): 41b 4i - 00000000 @10 -> + 008a0001 @10
Debug: 1693 270 riscv-013.c:408 scan():  ->  hartsello=138 dmactive
Debug: 1694 270 riscv-013.c:397 scan(): 41b 4i r 00000000 @11 -> + 00000000 @10
Debug: 1695 270 riscv-013.c:397 scan(): 41b 4i - 00000000 @11 -> + 00003082 @11
Debug: 1696 270 riscv-013.c:408 scan():  ->  allunavail anyunavail authenticated version=2
Debug: 1697 270 riscv-013.c:397 scan(): 41b 4i r 00000000 @10 -> + 00000000 @11
Debug: 1698 271 riscv-013.c:397 scan(): 41b 4i - 00000000 @10 -> + 008a0001 @10
Debug: 1699 271 riscv-013.c:408 scan():  ->  hartsello=138 dmactive
Debug: 1700 271 riscv-013.c:397 scan(): 41b 4i w 008b0001 @10 -> + 00000000 @10
Debug: 1701 271 riscv-013.c:408 scan():  hartsello=139 dmactive -> 
Debug: 1702 271 riscv-013.c:397 scan(): 41b 4i - 00000000 @10 -> + 008b0001 @10
Debug: 1703 271 riscv-013.c:408 scan():  ->  hartsello=139 dmactive
Debug: 1704 271 riscv-013.c:397 scan(): 41b 4i r 00000000 @11 -> + 00000000 @10
Debug: 1705 272 riscv-013.c:397 scan(): 41b 4i - 00000000 @11 -> + 00003082 @11
Debug: 1706 272 riscv-013.c:408 scan():  ->  allunavail anyunavail authenticated version=2
Debug: 1707 272 riscv-013.c:397 scan(): 41b 4i r 00000000 @10 -> + 00000000 @11
Debug: 1708 272 riscv-013.c:397 scan(): 41b 4i - 00000000 @10 -> + 008b0001 @10
Debug: 1709 272 riscv-013.c:408 scan():  ->  hartsello=139 dmactive
Debug: 1710 272 riscv-013.c:397 scan(): 41b 4i w 008c0001 @10 -> + 00000000 @10
Debug: 1711 272 riscv-013.c:408 scan():  hartsello=140 dmactive -> 
Debug: 1712 273 riscv-013.c:397 scan(): 41b 4i - 00000000 @10 -> + 008c0001 @10
Debug: 1713 273 riscv-013.c:408 scan():  ->  hartsello=140 dmactive
Debug: 1714 273 riscv-013.c:397 scan(): 41b 4i r 00000000 @11 -> + 00000000 @10
Debug: 1715 273 riscv-013.c:397 scan(): 41b 4i - 00000000 @11 -> + 00003082 @11
Debug: 1716 273 riscv-013.c:408 scan():  ->  allunavail anyunavail authenticated version=2
Debug: 1717 274 riscv-013.c:397 scan(): 41b 4i r 00000000 @10 -> + 00000000 @11
Debug: 1718 274 riscv-013.c:397 scan(): 41b 4i - 00000000 @10 -> + 008c0001 @10
Debug: 1719 274 riscv-013.c:408 scan():  ->  hartsello=140 dmactive
Debug: 1720 274 riscv-013.c:397 scan(): 41b 4i w 008d0001 @10 -> + 00000000 @10
Debug: 1721 274 riscv-013.c:408 scan():  hartsello=141 dmactive -> 
Debug: 1722 274 riscv-013.c:397 scan(): 41b 4i - 00000000 @10 -> + 008d0001 @10
Debug: 1723 274 riscv-013.c:408 scan():  ->  hartsello=141 dmactive
Debug: 1724 275 riscv-013.c:397 scan(): 41b 4i r 00000000 @11 -> + 00000000 @10
Debug: 1725 275 riscv-013.c:397 scan(): 41b 4i - 00000000 @11 -> + 00003082 @11
Debug: 1726 275 riscv-013.c:408 scan():  ->  allunavail anyunavail authenticated version=2
Debug: 1727 275 riscv-013.c:397 scan(): 41b 4i r 00000000 @10 -> + 00000000 @11
Debug: 1728 275 riscv-013.c:397 scan(): 41b 4i - 00000000 @10 -> + 008d0001 @10
Debug: 1729 275 riscv-013.c:408 scan():  ->  hartsello=141 dmactive
Debug: 1730 276 riscv-013.c:397 scan(): 41b 4i w 008e0001 @10 -> + 00000000 @10
Debug: 1731 276 riscv-013.c:408 scan():  hartsello=142 dmactive -> 
Debug: 1732 276 riscv-013.c:397 scan(): 41b 4i - 00000000 @10 -> + 008e0001 @10
Debug: 1733 276 riscv-013.c:408 scan():  ->  hartsello=142 dmactive
Debug: 1734 276 riscv-013.c:397 scan(): 41b 4i r 00000000 @11 -> + 00000000 @10
Debug: 1735 276 riscv-013.c:397 scan(): 41b 4i - 00000000 @11 -> + 00003082 @11
Debug: 1736 277 riscv-013.c:408 scan():  ->  allunavail anyunavail authenticated version=2
Debug: 1737 277 riscv-013.c:397 scan(): 41b 4i r 00000000 @10 -> + 00000000 @11
Debug: 1738 277 riscv-013.c:397 scan(): 41b 4i - 00000000 @10 -> + 008e0001 @10
Debug: 1739 277 riscv-013.c:408 scan():  ->  hartsello=142 dmactive
Debug: 1740 277 riscv-013.c:397 scan(): 41b 4i w 008f0001 @10 -> + 00000000 @10
Debug: 1741 277 riscv-013.c:408 scan():  hartsello=143 dmactive -> 
Debug: 1742 277 riscv-013.c:397 scan(): 41b 4i - 00000000 @10 -> + 008f0001 @10
Debug: 1743 278 riscv-013.c:408 scan():  ->  hartsello=143 dmactive
Debug: 1744 278 riscv-013.c:397 scan(): 41b 4i r 00000000 @11 -> + 00000000 @10
Debug: 1745 278 riscv-013.c:397 scan(): 41b 4i - 00000000 @11 -> + 00003082 @11
Debug: 1746 278 riscv-013.c:408 scan():  ->  allunavail anyunavail authenticated version=2
Debug: 1747 278 riscv-013.c:397 scan(): 41b 4i r 00000000 @10 -> + 00000000 @11
Debug: 1748 279 riscv-013.c:397 scan(): 41b 4i - 00000000 @10 -> + 008f0001 @10
Debug: 1749 279 riscv-013.c:408 scan():  ->  hartsello=143 dmactive
Debug: 1750 279 riscv-013.c:397 scan(): 41b 4i w 00900001 @10 -> + 00000000 @10
Debug: 1751 279 riscv-013.c:408 scan():  hartsello=144 dmactive -> 
Debug: 1752 279 riscv-013.c:397 scan(): 41b 4i - 00000000 @10 -> + 00900001 @10
Debug: 1753 279 riscv-013.c:408 scan():  ->  hartsello=144 dmactive
Debug: 1754 280 riscv-013.c:397 scan(): 41b 4i r 00000000 @11 -> + 00000000 @10
Debug: 1755 280 riscv-013.c:397 scan(): 41b 4i - 00000000 @11 -> + 00003082 @11
Debug: 1756 280 riscv-013.c:408 scan():  ->  allunavail anyunavail authenticated version=2
Debug: 1757 280 riscv-013.c:397 scan(): 41b 4i r 00000000 @10 -> + 00000000 @11
Debug: 1758 280 riscv-013.c:397 scan(): 41b 4i - 00000000 @10 -> + 00900001 @10
Debug: 1759 280 riscv-013.c:408 scan():  ->  hartsello=144 dmactive
Debug: 1760 281 riscv-013.c:397 scan(): 41b 4i w 00910001 @10 -> + 00000000 @10
Debug: 1761 281 riscv-013.c:408 scan():  hartsello=145 dmactive -> 
Debug: 1762 281 riscv-013.c:397 scan(): 41b 4i - 00000000 @10 -> + 00910001 @10
Debug: 1763 281 riscv-013.c:408 scan():  ->  hartsello=145 dmactive
Debug: 1764 281 riscv-013.c:397 scan(): 41b 4i r 00000000 @11 -> + 00000000 @10
Debug: 1765 281 riscv-013.c:397 scan(): 41b 4i - 00000000 @11 -> + 00003082 @11
Debug: 1766 281 riscv-013.c:408 scan():  ->  allunavail anyunavail authenticated version=2
Debug: 1767 282 riscv-013.c:397 scan(): 41b 4i r 00000000 @10 -> + 00000000 @11
Debug: 1768 282 riscv-013.c:397 scan(): 41b 4i - 00000000 @10 -> + 00910001 @10
Debug: 1769 282 riscv-013.c:408 scan():  ->  hartsello=145 dmactive
Debug: 1770 282 riscv-013.c:397 scan(): 41b 4i w 00920001 @10 -> + 00000000 @10
Debug: 1771 282 riscv-013.c:408 scan():  hartsello=146 dmactive -> 
Debug: 1772 283 riscv-013.c:397 scan(): 41b 4i - 00000000 @10 -> + 00920001 @10
Debug: 1773 283 riscv-013.c:408 scan():  ->  hartsello=146 dmactive
Debug: 1774 283 riscv-013.c:397 scan(): 41b 4i r 00000000 @11 -> + 00000000 @10
Debug: 1775 283 riscv-013.c:397 scan(): 41b 4i - 00000000 @11 -> + 00003082 @11
Debug: 1776 283 riscv-013.c:408 scan():  ->  allunavail anyunavail authenticated version=2
Debug: 1777 283 riscv-013.c:397 scan(): 41b 4i r 00000000 @10 -> + 00000000 @11
Debug: 1778 284 riscv-013.c:397 scan(): 41b 4i - 00000000 @10 -> + 00920001 @10
Debug: 1779 284 riscv-013.c:408 scan():  ->  hartsello=146 dmactive
Debug: 1780 284 riscv-013.c:397 scan(): 41b 4i w 00930001 @10 -> + 00000000 @10
Debug: 1781 284 riscv-013.c:408 scan():  hartsello=147 dmactive -> 
Debug: 1782 284 riscv-013.c:397 scan(): 41b 4i - 00000000 @10 -> + 00930001 @10
Debug: 1783 284 riscv-013.c:408 scan():  ->  hartsello=147 dmactive
Debug: 1784 284 riscv-013.c:397 scan(): 41b 4i r 00000000 @11 -> + 00000000 @10
Debug: 1785 284 riscv-013.c:397 scan(): 41b 4i - 00000000 @11 -> + 00003082 @11
Debug: 1786 284 riscv-013.c:408 scan():  ->  allunavail anyunavail authenticated version=2
Debug: 1787 285 riscv-013.c:397 scan(): 41b 4i r 00000000 @10 -> + 00000000 @11
Debug: 1788 285 riscv-013.c:397 scan(): 41b 4i - 00000000 @10 -> + 00930001 @10
Debug: 1789 285 riscv-013.c:408 scan():  ->  hartsello=147 dmactive
Debug: 1790 285 riscv-013.c:397 scan(): 41b 4i w 00940001 @10 -> + 00000000 @10
Debug: 1791 285 riscv-013.c:408 scan():  hartsello=148 dmactive -> 
Debug: 1792 285 riscv-013.c:397 scan(): 41b 4i - 00000000 @10 -> + 00940001 @10
Debug: 1793 285 riscv-013.c:408 scan():  ->  hartsello=148 dmactive
Debug: 1794 286 riscv-013.c:397 scan(): 41b 4i r 00000000 @11 -> + 00000000 @10
Debug: 1795 286 riscv-013.c:397 scan(): 41b 4i - 00000000 @11 -> + 00003082 @11
Debug: 1796 286 riscv-013.c:408 scan():  ->  allunavail anyunavail authenticated version=2
Debug: 1797 286 riscv-013.c:397 scan(): 41b 4i r 00000000 @10 -> + 00000000 @11
Debug: 1798 286 riscv-013.c:397 scan(): 41b 4i - 00000000 @10 -> + 00940001 @10
Debug: 1799 287 riscv-013.c:408 scan():  ->  hartsello=148 dmactive
Debug: 1800 287 riscv-013.c:397 scan(): 41b 4i w 00950001 @10 -> + 00000000 @10
Debug: 1801 287 riscv-013.c:408 scan():  hartsello=149 dmactive -> 
Debug: 1802 287 riscv-013.c:397 scan(): 41b 4i - 00000000 @10 -> + 00950001 @10
Debug: 1803 287 riscv-013.c:408 scan():  ->  hartsello=149 dmactive
Debug: 1804 287 riscv-013.c:397 scan(): 41b 4i r 00000000 @11 -> + 00000000 @10
Debug: 1805 287 riscv-013.c:397 scan(): 41b 4i - 00000000 @11 -> + 00003082 @11
Debug: 1806 287 riscv-013.c:408 scan():  ->  allunavail anyunavail authenticated version=2
Debug: 1807 288 riscv-013.c:397 scan(): 41b 4i r 00000000 @10 -> + 00000000 @11
Debug: 1808 288 riscv-013.c:397 scan(): 41b 4i - 00000000 @10 -> + 00950001 @10
Debug: 1809 288 riscv-013.c:408 scan():  ->  hartsello=149 dmactive
Debug: 1810 288 riscv-013.c:397 scan(): 41b 4i w 00960001 @10 -> + 00000000 @10
Debug: 1811 288 riscv-013.c:408 scan():  hartsello=150 dmactive -> 
Debug: 1812 289 riscv-013.c:397 scan(): 41b 4i - 00000000 @10 -> + 00960001 @10
Debug: 1813 289 riscv-013.c:408 scan():  ->  hartsello=150 dmactive
Debug: 1814 289 riscv-013.c:397 scan(): 41b 4i r 00000000 @11 -> + 00000000 @10
Debug: 1815 289 riscv-013.c:397 scan(): 41b 4i - 00000000 @11 -> + 00003082 @11
Debug: 1816 289 riscv-013.c:408 scan():  ->  allunavail anyunavail authenticated version=2
Debug: 1817 289 riscv-013.c:397 scan(): 41b 4i r 00000000 @10 -> + 00000000 @11
Debug: 1818 290 riscv-013.c:397 scan(): 41b 4i - 00000000 @10 -> + 00960001 @10
Debug: 1819 290 riscv-013.c:408 scan():  ->  hartsello=150 dmactive
Debug: 1820 290 riscv-013.c:397 scan(): 41b 4i w 00970001 @10 -> + 00000000 @10
Debug: 1821 290 riscv-013.c:408 scan():  hartsello=151 dmactive -> 
Debug: 1822 290 riscv-013.c:397 scan(): 41b 4i - 00000000 @10 -> + 00970001 @10
Debug: 1823 290 riscv-013.c:408 scan():  ->  hartsello=151 dmactive
Debug: 1824 290 riscv-013.c:397 scan(): 41b 4i r 00000000 @11 -> + 00000000 @10
Debug: 1825 290 riscv-013.c:397 scan(): 41b 4i - 00000000 @11 -> + 00003082 @11
Debug: 1826 291 riscv-013.c:408 scan():  ->  allunavail anyunavail authenticated version=2
Debug: 1827 291 riscv-013.c:397 scan(): 41b 4i r 00000000 @10 -> + 00000000 @11
Debug: 1828 291 riscv-013.c:397 scan(): 41b 4i - 00000000 @10 -> + 00970001 @10
Debug: 1829 291 riscv-013.c:408 scan():  ->  hartsello=151 dmactive
Debug: 1830 291 riscv-013.c:397 scan(): 41b 4i w 00980001 @10 -> + 00000000 @10
Debug: 1831 291 riscv-013.c:408 scan():  hartsello=152 dmactive -> 
Debug: 1832 292 riscv-013.c:397 scan(): 41b 4i - 00000000 @10 -> + 00980001 @10
Debug: 1833 292 riscv-013.c:408 scan():  ->  hartsello=152 dmactive
Debug: 1834 292 riscv-013.c:397 scan(): 41b 4i r 00000000 @11 -> + 00000000 @10
Debug: 1835 292 riscv-013.c:397 scan(): 41b 4i - 00000000 @11 -> + 00003082 @11
Debug: 1836 292 riscv-013.c:408 scan():  ->  allunavail anyunavail authenticated version=2
Debug: 1837 292 riscv-013.c:397 scan(): 41b 4i r 00000000 @10 -> + 00000000 @11
Debug: 1838 293 riscv-013.c:397 scan(): 41b 4i - 00000000 @10 -> + 00980001 @10
Debug: 1839 293 riscv-013.c:408 scan():  ->  hartsello=152 dmactive
Debug: 1840 293 riscv-013.c:397 scan(): 41b 4i w 00990001 @10 -> + 00000000 @10
Debug: 1841 293 riscv-013.c:408 scan():  hartsello=153 dmactive -> 
Debug: 1842 293 riscv-013.c:397 scan(): 41b 4i - 00000000 @10 -> + 00990001 @10
Debug: 1843 293 riscv-013.c:408 scan():  ->  hartsello=153 dmactive
Debug: 1844 293 riscv-013.c:397 scan(): 41b 4i r 00000000 @11 -> + 00000000 @10
Debug: 1845 294 riscv-013.c:397 scan(): 41b 4i - 00000000 @11 -> + 00003082 @11
Debug: 1846 294 riscv-013.c:408 scan():  ->  allunavail anyunavail authenticated version=2
Debug: 1847 294 riscv-013.c:397 scan(): 41b 4i r 00000000 @10 -> + 00000000 @11
Debug: 1848 294 riscv-013.c:397 scan(): 41b 4i - 00000000 @10 -> + 00990001 @10
Debug: 1849 294 riscv-013.c:408 scan():  ->  hartsello=153 dmactive
Debug: 1850 294 riscv-013.c:397 scan(): 41b 4i w 009a0001 @10 -> + 00000000 @10
Debug: 1851 294 riscv-013.c:408 scan():  hartsello=154 dmactive -> 
Debug: 1852 295 riscv-013.c:397 scan(): 41b 4i - 00000000 @10 -> + 009a0001 @10
Debug: 1853 295 riscv-013.c:408 scan():  ->  hartsello=154 dmactive
Debug: 1854 295 riscv-013.c:397 scan(): 41b 4i r 00000000 @11 -> + 00000000 @10
Debug: 1855 295 riscv-013.c:397 scan(): 41b 4i - 00000000 @11 -> + 00003082 @11
Debug: 1856 295 riscv-013.c:408 scan():  ->  allunavail anyunavail authenticated version=2
Debug: 1857 295 riscv-013.c:397 scan(): 41b 4i r 00000000 @10 -> + 00000000 @11
Debug: 1858 295 riscv-013.c:397 scan(): 41b 4i - 00000000 @10 -> + 009a0001 @10
Debug: 1859 295 riscv-013.c:408 scan():  ->  hartsello=154 dmactive
Debug: 1860 295 riscv-013.c:397 scan(): 41b 4i w 009b0001 @10 -> + 00000000 @10
Debug: 1861 295 riscv-013.c:408 scan():  hartsello=155 dmactive -> 
Debug: 1862 296 riscv-013.c:397 scan(): 41b 4i - 00000000 @10 -> + 009b0001 @10
Debug: 1863 296 riscv-013.c:408 scan():  ->  hartsello=155 dmactive
Debug: 1864 296 riscv-013.c:397 scan(): 41b 4i r 00000000 @11 -> + 00000000 @10
Debug: 1865 296 riscv-013.c:397 scan(): 41b 4i - 00000000 @11 -> + 00003082 @11
Debug: 1866 296 riscv-013.c:408 scan():  ->  allunavail anyunavail authenticated version=2
Debug: 1867 297 riscv-013.c:397 scan(): 41b 4i r 00000000 @10 -> + 00000000 @11
Debug: 1868 297 riscv-013.c:397 scan(): 41b 4i - 00000000 @10 -> + 009b0001 @10
Debug: 1869 297 riscv-013.c:408 scan():  ->  hartsello=155 dmactive
Debug: 1870 297 riscv-013.c:397 scan(): 41b 4i w 009c0001 @10 -> + 00000000 @10
Debug: 1871 297 riscv-013.c:408 scan():  hartsello=156 dmactive -> 
Debug: 1872 297 riscv-013.c:397 scan(): 41b 4i - 00000000 @10 -> + 009c0001 @10
Debug: 1873 297 riscv-013.c:408 scan():  ->  hartsello=156 dmactive
Debug: 1874 298 riscv-013.c:397 scan(): 41b 4i r 00000000 @11 -> + 00000000 @10
Debug: 1875 298 riscv-013.c:397 scan(): 41b 4i - 00000000 @11 -> + 00003082 @11
Debug: 1876 298 riscv-013.c:408 scan():  ->  allunavail anyunavail authenticated version=2
Debug: 1877 298 riscv-013.c:397 scan(): 41b 4i r 00000000 @10 -> + 00000000 @11
Debug: 1878 298 riscv-013.c:397 scan(): 41b 4i - 00000000 @10 -> + 009c0001 @10
Debug: 1879 298 riscv-013.c:408 scan():  ->  hartsello=156 dmactive
Debug: 1880 299 riscv-013.c:397 scan(): 41b 4i w 009d0001 @10 -> + 00000000 @10
Debug: 1881 299 riscv-013.c:408 scan():  hartsello=157 dmactive -> 
Debug: 1882 299 riscv-013.c:397 scan(): 41b 4i - 00000000 @10 -> + 009d0001 @10
Debug: 1883 299 riscv-013.c:408 scan():  ->  hartsello=157 dmactive
Debug: 1884 299 riscv-013.c:397 scan(): 41b 4i r 00000000 @11 -> + 00000000 @10
Debug: 1885 300 riscv-013.c:397 scan(): 41b 4i - 00000000 @11 -> + 00003082 @11
Debug: 1886 300 riscv-013.c:408 scan():  ->  allunavail anyunavail authenticated version=2
Debug: 1887 300 riscv-013.c:397 scan(): 41b 4i r 00000000 @10 -> + 00000000 @11
Debug: 1888 300 riscv-013.c:397 scan(): 41b 4i - 00000000 @10 -> + 009d0001 @10
Debug: 1889 300 riscv-013.c:408 scan():  ->  hartsello=157 dmactive
Debug: 1890 300 riscv-013.c:397 scan(): 41b 4i w 009e0001 @10 -> + 00000000 @10
Debug: 1891 300 riscv-013.c:408 scan():  hartsello=158 dmactive -> 
Debug: 1892 300 riscv-013.c:397 scan(): 41b 4i - 00000000 @10 -> + 009e0001 @10
Debug: 1893 300 riscv-013.c:408 scan():  ->  hartsello=158 dmactive
Debug: 1894 301 riscv-013.c:397 scan(): 41b 4i r 00000000 @11 -> + 00000000 @10
Debug: 1895 301 riscv-013.c:397 scan(): 41b 4i - 00000000 @11 -> + 00003082 @11
Debug: 1896 301 riscv-013.c:408 scan():  ->  allunavail anyunavail authenticated version=2
Debug: 1897 301 riscv-013.c:397 scan(): 41b 4i r 00000000 @10 -> + 00000000 @11
Debug: 1898 301 riscv-013.c:397 scan(): 41b 4i - 00000000 @10 -> + 009e0001 @10
Debug: 1899 302 riscv-013.c:408 scan():  ->  hartsello=158 dmactive
Debug: 1900 302 riscv-013.c:397 scan(): 41b 4i w 009f0001 @10 -> + 00000000 @10
Debug: 1901 302 riscv-013.c:408 scan():  hartsello=159 dmactive -> 
Debug: 1902 302 riscv-013.c:397 scan(): 41b 4i - 00000000 @10 -> + 009f0001 @10
Debug: 1903 302 riscv-013.c:408 scan():  ->  hartsello=159 dmactive
Debug: 1904 302 riscv-013.c:397 scan(): 41b 4i r 00000000 @11 -> + 00000000 @10
Debug: 1905 302 riscv-013.c:397 scan(): 41b 4i - 00000000 @11 -> + 00003082 @11
Debug: 1906 302 riscv-013.c:408 scan():  ->  allunavail anyunavail authenticated version=2
Debug: 1907 303 riscv-013.c:397 scan(): 41b 4i r 00000000 @10 -> + 00000000 @11
Debug: 1908 303 riscv-013.c:397 scan(): 41b 4i - 00000000 @10 -> + 009f0001 @10
Debug: 1909 303 riscv-013.c:408 scan():  ->  hartsello=159 dmactive
Debug: 1910 303 riscv-013.c:397 scan(): 41b 4i w 00a00001 @10 -> + 00000000 @10
Debug: 1911 303 riscv-013.c:408 scan():  hartsello=160 dmactive -> 
Debug: 1912 303 riscv-013.c:397 scan(): 41b 4i - 00000000 @10 -> + 00a00001 @10
Debug: 1913 303 riscv-013.c:408 scan():  ->  hartsello=160 dmactive
Debug: 1914 304 riscv-013.c:397 scan(): 41b 4i r 00000000 @11 -> + 00000000 @10
Debug: 1915 304 riscv-013.c:397 scan(): 41b 4i - 00000000 @11 -> + 00003082 @11
Debug: 1916 304 riscv-013.c:408 scan():  ->  allunavail anyunavail authenticated version=2
Debug: 1917 304 riscv-013.c:397 scan(): 41b 4i r 00000000 @10 -> + 00000000 @11
Debug: 1918 304 riscv-013.c:397 scan(): 41b 4i - 00000000 @10 -> + 00a00001 @10
Debug: 1919 304 riscv-013.c:408 scan():  ->  hartsello=160 dmactive
Debug: 1920 305 riscv-013.c:397 scan(): 41b 4i w 00a10001 @10 -> + 00000000 @10
Debug: 1921 305 riscv-013.c:408 scan():  hartsello=161 dmactive -> 
Debug: 1922 305 riscv-013.c:397 scan(): 41b 4i - 00000000 @10 -> + 00a10001 @10
Debug: 1923 305 riscv-013.c:408 scan():  ->  hartsello=161 dmactive
Debug: 1924 305 riscv-013.c:397 scan(): 41b 4i r 00000000 @11 -> + 00000000 @10
Debug: 1925 306 riscv-013.c:397 scan(): 41b 4i - 00000000 @11 -> + 00003082 @11
Debug: 1926 306 riscv-013.c:408 scan():  ->  allunavail anyunavail authenticated version=2
Debug: 1927 306 riscv-013.c:397 scan(): 41b 4i r 00000000 @10 -> + 00000000 @11
Debug: 1928 306 riscv-013.c:397 scan(): 41b 4i - 00000000 @10 -> + 00a10001 @10
Debug: 1929 306 riscv-013.c:408 scan():  ->  hartsello=161 dmactive
Debug: 1930 306 riscv-013.c:397 scan(): 41b 4i w 00a20001 @10 -> + 00000000 @10
Debug: 1931 306 riscv-013.c:408 scan():  hartsello=162 dmactive -> 
Debug: 1932 307 riscv-013.c:397 scan(): 41b 4i - 00000000 @10 -> + 00a20001 @10
Debug: 1933 307 riscv-013.c:408 scan():  ->  hartsello=162 dmactive
Debug: 1934 307 riscv-013.c:397 scan(): 41b 4i r 00000000 @11 -> + 00000000 @10
Debug: 1935 307 riscv-013.c:397 scan(): 41b 4i - 00000000 @11 -> + 00003082 @11
Debug: 1936 307 riscv-013.c:408 scan():  ->  allunavail anyunavail authenticated version=2
Debug: 1937 307 riscv-013.c:397 scan(): 41b 4i r 00000000 @10 -> + 00000000 @11
Debug: 1938 308 riscv-013.c:397 scan(): 41b 4i - 00000000 @10 -> + 00a20001 @10
Debug: 1939 308 riscv-013.c:408 scan():  ->  hartsello=162 dmactive
Debug: 1940 308 riscv-013.c:397 scan(): 41b 4i w 00a30001 @10 -> + 00000000 @10
Debug: 1941 308 riscv-013.c:408 scan():  hartsello=163 dmactive -> 
Debug: 1942 308 riscv-013.c:397 scan(): 41b 4i - 00000000 @10 -> + 00a30001 @10
Debug: 1943 308 riscv-013.c:408 scan():  ->  hartsello=163 dmactive
Debug: 1944 308 riscv-013.c:397 scan(): 41b 4i r 00000000 @11 -> + 00000000 @10
Debug: 1945 309 riscv-013.c:397 scan(): 41b 4i - 00000000 @11 -> + 00003082 @11
Debug: 1946 309 riscv-013.c:408 scan():  ->  allunavail anyunavail authenticated version=2
Debug: 1947 309 riscv-013.c:397 scan(): 41b 4i r 00000000 @10 -> + 00000000 @11
Debug: 1948 309 riscv-013.c:397 scan(): 41b 4i - 00000000 @10 -> + 00a30001 @10
Debug: 1949 309 riscv-013.c:408 scan():  ->  hartsello=163 dmactive
Debug: 1950 309 riscv-013.c:397 scan(): 41b 4i w 00a40001 @10 -> + 00000000 @10
Debug: 1951 309 riscv-013.c:408 scan():  hartsello=164 dmactive -> 
Debug: 1952 310 riscv-013.c:397 scan(): 41b 4i - 00000000 @10 -> + 00a40001 @10
Debug: 1953 310 riscv-013.c:408 scan():  ->  hartsello=164 dmactive
Debug: 1954 310 riscv-013.c:397 scan(): 41b 4i r 00000000 @11 -> + 00000000 @10
Debug: 1955 310 riscv-013.c:397 scan(): 41b 4i - 00000000 @11 -> + 00003082 @11
Debug: 1956 310 riscv-013.c:408 scan():  ->  allunavail anyunavail authenticated version=2
Debug: 1957 310 riscv-013.c:397 scan(): 41b 4i r 00000000 @10 -> + 00000000 @11
Debug: 1958 311 riscv-013.c:397 scan(): 41b 4i - 00000000 @10 -> + 00a40001 @10
Debug: 1959 311 riscv-013.c:408 scan():  ->  hartsello=164 dmactive
Debug: 1960 311 riscv-013.c:397 scan(): 41b 4i w 00a50001 @10 -> + 00000000 @10
Debug: 1961 311 riscv-013.c:408 scan():  hartsello=165 dmactive -> 
Debug: 1962 311 riscv-013.c:397 scan(): 41b 4i - 00000000 @10 -> + 00a50001 @10
Debug: 1963 311 riscv-013.c:408 scan():  ->  hartsello=165 dmactive
Debug: 1964 311 riscv-013.c:397 scan(): 41b 4i r 00000000 @11 -> + 00000000 @10
Debug: 1965 312 riscv-013.c:397 scan(): 41b 4i - 00000000 @11 -> + 00003082 @11
Debug: 1966 312 riscv-013.c:408 scan():  ->  allunavail anyunavail authenticated version=2
Debug: 1967 312 riscv-013.c:397 scan(): 41b 4i r 00000000 @10 -> + 00000000 @11
Debug: 1968 312 riscv-013.c:397 scan(): 41b 4i - 00000000 @10 -> + 00a50001 @10
Debug: 1969 312 riscv-013.c:408 scan():  ->  hartsello=165 dmactive
Debug: 1970 313 riscv-013.c:397 scan(): 41b 4i w 00a60001 @10 -> + 00000000 @10
Debug: 1971 313 riscv-013.c:408 scan():  hartsello=166 dmactive -> 
Debug: 1972 313 riscv-013.c:397 scan(): 41b 4i - 00000000 @10 -> + 00a60001 @10
Debug: 1973 313 riscv-013.c:408 scan():  ->  hartsello=166 dmactive
Debug: 1974 313 riscv-013.c:397 scan(): 41b 4i r 00000000 @11 -> + 00000000 @10
Debug: 1975 313 riscv-013.c:397 scan(): 41b 4i - 00000000 @11 -> + 00003082 @11
Debug: 1976 313 riscv-013.c:408 scan():  ->  allunavail anyunavail authenticated version=2
Debug: 1977 314 riscv-013.c:397 scan(): 41b 4i r 00000000 @10 -> + 00000000 @11
Debug: 1978 314 riscv-013.c:397 scan(): 41b 4i - 00000000 @10 -> + 00a60001 @10
Debug: 1979 314 riscv-013.c:408 scan():  ->  hartsello=166 dmactive
Debug: 1980 314 riscv-013.c:397 scan(): 41b 4i w 00a70001 @10 -> + 00000000 @10
Debug: 1981 314 riscv-013.c:408 scan():  hartsello=167 dmactive -> 
Debug: 1982 314 riscv-013.c:397 scan(): 41b 4i - 00000000 @10 -> + 00a70001 @10
Debug: 1983 314 riscv-013.c:408 scan():  ->  hartsello=167 dmactive
Debug: 1984 315 riscv-013.c:397 scan(): 41b 4i r 00000000 @11 -> + 00000000 @10
Debug: 1985 315 riscv-013.c:397 scan(): 41b 4i - 00000000 @11 -> + 00003082 @11
Debug: 1986 315 riscv-013.c:408 scan():  ->  allunavail anyunavail authenticated version=2
Debug: 1987 315 riscv-013.c:397 scan(): 41b 4i r 00000000 @10 -> + 00000000 @11
Debug: 1988 315 riscv-013.c:397 scan(): 41b 4i - 00000000 @10 -> + 00a70001 @10
Debug: 1989 315 riscv-013.c:408 scan():  ->  hartsello=167 dmactive
Debug: 1990 316 riscv-013.c:397 scan(): 41b 4i w 00a80001 @10 -> + 00000000 @10
Debug: 1991 316 riscv-013.c:408 scan():  hartsello=168 dmactive -> 
Debug: 1992 316 riscv-013.c:397 scan(): 41b 4i - 00000000 @10 -> + 00a80001 @10
Debug: 1993 316 riscv-013.c:408 scan():  ->  hartsello=168 dmactive
Debug: 1994 316 riscv-013.c:397 scan(): 41b 4i r 00000000 @11 -> + 00000000 @10
Debug: 1995 316 riscv-013.c:397 scan(): 41b 4i - 00000000 @11 -> + 00003082 @11
Debug: 1996 316 riscv-013.c:408 scan():  ->  allunavail anyunavail authenticated version=2
Debug: 1997 317 riscv-013.c:397 scan(): 41b 4i r 00000000 @10 -> + 00000000 @11
Debug: 1998 317 riscv-013.c:397 scan(): 41b 4i - 00000000 @10 -> + 00a80001 @10
Debug: 1999 317 riscv-013.c:408 scan():  ->  hartsello=168 dmactive
Debug: 2000 317 riscv-013.c:397 scan(): 41b 4i w 00a90001 @10 -> + 00000000 @10
Debug: 2001 317 riscv-013.c:408 scan():  hartsello=169 dmactive -> 
Debug: 2002 317 riscv-013.c:397 scan(): 41b 4i - 00000000 @10 -> + 00a90001 @10
Debug: 2003 317 riscv-013.c:408 scan():  ->  hartsello=169 dmactive
Debug: 2004 318 riscv-013.c:397 scan(): 41b 4i r 00000000 @11 -> + 00000000 @10
Debug: 2005 318 riscv-013.c:397 scan(): 41b 4i - 00000000 @11 -> + 00003082 @11
Debug: 2006 318 riscv-013.c:408 scan():  ->  allunavail anyunavail authenticated version=2
Debug: 2007 318 riscv-013.c:397 scan(): 41b 4i r 00000000 @10 -> + 00000000 @11
Debug: 2008 318 riscv-013.c:397 scan(): 41b 4i - 00000000 @10 -> + 00a90001 @10
Debug: 2009 318 riscv-013.c:408 scan():  ->  hartsello=169 dmactive
Debug: 2010 319 riscv-013.c:397 scan(): 41b 4i w 00aa0001 @10 -> + 00000000 @10
Debug: 2011 319 riscv-013.c:408 scan():  hartsello=170 dmactive -> 
Debug: 2012 319 riscv-013.c:397 scan(): 41b 4i - 00000000 @10 -> + 00aa0001 @10
Debug: 2013 319 riscv-013.c:408 scan():  ->  hartsello=170 dmactive
Debug: 2014 319 riscv-013.c:397 scan(): 41b 4i r 00000000 @11 -> + 00000000 @10
Debug: 2015 319 riscv-013.c:397 scan(): 41b 4i - 00000000 @11 -> + 00003082 @11
Debug: 2016 319 riscv-013.c:408 scan():  ->  allunavail anyunavail authenticated version=2
Debug: 2017 320 riscv-013.c:397 scan(): 41b 4i r 00000000 @10 -> + 00000000 @11
Debug: 2018 320 riscv-013.c:397 scan(): 41b 4i - 00000000 @10 -> + 00aa0001 @10
Debug: 2019 320 riscv-013.c:408 scan():  ->  hartsello=170 dmactive
Debug: 2020 320 riscv-013.c:397 scan(): 41b 4i w 00ab0001 @10 -> + 00000000 @10
Debug: 2021 320 riscv-013.c:408 scan():  hartsello=171 dmactive -> 
Debug: 2022 320 riscv-013.c:397 scan(): 41b 4i - 00000000 @10 -> + 00ab0001 @10
Debug: 2023 321 riscv-013.c:408 scan():  ->  hartsello=171 dmactive
Debug: 2024 321 riscv-013.c:397 scan(): 41b 4i r 00000000 @11 -> + 00000000 @10
Debug: 2025 321 riscv-013.c:397 scan(): 41b 4i - 00000000 @11 -> + 00003082 @11
Debug: 2026 321 riscv-013.c:408 scan():  ->  allunavail anyunavail authenticated version=2
Debug: 2027 321 riscv-013.c:397 scan(): 41b 4i r 00000000 @10 -> + 00000000 @11
Debug: 2028 322 riscv-013.c:397 scan(): 41b 4i - 00000000 @10 -> + 00ab0001 @10
Debug: 2029 322 riscv-013.c:408 scan():  ->  hartsello=171 dmactive
Debug: 2030 322 riscv-013.c:397 scan(): 41b 4i w 00ac0001 @10 -> + 00000000 @10
Debug: 2031 322 riscv-013.c:408 scan():  hartsello=172 dmactive -> 
Debug: 2032 322 riscv-013.c:397 scan(): 41b 4i - 00000000 @10 -> + 00ac0001 @10
Debug: 2033 322 riscv-013.c:408 scan():  ->  hartsello=172 dmactive
Debug: 2034 322 riscv-013.c:397 scan(): 41b 4i r 00000000 @11 -> + 00000000 @10
Debug: 2035 323 riscv-013.c:397 scan(): 41b 4i - 00000000 @11 -> + 00003082 @11
Debug: 2036 323 riscv-013.c:408 scan():  ->  allunavail anyunavail authenticated version=2
Debug: 2037 323 riscv-013.c:397 scan(): 41b 4i r 00000000 @10 -> + 00000000 @11
Debug: 2038 323 riscv-013.c:397 scan(): 41b 4i - 00000000 @10 -> + 00ac0001 @10
Debug: 2039 323 riscv-013.c:408 scan():  ->  hartsello=172 dmactive
Debug: 2040 323 riscv-013.c:397 scan(): 41b 4i w 00ad0001 @10 -> + 00000000 @10
Debug: 2041 323 riscv-013.c:408 scan():  hartsello=173 dmactive -> 
Debug: 2042 324 riscv-013.c:397 scan(): 41b 4i - 00000000 @10 -> + 00ad0001 @10
Debug: 2043 324 riscv-013.c:408 scan():  ->  hartsello=173 dmactive
Debug: 2044 324 riscv-013.c:397 scan(): 41b 4i r 00000000 @11 -> + 00000000 @10
Debug: 2045 324 riscv-013.c:397 scan(): 41b 4i - 00000000 @11 -> + 00003082 @11
Debug: 2046 324 riscv-013.c:408 scan():  ->  allunavail anyunavail authenticated version=2
Debug: 2047 325 riscv-013.c:397 scan(): 41b 4i r 00000000 @10 -> + 00000000 @11
Debug: 2048 325 riscv-013.c:397 scan(): 41b 4i - 00000000 @10 -> + 00ad0001 @10
Debug: 2049 325 riscv-013.c:408 scan():  ->  hartsello=173 dmactive
Debug: 2050 325 riscv-013.c:397 scan(): 41b 4i w 00ae0001 @10 -> + 00000000 @10
Debug: 2051 325 riscv-013.c:408 scan():  hartsello=174 dmactive -> 
Debug: 2052 325 riscv-013.c:397 scan(): 41b 4i - 00000000 @10 -> + 00ae0001 @10
Debug: 2053 325 riscv-013.c:408 scan():  ->  hartsello=174 dmactive
Debug: 2054 326 riscv-013.c:397 scan(): 41b 4i r 00000000 @11 -> + 00000000 @10
Debug: 2055 326 riscv-013.c:397 scan(): 41b 4i - 00000000 @11 -> + 00003082 @11
Debug: 2056 326 riscv-013.c:408 scan():  ->  allunavail anyunavail authenticated version=2
Debug: 2057 326 riscv-013.c:397 scan(): 41b 4i r 00000000 @10 -> + 00000000 @11
Debug: 2058 326 riscv-013.c:397 scan(): 41b 4i - 00000000 @10 -> + 00ae0001 @10
Debug: 2059 327 riscv-013.c:408 scan():  ->  hartsello=174 dmactive
Debug: 2060 327 riscv-013.c:397 scan(): 41b 4i w 00af0001 @10 -> + 00000000 @10
Debug: 2061 327 riscv-013.c:408 scan():  hartsello=175 dmactive -> 
Debug: 2062 327 riscv-013.c:397 scan(): 41b 4i - 00000000 @10 -> + 00af0001 @10
Debug: 2063 327 riscv-013.c:408 scan():  ->  hartsello=175 dmactive
Debug: 2064 327 riscv-013.c:397 scan(): 41b 4i r 00000000 @11 -> + 00000000 @10
Debug: 2065 327 riscv-013.c:397 scan(): 41b 4i - 00000000 @11 -> + 00003082 @11
Debug: 2066 327 riscv-013.c:408 scan():  ->  allunavail anyunavail authenticated version=2
Debug: 2067 328 riscv-013.c:397 scan(): 41b 4i r 00000000 @10 -> + 00000000 @11
Debug: 2068 328 riscv-013.c:397 scan(): 41b 4i - 00000000 @10 -> + 00af0001 @10
Debug: 2069 328 riscv-013.c:408 scan():  ->  hartsello=175 dmactive
Debug: 2070 328 riscv-013.c:397 scan(): 41b 4i w 00b00001 @10 -> + 00000000 @10
Debug: 2071 328 riscv-013.c:408 scan():  hartsello=176 dmactive -> 
Debug: 2072 328 riscv-013.c:397 scan(): 41b 4i - 00000000 @10 -> + 00b00001 @10
Debug: 2073 328 riscv-013.c:408 scan():  ->  hartsello=176 dmactive
Debug: 2074 329 riscv-013.c:397 scan(): 41b 4i r 00000000 @11 -> + 00000000 @10
Debug: 2075 329 riscv-013.c:397 scan(): 41b 4i - 00000000 @11 -> + 00003082 @11
Debug: 2076 329 riscv-013.c:408 scan():  ->  allunavail anyunavail authenticated version=2
Debug: 2077 329 riscv-013.c:397 scan(): 41b 4i r 00000000 @10 -> + 00000000 @11
Debug: 2078 329 riscv-013.c:397 scan(): 41b 4i - 00000000 @10 -> + 00b00001 @10
Debug: 2079 329 riscv-013.c:408 scan():  ->  hartsello=176 dmactive
Debug: 2080 330 riscv-013.c:397 scan(): 41b 4i w 00b10001 @10 -> + 00000000 @10
Debug: 2081 330 riscv-013.c:408 scan():  hartsello=177 dmactive -> 
Debug: 2082 330 riscv-013.c:397 scan(): 41b 4i - 00000000 @10 -> + 00b10001 @10
Debug: 2083 330 riscv-013.c:408 scan():  ->  hartsello=177 dmactive
Debug: 2084 330 riscv-013.c:397 scan(): 41b 4i r 00000000 @11 -> + 00000000 @10
Debug: 2085 330 riscv-013.c:397 scan(): 41b 4i - 00000000 @11 -> + 00003082 @11
Debug: 2086 330 riscv-013.c:408 scan():  ->  allunavail anyunavail authenticated version=2
Debug: 2087 331 riscv-013.c:397 scan(): 41b 4i r 00000000 @10 -> + 00000000 @11
Debug: 2088 331 riscv-013.c:397 scan(): 41b 4i - 00000000 @10 -> + 00b10001 @10
Debug: 2089 331 riscv-013.c:408 scan():  ->  hartsello=177 dmactive
Debug: 2090 331 riscv-013.c:397 scan(): 41b 4i w 00b20001 @10 -> + 00000000 @10
Debug: 2091 331 riscv-013.c:408 scan():  hartsello=178 dmactive -> 
Debug: 2092 332 riscv-013.c:397 scan(): 41b 4i - 00000000 @10 -> + 00b20001 @10
Debug: 2093 332 riscv-013.c:408 scan():  ->  hartsello=178 dmactive
Debug: 2094 332 riscv-013.c:397 scan(): 41b 4i r 00000000 @11 -> + 00000000 @10
Debug: 2095 332 riscv-013.c:397 scan(): 41b 4i - 00000000 @11 -> + 00003082 @11
Debug: 2096 332 riscv-013.c:408 scan():  ->  allunavail anyunavail authenticated version=2
Debug: 2097 333 riscv-013.c:397 scan(): 41b 4i r 00000000 @10 -> + 00000000 @11
Debug: 2098 333 riscv-013.c:397 scan(): 41b 4i - 00000000 @10 -> + 00b20001 @10
Debug: 2099 333 riscv-013.c:408 scan():  ->  hartsello=178 dmactive
Debug: 2100 333 riscv-013.c:397 scan(): 41b 4i w 00b30001 @10 -> + 00000000 @10
Debug: 2101 333 riscv-013.c:408 scan():  hartsello=179 dmactive -> 
Debug: 2102 333 riscv-013.c:397 scan(): 41b 4i - 00000000 @10 -> + 00b30001 @10
Debug: 2103 333 riscv-013.c:408 scan():  ->  hartsello=179 dmactive
Debug: 2104 334 riscv-013.c:397 scan(): 41b 4i r 00000000 @11 -> + 00000000 @10
Debug: 2105 334 riscv-013.c:397 scan(): 41b 4i - 00000000 @11 -> + 00003082 @11
Debug: 2106 334 riscv-013.c:408 scan():  ->  allunavail anyunavail authenticated version=2
Debug: 2107 334 riscv-013.c:397 scan(): 41b 4i r 00000000 @10 -> + 00000000 @11
Debug: 2108 334 riscv-013.c:397 scan(): 41b 4i - 00000000 @10 -> + 00b30001 @10
Debug: 2109 334 riscv-013.c:408 scan():  ->  hartsello=179 dmactive
Debug: 2110 335 riscv-013.c:397 scan(): 41b 4i w 00b40001 @10 -> + 00000000 @10
Debug: 2111 335 riscv-013.c:408 scan():  hartsello=180 dmactive -> 
Debug: 2112 335 riscv-013.c:397 scan(): 41b 4i - 00000000 @10 -> + 00b40001 @10
Debug: 2113 335 riscv-013.c:408 scan():  ->  hartsello=180 dmactive
Debug: 2114 335 riscv-013.c:397 scan(): 41b 4i r 00000000 @11 -> + 00000000 @10
Debug: 2115 335 riscv-013.c:397 scan(): 41b 4i - 00000000 @11 -> + 00003082 @11
Debug: 2116 335 riscv-013.c:408 scan():  ->  allunavail anyunavail authenticated version=2
Debug: 2117 336 riscv-013.c:397 scan(): 41b 4i r 00000000 @10 -> + 00000000 @11
Debug: 2118 336 riscv-013.c:397 scan(): 41b 4i - 00000000 @10 -> + 00b40001 @10
Debug: 2119 336 riscv-013.c:408 scan():  ->  hartsello=180 dmactive
Debug: 2120 336 riscv-013.c:397 scan(): 41b 4i w 00b50001 @10 -> + 00000000 @10
Debug: 2121 336 riscv-013.c:408 scan():  hartsello=181 dmactive -> 
Debug: 2122 337 riscv-013.c:397 scan(): 41b 4i - 00000000 @10 -> + 00b50001 @10
Debug: 2123 337 riscv-013.c:408 scan():  ->  hartsello=181 dmactive
Debug: 2124 337 riscv-013.c:397 scan(): 41b 4i r 00000000 @11 -> + 00000000 @10
Debug: 2125 337 riscv-013.c:397 scan(): 41b 4i - 00000000 @11 -> + 00003082 @11
Debug: 2126 337 riscv-013.c:408 scan():  ->  allunavail anyunavail authenticated version=2
Debug: 2127 337 riscv-013.c:397 scan(): 41b 4i r 00000000 @10 -> + 00000000 @11
Debug: 2128 338 riscv-013.c:397 scan(): 41b 4i - 00000000 @10 -> + 00b50001 @10
Debug: 2129 338 riscv-013.c:408 scan():  ->  hartsello=181 dmactive
Debug: 2130 338 riscv-013.c:397 scan(): 41b 4i w 00b60001 @10 -> + 00000000 @10
Debug: 2131 338 riscv-013.c:408 scan():  hartsello=182 dmactive -> 
Debug: 2132 338 riscv-013.c:397 scan(): 41b 4i - 00000000 @10 -> + 00b60001 @10
Debug: 2133 338 riscv-013.c:408 scan():  ->  hartsello=182 dmactive
Debug: 2134 338 riscv-013.c:397 scan(): 41b 4i r 00000000 @11 -> + 00000000 @10
Debug: 2135 338 riscv-013.c:397 scan(): 41b 4i - 00000000 @11 -> + 00003082 @11
Debug: 2136 339 riscv-013.c:408 scan():  ->  allunavail anyunavail authenticated version=2
Debug: 2137 339 riscv-013.c:397 scan(): 41b 4i r 00000000 @10 -> + 00000000 @11
Debug: 2138 339 riscv-013.c:397 scan(): 41b 4i - 00000000 @10 -> + 00b60001 @10
Debug: 2139 339 riscv-013.c:408 scan():  ->  hartsello=182 dmactive
Debug: 2140 339 riscv-013.c:397 scan(): 41b 4i w 00b70001 @10 -> + 00000000 @10
Debug: 2141 339 riscv-013.c:408 scan():  hartsello=183 dmactive -> 
Debug: 2142 339 riscv-013.c:397 scan(): 41b 4i - 00000000 @10 -> + 00b70001 @10
Debug: 2143 340 riscv-013.c:408 scan():  ->  hartsello=183 dmactive
Debug: 2144 340 riscv-013.c:397 scan(): 41b 4i r 00000000 @11 -> + 00000000 @10
Debug: 2145 340 riscv-013.c:397 scan(): 41b 4i - 00000000 @11 -> + 00003082 @11
Debug: 2146 340 riscv-013.c:408 scan():  ->  allunavail anyunavail authenticated version=2
Debug: 2147 340 riscv-013.c:397 scan(): 41b 4i r 00000000 @10 -> + 00000000 @11
Debug: 2148 340 riscv-013.c:397 scan(): 41b 4i - 00000000 @10 -> + 00b70001 @10
Debug: 2149 340 riscv-013.c:408 scan():  ->  hartsello=183 dmactive
Debug: 2150 341 riscv-013.c:397 scan(): 41b 4i w 00b80001 @10 -> + 00000000 @10
Debug: 2151 341 riscv-013.c:408 scan():  hartsello=184 dmactive -> 
Debug: 2152 341 riscv-013.c:397 scan(): 41b 4i - 00000000 @10 -> + 00b80001 @10
Debug: 2153 341 riscv-013.c:408 scan():  ->  hartsello=184 dmactive
Debug: 2154 341 riscv-013.c:397 scan(): 41b 4i r 00000000 @11 -> + 00000000 @10
Debug: 2155 341 riscv-013.c:397 scan(): 41b 4i - 00000000 @11 -> + 00003082 @11
Debug: 2156 341 riscv-013.c:408 scan():  ->  allunavail anyunavail authenticated version=2
Debug: 2157 341 riscv-013.c:397 scan(): 41b 4i r 00000000 @10 -> + 00000000 @11
Debug: 2158 342 riscv-013.c:397 scan(): 41b 4i - 00000000 @10 -> + 00b80001 @10
Debug: 2159 342 riscv-013.c:408 scan():  ->  hartsello=184 dmactive
Debug: 2160 342 riscv-013.c:397 scan(): 41b 4i w 00b90001 @10 -> + 00000000 @10
Debug: 2161 342 riscv-013.c:408 scan():  hartsello=185 dmactive -> 
Debug: 2162 342 riscv-013.c:397 scan(): 41b 4i - 00000000 @10 -> + 00b90001 @10
Debug: 2163 342 riscv-013.c:408 scan():  ->  hartsello=185 dmactive
Debug: 2164 342 riscv-013.c:397 scan(): 41b 4i r 00000000 @11 -> + 00000000 @10
Debug: 2165 342 riscv-013.c:397 scan(): 41b 4i - 00000000 @11 -> + 00003082 @11
Debug: 2166 342 riscv-013.c:408 scan():  ->  allunavail anyunavail authenticated version=2
Debug: 2167 343 riscv-013.c:397 scan(): 41b 4i r 00000000 @10 -> + 00000000 @11
Debug: 2168 343 riscv-013.c:397 scan(): 41b 4i - 00000000 @10 -> + 00b90001 @10
Debug: 2169 343 riscv-013.c:408 scan():  ->  hartsello=185 dmactive
Debug: 2170 343 riscv-013.c:397 scan(): 41b 4i w 00ba0001 @10 -> + 00000000 @10
Debug: 2171 343 riscv-013.c:408 scan():  hartsello=186 dmactive -> 
Debug: 2172 343 riscv-013.c:397 scan(): 41b 4i - 00000000 @10 -> + 00ba0001 @10
Debug: 2173 343 riscv-013.c:408 scan():  ->  hartsello=186 dmactive
Debug: 2174 344 riscv-013.c:397 scan(): 41b 4i r 00000000 @11 -> + 00000000 @10
Debug: 2175 344 riscv-013.c:397 scan(): 41b 4i - 00000000 @11 -> + 00003082 @11
Debug: 2176 344 riscv-013.c:408 scan():  ->  allunavail anyunavail authenticated version=2
Debug: 2177 344 riscv-013.c:397 scan(): 41b 4i r 00000000 @10 -> + 00000000 @11
Debug: 2178 345 riscv-013.c:397 scan(): 41b 4i - 00000000 @10 -> + 00ba0001 @10
Debug: 2179 345 riscv-013.c:408 scan():  ->  hartsello=186 dmactive
Debug: 2180 345 riscv-013.c:397 scan(): 41b 4i w 00bb0001 @10 -> + 00000000 @10
Debug: 2181 345 riscv-013.c:408 scan():  hartsello=187 dmactive -> 
Debug: 2182 345 riscv-013.c:397 scan(): 41b 4i - 00000000 @10 -> + 00bb0001 @10
Debug: 2183 345 riscv-013.c:408 scan():  ->  hartsello=187 dmactive
Debug: 2184 345 riscv-013.c:397 scan(): 41b 4i r 00000000 @11 -> + 00000000 @10
Debug: 2185 346 riscv-013.c:397 scan(): 41b 4i - 00000000 @11 -> + 00003082 @11
Debug: 2186 346 riscv-013.c:408 scan():  ->  allunavail anyunavail authenticated version=2
Debug: 2187 346 riscv-013.c:397 scan(): 41b 4i r 00000000 @10 -> + 00000000 @11
Debug: 2188 346 riscv-013.c:397 scan(): 41b 4i - 00000000 @10 -> + 00bb0001 @10
Debug: 2189 346 riscv-013.c:408 scan():  ->  hartsello=187 dmactive
Debug: 2190 346 riscv-013.c:397 scan(): 41b 4i w 00bc0001 @10 -> + 00000000 @10
Debug: 2191 346 riscv-013.c:408 scan():  hartsello=188 dmactive -> 
Debug: 2192 347 riscv-013.c:397 scan(): 41b 4i - 00000000 @10 -> + 00bc0001 @10
Debug: 2193 347 riscv-013.c:408 scan():  ->  hartsello=188 dmactive
Debug: 2194 347 riscv-013.c:397 scan(): 41b 4i r 00000000 @11 -> + 00000000 @10
Debug: 2195 347 riscv-013.c:397 scan(): 41b 4i - 00000000 @11 -> + 00003082 @11
Debug: 2196 347 riscv-013.c:408 scan():  ->  allunavail anyunavail authenticated version=2
Debug: 2197 347 riscv-013.c:397 scan(): 41b 4i r 00000000 @10 -> + 00000000 @11
Debug: 2198 348 riscv-013.c:397 scan(): 41b 4i - 00000000 @10 -> + 00bc0001 @10
Debug: 2199 348 riscv-013.c:408 scan():  ->  hartsello=188 dmactive
Debug: 2200 348 riscv-013.c:397 scan(): 41b 4i w 00bd0001 @10 -> + 00000000 @10
Debug: 2201 348 riscv-013.c:408 scan():  hartsello=189 dmactive -> 
Debug: 2202 348 riscv-013.c:397 scan(): 41b 4i - 00000000 @10 -> + 00bd0001 @10
Debug: 2203 348 riscv-013.c:408 scan():  ->  hartsello=189 dmactive
Debug: 2204 348 riscv-013.c:397 scan(): 41b 4i r 00000000 @11 -> + 00000000 @10
Debug: 2205 348 riscv-013.c:397 scan(): 41b 4i - 00000000 @11 -> + 00003082 @11
Debug: 2206 348 riscv-013.c:408 scan():  ->  allunavail anyunavail authenticated version=2
Debug: 2207 349 riscv-013.c:397 scan(): 41b 4i r 00000000 @10 -> + 00000000 @11
Debug: 2208 349 riscv-013.c:397 scan(): 41b 4i - 00000000 @10 -> + 00bd0001 @10
Debug: 2209 349 riscv-013.c:408 scan():  ->  hartsello=189 dmactive
Debug: 2210 349 riscv-013.c:397 scan(): 41b 4i w 00be0001 @10 -> + 00000000 @10
Debug: 2211 349 riscv-013.c:408 scan():  hartsello=190 dmactive -> 
Debug: 2212 349 riscv-013.c:397 scan(): 41b 4i - 00000000 @10 -> + 00be0001 @10
Debug: 2213 349 riscv-013.c:408 scan():  ->  hartsello=190 dmactive
Debug: 2214 349 riscv-013.c:397 scan(): 41b 4i r 00000000 @11 -> + 00000000 @10
Debug: 2215 350 riscv-013.c:397 scan(): 41b 4i - 00000000 @11 -> + 00003082 @11
Debug: 2216 350 riscv-013.c:408 scan():  ->  allunavail anyunavail authenticated version=2
Debug: 2217 350 riscv-013.c:397 scan(): 41b 4i r 00000000 @10 -> + 00000000 @11
Debug: 2218 350 riscv-013.c:397 scan(): 41b 4i - 00000000 @10 -> + 00be0001 @10
Debug: 2219 350 riscv-013.c:408 scan():  ->  hartsello=190 dmactive
Debug: 2220 351 riscv-013.c:397 scan(): 41b 4i w 00bf0001 @10 -> + 00000000 @10
Debug: 2221 351 riscv-013.c:408 scan():  hartsello=191 dmactive -> 
Debug: 2222 351 riscv-013.c:397 scan(): 41b 4i - 00000000 @10 -> + 00bf0001 @10
Debug: 2223 351 riscv-013.c:408 scan():  ->  hartsello=191 dmactive
Debug: 2224 351 riscv-013.c:397 scan(): 41b 4i r 00000000 @11 -> + 00000000 @10
Debug: 2225 351 riscv-013.c:397 scan(): 41b 4i - 00000000 @11 -> + 00003082 @11
Debug: 2226 351 riscv-013.c:408 scan():  ->  allunavail anyunavail authenticated version=2
Debug: 2227 351 riscv-013.c:397 scan(): 41b 4i r 00000000 @10 -> + 00000000 @11
Debug: 2228 352 riscv-013.c:397 scan(): 41b 4i - 00000000 @10 -> + 00bf0001 @10
Debug: 2229 352 riscv-013.c:408 scan():  ->  hartsello=191 dmactive
Debug: 2230 352 riscv-013.c:397 scan(): 41b 4i w 00c00001 @10 -> + 00000000 @10
Debug: 2231 352 riscv-013.c:408 scan():  hartsello=192 dmactive -> 
Debug: 2232 352 riscv-013.c:397 scan(): 41b 4i - 00000000 @10 -> + 00c00001 @10
Debug: 2233 352 riscv-013.c:408 scan():  ->  hartsello=192 dmactive
Debug: 2234 352 riscv-013.c:397 scan(): 41b 4i r 00000000 @11 -> + 00000000 @10
Debug: 2235 353 riscv-013.c:397 scan(): 41b 4i - 00000000 @11 -> + 00003082 @11
Debug: 2236 353 riscv-013.c:408 scan():  ->  allunavail anyunavail authenticated version=2
Debug: 2237 353 riscv-013.c:397 scan(): 41b 4i r 00000000 @10 -> + 00000000 @11
Debug: 2238 353 riscv-013.c:397 scan(): 41b 4i - 00000000 @10 -> + 00c00001 @10
Debug: 2239 353 riscv-013.c:408 scan():  ->  hartsello=192 dmactive
Debug: 2240 353 riscv-013.c:397 scan(): 41b 4i w 00c10001 @10 -> + 00000000 @10
Debug: 2241 353 riscv-013.c:408 scan():  hartsello=193 dmactive -> 
Debug: 2242 353 riscv-013.c:397 scan(): 41b 4i - 00000000 @10 -> + 00c10001 @10
Debug: 2243 353 riscv-013.c:408 scan():  ->  hartsello=193 dmactive
Debug: 2244 354 riscv-013.c:397 scan(): 41b 4i r 00000000 @11 -> + 00000000 @10
Debug: 2245 354 riscv-013.c:397 scan(): 41b 4i - 00000000 @11 -> + 00003082 @11
Debug: 2246 354 riscv-013.c:408 scan():  ->  allunavail anyunavail authenticated version=2
Debug: 2247 354 riscv-013.c:397 scan(): 41b 4i r 00000000 @10 -> + 00000000 @11
Debug: 2248 354 riscv-013.c:397 scan(): 41b 4i - 00000000 @10 -> + 00c10001 @10
Debug: 2249 354 riscv-013.c:408 scan():  ->  hartsello=193 dmactive
Debug: 2250 354 riscv-013.c:397 scan(): 41b 4i w 00c20001 @10 -> + 00000000 @10
Debug: 2251 354 riscv-013.c:408 scan():  hartsello=194 dmactive -> 
Debug: 2252 355 riscv-013.c:397 scan(): 41b 4i - 00000000 @10 -> + 00c20001 @10
Debug: 2253 355 riscv-013.c:408 scan():  ->  hartsello=194 dmactive
Debug: 2254 355 riscv-013.c:397 scan(): 41b 4i r 00000000 @11 -> + 00000000 @10
Debug: 2255 355 riscv-013.c:397 scan(): 41b 4i - 00000000 @11 -> + 00003082 @11
Debug: 2256 355 riscv-013.c:408 scan():  ->  allunavail anyunavail authenticated version=2
Debug: 2257 355 riscv-013.c:397 scan(): 41b 4i r 00000000 @10 -> + 00000000 @11
Debug: 2258 356 riscv-013.c:397 scan(): 41b 4i - 00000000 @10 -> + 00c20001 @10
Debug: 2259 356 riscv-013.c:408 scan():  ->  hartsello=194 dmactive
Debug: 2260 356 riscv-013.c:397 scan(): 41b 4i w 00c30001 @10 -> + 00000000 @10
Debug: 2261 356 riscv-013.c:408 scan():  hartsello=195 dmactive -> 
Debug: 2262 356 riscv-013.c:397 scan(): 41b 4i - 00000000 @10 -> + 00c30001 @10
Debug: 2263 356 riscv-013.c:408 scan():  ->  hartsello=195 dmactive
Debug: 2264 356 riscv-013.c:397 scan(): 41b 4i r 00000000 @11 -> + 00000000 @10
Debug: 2265 357 riscv-013.c:397 scan(): 41b 4i - 00000000 @11 -> + 00003082 @11
Debug: 2266 357 riscv-013.c:408 scan():  ->  allunavail anyunavail authenticated version=2
Debug: 2267 357 riscv-013.c:397 scan(): 41b 4i r 00000000 @10 -> + 00000000 @11
Debug: 2268 357 riscv-013.c:397 scan(): 41b 4i - 00000000 @10 -> + 00c30001 @10
Debug: 2269 357 riscv-013.c:408 scan():  ->  hartsello=195 dmactive
Debug: 2270 357 riscv-013.c:397 scan(): 41b 4i w 00c40001 @10 -> + 00000000 @10
Debug: 2271 358 riscv-013.c:408 scan():  hartsello=196 dmactive -> 
Debug: 2272 358 riscv-013.c:397 scan(): 41b 4i - 00000000 @10 -> + 00c40001 @10
Debug: 2273 358 riscv-013.c:408 scan():  ->  hartsello=196 dmactive
Debug: 2274 358 riscv-013.c:397 scan(): 41b 4i r 00000000 @11 -> + 00000000 @10
Debug: 2275 358 riscv-013.c:397 scan(): 41b 4i - 00000000 @11 -> + 00003082 @11
Debug: 2276 358 riscv-013.c:408 scan():  ->  allunavail anyunavail authenticated version=2
Debug: 2277 358 riscv-013.c:397 scan(): 41b 4i r 00000000 @10 -> + 00000000 @11
Debug: 2278 359 riscv-013.c:397 scan(): 41b 4i - 00000000 @10 -> + 00c40001 @10
Debug: 2279 359 riscv-013.c:408 scan():  ->  hartsello=196 dmactive
Debug: 2280 359 riscv-013.c:397 scan(): 41b 4i w 00c50001 @10 -> + 00000000 @10
Debug: 2281 359 riscv-013.c:408 scan():  hartsello=197 dmactive -> 
Debug: 2282 359 riscv-013.c:397 scan(): 41b 4i - 00000000 @10 -> + 00c50001 @10
Debug: 2283 359 riscv-013.c:408 scan():  ->  hartsello=197 dmactive
Debug: 2284 360 riscv-013.c:397 scan(): 41b 4i r 00000000 @11 -> + 00000000 @10
Debug: 2285 360 riscv-013.c:397 scan(): 41b 4i - 00000000 @11 -> + 00003082 @11
Debug: 2286 360 riscv-013.c:408 scan():  ->  allunavail anyunavail authenticated version=2
Debug: 2287 360 riscv-013.c:397 scan(): 41b 4i r 00000000 @10 -> + 00000000 @11
Debug: 2288 361 riscv-013.c:397 scan(): 41b 4i - 00000000 @10 -> + 00c50001 @10
Debug: 2289 361 riscv-013.c:408 scan():  ->  hartsello=197 dmactive
Debug: 2290 361 riscv-013.c:397 scan(): 41b 4i w 00c60001 @10 -> + 00000000 @10
Debug: 2291 361 riscv-013.c:408 scan():  hartsello=198 dmactive -> 
Debug: 2292 361 riscv-013.c:397 scan(): 41b 4i - 00000000 @10 -> + 00c60001 @10
Debug: 2293 361 riscv-013.c:408 scan():  ->  hartsello=198 dmactive
Debug: 2294 361 riscv-013.c:397 scan(): 41b 4i r 00000000 @11 -> + 00000000 @10
Debug: 2295 361 riscv-013.c:397 scan(): 41b 4i - 00000000 @11 -> + 00003082 @11
Debug: 2296 362 riscv-013.c:408 scan():  ->  allunavail anyunavail authenticated version=2
Debug: 2297 362 riscv-013.c:397 scan(): 41b 4i r 00000000 @10 -> + 00000000 @11
Debug: 2298 362 riscv-013.c:397 scan(): 41b 4i - 00000000 @10 -> + 00c60001 @10
Debug: 2299 362 riscv-013.c:408 scan():  ->  hartsello=198 dmactive
Debug: 2300 362 riscv-013.c:397 scan(): 41b 4i w 00c70001 @10 -> + 00000000 @10
Debug: 2301 362 riscv-013.c:408 scan():  hartsello=199 dmactive -> 
Debug: 2302 362 riscv-013.c:397 scan(): 41b 4i - 00000000 @10 -> + 00c70001 @10
Debug: 2303 363 riscv-013.c:408 scan():  ->  hartsello=199 dmactive
Debug: 2304 363 riscv-013.c:397 scan(): 41b 4i r 00000000 @11 -> + 00000000 @10
Debug: 2305 363 riscv-013.c:397 scan(): 41b 4i - 00000000 @11 -> + 00003082 @11
Debug: 2306 363 riscv-013.c:408 scan():  ->  allunavail anyunavail authenticated version=2
Debug: 2307 363 riscv-013.c:397 scan(): 41b 4i r 00000000 @10 -> + 00000000 @11
Debug: 2308 364 riscv-013.c:397 scan(): 41b 4i - 00000000 @10 -> + 00c70001 @10
Debug: 2309 364 riscv-013.c:408 scan():  ->  hartsello=199 dmactive
Debug: 2310 364 riscv-013.c:397 scan(): 41b 4i w 00c80001 @10 -> + 00000000 @10
Debug: 2311 364 riscv-013.c:408 scan():  hartsello=200 dmactive -> 
Debug: 2312 364 riscv-013.c:397 scan(): 41b 4i - 00000000 @10 -> + 00c80001 @10
Debug: 2313 364 riscv-013.c:408 scan():  ->  hartsello=200 dmactive
Debug: 2314 365 riscv-013.c:397 scan(): 41b 4i r 00000000 @11 -> + 00000000 @10
Debug: 2315 365 riscv-013.c:397 scan(): 41b 4i - 00000000 @11 -> + 00003082 @11
Debug: 2316 365 riscv-013.c:408 scan():  ->  allunavail anyunavail authenticated version=2
Debug: 2317 365 riscv-013.c:397 scan(): 41b 4i r 00000000 @10 -> + 00000000 @11
Debug: 2318 365 riscv-013.c:397 scan(): 41b 4i - 00000000 @10 -> + 00c80001 @10
Debug: 2319 365 riscv-013.c:408 scan():  ->  hartsello=200 dmactive
Debug: 2320 366 riscv-013.c:397 scan(): 41b 4i w 00c90001 @10 -> + 00000000 @10
Debug: 2321 366 riscv-013.c:408 scan():  hartsello=201 dmactive -> 
Debug: 2322 366 riscv-013.c:397 scan(): 41b 4i - 00000000 @10 -> + 00c90001 @10
Debug: 2323 366 riscv-013.c:408 scan():  ->  hartsello=201 dmactive
Debug: 2324 366 riscv-013.c:397 scan(): 41b 4i r 00000000 @11 -> + 00000000 @10
Debug: 2325 366 riscv-013.c:397 scan(): 41b 4i - 00000000 @11 -> + 00003082 @11
Debug: 2326 366 riscv-013.c:408 scan():  ->  allunavail anyunavail authenticated version=2
Debug: 2327 367 riscv-013.c:397 scan(): 41b 4i r 00000000 @10 -> + 00000000 @11
Debug: 2328 367 riscv-013.c:397 scan(): 41b 4i - 00000000 @10 -> + 00c90001 @10
Debug: 2329 367 riscv-013.c:408 scan():  ->  hartsello=201 dmactive
Debug: 2330 367 riscv-013.c:397 scan(): 41b 4i w 00ca0001 @10 -> + 00000000 @10
Debug: 2331 367 riscv-013.c:408 scan():  hartsello=202 dmactive -> 
Debug: 2332 367 riscv-013.c:397 scan(): 41b 4i - 00000000 @10 -> + 00ca0001 @10
Debug: 2333 367 riscv-013.c:408 scan():  ->  hartsello=202 dmactive
Debug: 2334 368 riscv-013.c:397 scan(): 41b 4i r 00000000 @11 -> + 00000000 @10
Debug: 2335 368 riscv-013.c:397 scan(): 41b 4i - 00000000 @11 -> + 00003082 @11
Debug: 2336 368 riscv-013.c:408 scan():  ->  allunavail anyunavail authenticated version=2
Debug: 2337 368 riscv-013.c:397 scan(): 41b 4i r 00000000 @10 -> + 00000000 @11
Debug: 2338 368 riscv-013.c:397 scan(): 41b 4i - 00000000 @10 -> + 00ca0001 @10
Debug: 2339 368 riscv-013.c:408 scan():  ->  hartsello=202 dmactive
Debug: 2340 368 riscv-013.c:397 scan(): 41b 4i w 00cb0001 @10 -> + 00000000 @10
Debug: 2341 368 riscv-013.c:408 scan():  hartsello=203 dmactive -> 
Debug: 2342 369 riscv-013.c:397 scan(): 41b 4i - 00000000 @10 -> + 00cb0001 @10
Debug: 2343 369 riscv-013.c:408 scan():  ->  hartsello=203 dmactive
Debug: 2344 369 riscv-013.c:397 scan(): 41b 4i r 00000000 @11 -> + 00000000 @10
Debug: 2345 369 riscv-013.c:397 scan(): 41b 4i - 00000000 @11 -> + 00003082 @11
Debug: 2346 369 riscv-013.c:408 scan():  ->  allunavail anyunavail authenticated version=2
Debug: 2347 369 riscv-013.c:397 scan(): 41b 4i r 00000000 @10 -> + 00000000 @11
Debug: 2348 369 riscv-013.c:397 scan(): 41b 4i - 00000000 @10 -> + 00cb0001 @10
Debug: 2349 370 riscv-013.c:408 scan():  ->  hartsello=203 dmactive
Debug: 2350 370 riscv-013.c:397 scan(): 41b 4i w 00cc0001 @10 -> + 00000000 @10
Debug: 2351 370 riscv-013.c:408 scan():  hartsello=204 dmactive -> 
Debug: 2352 370 riscv-013.c:397 scan(): 41b 4i - 00000000 @10 -> + 00cc0001 @10
Debug: 2353 370 riscv-013.c:408 scan():  ->  hartsello=204 dmactive
Debug: 2354 370 riscv-013.c:397 scan(): 41b 4i r 00000000 @11 -> + 00000000 @10
Debug: 2355 370 riscv-013.c:397 scan(): 41b 4i - 00000000 @11 -> + 00003082 @11
Debug: 2356 370 riscv-013.c:408 scan():  ->  allunavail anyunavail authenticated version=2
Debug: 2357 371 riscv-013.c:397 scan(): 41b 4i r 00000000 @10 -> + 00000000 @11
Debug: 2358 371 riscv-013.c:397 scan(): 41b 4i - 00000000 @10 -> + 00cc0001 @10
Debug: 2359 371 riscv-013.c:408 scan():  ->  hartsello=204 dmactive
Debug: 2360 371 riscv-013.c:397 scan(): 41b 4i w 00cd0001 @10 -> + 00000000 @10
Debug: 2361 371 riscv-013.c:408 scan():  hartsello=205 dmactive -> 
Debug: 2362 372 riscv-013.c:397 scan(): 41b 4i - 00000000 @10 -> + 00cd0001 @10
Debug: 2363 372 riscv-013.c:408 scan():  ->  hartsello=205 dmactive
Debug: 2364 372 riscv-013.c:397 scan(): 41b 4i r 00000000 @11 -> + 00000000 @10
Debug: 2365 372 riscv-013.c:397 scan(): 41b 4i - 00000000 @11 -> + 00003082 @11
Debug: 2366 372 riscv-013.c:408 scan():  ->  allunavail anyunavail authenticated version=2
Debug: 2367 373 riscv-013.c:397 scan(): 41b 4i r 00000000 @10 -> + 00000000 @11
Debug: 2368 373 riscv-013.c:397 scan(): 41b 4i - 00000000 @10 -> + 00cd0001 @10
Debug: 2369 373 riscv-013.c:408 scan():  ->  hartsello=205 dmactive
Debug: 2370 373 riscv-013.c:397 scan(): 41b 4i w 00ce0001 @10 -> + 00000000 @10
Debug: 2371 373 riscv-013.c:408 scan():  hartsello=206 dmactive -> 
Debug: 2372 373 riscv-013.c:397 scan(): 41b 4i - 00000000 @10 -> + 00ce0001 @10
Debug: 2373 373 riscv-013.c:408 scan():  ->  hartsello=206 dmactive
Debug: 2374 374 riscv-013.c:397 scan(): 41b 4i r 00000000 @11 -> + 00000000 @10
Debug: 2375 374 riscv-013.c:397 scan(): 41b 4i - 00000000 @11 -> + 00003082 @11
Debug: 2376 374 riscv-013.c:408 scan():  ->  allunavail anyunavail authenticated version=2
Debug: 2377 374 riscv-013.c:397 scan(): 41b 4i r 00000000 @10 -> + 00000000 @11
Debug: 2378 374 riscv-013.c:397 scan(): 41b 4i - 00000000 @10 -> + 00ce0001 @10
Debug: 2379 375 riscv-013.c:408 scan():  ->  hartsello=206 dmactive
Debug: 2380 375 riscv-013.c:397 scan(): 41b 4i w 00cf0001 @10 -> + 00000000 @10
Debug: 2381 375 riscv-013.c:408 scan():  hartsello=207 dmactive -> 
Debug: 2382 375 riscv-013.c:397 scan(): 41b 4i - 00000000 @10 -> + 00cf0001 @10
Debug: 2383 375 riscv-013.c:408 scan():  ->  hartsello=207 dmactive
Debug: 2384 375 riscv-013.c:397 scan(): 41b 4i r 00000000 @11 -> + 00000000 @10
Debug: 2385 376 riscv-013.c:397 scan(): 41b 4i - 00000000 @11 -> + 00003082 @11
Debug: 2386 376 riscv-013.c:408 scan():  ->  allunavail anyunavail authenticated version=2
Debug: 2387 376 riscv-013.c:397 scan(): 41b 4i r 00000000 @10 -> + 00000000 @11
Debug: 2388 376 riscv-013.c:397 scan(): 41b 4i - 00000000 @10 -> + 00cf0001 @10
Debug: 2389 376 riscv-013.c:408 scan():  ->  hartsello=207 dmactive
Debug: 2390 376 riscv-013.c:397 scan(): 41b 4i w 00d00001 @10 -> + 00000000 @10
Debug: 2391 376 riscv-013.c:408 scan():  hartsello=208 dmactive -> 
Debug: 2392 376 riscv-013.c:397 scan(): 41b 4i - 00000000 @10 -> + 00d00001 @10
Debug: 2393 377 riscv-013.c:408 scan():  ->  hartsello=208 dmactive
Debug: 2394 377 riscv-013.c:397 scan(): 41b 4i r 00000000 @11 -> + 00000000 @10
Debug: 2395 377 riscv-013.c:397 scan(): 41b 4i - 00000000 @11 -> + 00003082 @11
Debug: 2396 377 riscv-013.c:408 scan():  ->  allunavail anyunavail authenticated version=2
Debug: 2397 377 riscv-013.c:397 scan(): 41b 4i r 00000000 @10 -> + 00000000 @11
Debug: 2398 377 riscv-013.c:397 scan(): 41b 4i - 00000000 @10 -> + 00d00001 @10
Debug: 2399 377 riscv-013.c:408 scan():  ->  hartsello=208 dmactive
Debug: 2400 378 riscv-013.c:397 scan(): 41b 4i w 00d10001 @10 -> + 00000000 @10
Debug: 2401 378 riscv-013.c:408 scan():  hartsello=209 dmactive -> 
Debug: 2402 378 riscv-013.c:397 scan(): 41b 4i - 00000000 @10 -> + 00d10001 @10
Debug: 2403 378 riscv-013.c:408 scan():  ->  hartsello=209 dmactive
Debug: 2404 378 riscv-013.c:397 scan(): 41b 4i r 00000000 @11 -> + 00000000 @10
Debug: 2405 379 riscv-013.c:397 scan(): 41b 4i - 00000000 @11 -> + 00003082 @11
Debug: 2406 379 riscv-013.c:408 scan():  ->  allunavail anyunavail authenticated version=2
Debug: 2407 379 riscv-013.c:397 scan(): 41b 4i r 00000000 @10 -> + 00000000 @11
Debug: 2408 379 riscv-013.c:397 scan(): 41b 4i - 00000000 @10 -> + 00d10001 @10
Debug: 2409 379 riscv-013.c:408 scan():  ->  hartsello=209 dmactive
Debug: 2410 379 riscv-013.c:397 scan(): 41b 4i w 00d20001 @10 -> + 00000000 @10
Debug: 2411 380 riscv-013.c:408 scan():  hartsello=210 dmactive -> 
Debug: 2412 380 riscv-013.c:397 scan(): 41b 4i - 00000000 @10 -> + 00d20001 @10
Debug: 2413 380 riscv-013.c:408 scan():  ->  hartsello=210 dmactive
Debug: 2414 380 riscv-013.c:397 scan(): 41b 4i r 00000000 @11 -> + 00000000 @10
Debug: 2415 381 riscv-013.c:397 scan(): 41b 4i - 00000000 @11 -> + 00003082 @11
Debug: 2416 381 riscv-013.c:408 scan():  ->  allunavail anyunavail authenticated version=2
Debug: 2417 381 riscv-013.c:397 scan(): 41b 4i r 00000000 @10 -> + 00000000 @11
Debug: 2418 381 riscv-013.c:397 scan(): 41b 4i - 00000000 @10 -> + 00d20001 @10
Debug: 2419 381 riscv-013.c:408 scan():  ->  hartsello=210 dmactive
Debug: 2420 381 riscv-013.c:397 scan(): 41b 4i w 00d30001 @10 -> + 00000000 @10
Debug: 2421 381 riscv-013.c:408 scan():  hartsello=211 dmactive -> 
Debug: 2422 381 riscv-013.c:397 scan(): 41b 4i - 00000000 @10 -> + 00d30001 @10
Debug: 2423 382 riscv-013.c:408 scan():  ->  hartsello=211 dmactive
Debug: 2424 382 riscv-013.c:397 scan(): 41b 4i r 00000000 @11 -> + 00000000 @10
Debug: 2425 382 riscv-013.c:397 scan(): 41b 4i - 00000000 @11 -> + 00003082 @11
Debug: 2426 382 riscv-013.c:408 scan():  ->  allunavail anyunavail authenticated version=2
Debug: 2427 382 riscv-013.c:397 scan(): 41b 4i r 00000000 @10 -> + 00000000 @11
Debug: 2428 382 riscv-013.c:397 scan(): 41b 4i - 00000000 @10 -> + 00d30001 @10
Debug: 2429 382 riscv-013.c:408 scan():  ->  hartsello=211 dmactive
Debug: 2430 383 riscv-013.c:397 scan(): 41b 4i w 00d40001 @10 -> + 00000000 @10
Debug: 2431 383 riscv-013.c:408 scan():  hartsello=212 dmactive -> 
Debug: 2432 383 riscv-013.c:397 scan(): 41b 4i - 00000000 @10 -> + 00d40001 @10
Debug: 2433 383 riscv-013.c:408 scan():  ->  hartsello=212 dmactive
Debug: 2434 383 riscv-013.c:397 scan(): 41b 4i r 00000000 @11 -> + 00000000 @10
Debug: 2435 383 riscv-013.c:397 scan(): 41b 4i - 00000000 @11 -> + 00003082 @11
Debug: 2436 383 riscv-013.c:408 scan():  ->  allunavail anyunavail authenticated version=2
Debug: 2437 384 riscv-013.c:397 scan(): 41b 4i r 00000000 @10 -> + 00000000 @11
Debug: 2438 384 riscv-013.c:397 scan(): 41b 4i - 00000000 @10 -> + 00d40001 @10
Debug: 2439 384 riscv-013.c:408 scan():  ->  hartsello=212 dmactive
Debug: 2440 384 riscv-013.c:397 scan(): 41b 4i w 00d50001 @10 -> + 00000000 @10
Debug: 2441 384 riscv-013.c:408 scan():  hartsello=213 dmactive -> 
Debug: 2442 384 riscv-013.c:397 scan(): 41b 4i - 00000000 @10 -> + 00d50001 @10
Debug: 2443 384 riscv-013.c:408 scan():  ->  hartsello=213 dmactive
Debug: 2444 385 riscv-013.c:397 scan(): 41b 4i r 00000000 @11 -> + 00000000 @10
Debug: 2445 385 riscv-013.c:397 scan(): 41b 4i - 00000000 @11 -> + 00003082 @11
Debug: 2446 385 riscv-013.c:408 scan():  ->  allunavail anyunavail authenticated version=2
Debug: 2447 385 riscv-013.c:397 scan(): 41b 4i r 00000000 @10 -> + 00000000 @11
Debug: 2448 386 riscv-013.c:397 scan(): 41b 4i - 00000000 @10 -> + 00d50001 @10
Debug: 2449 386 riscv-013.c:408 scan():  ->  hartsello=213 dmactive
Debug: 2450 386 riscv-013.c:397 scan(): 41b 4i w 00d60001 @10 -> + 00000000 @10
Debug: 2451 386 riscv-013.c:408 scan():  hartsello=214 dmactive -> 
Debug: 2452 386 riscv-013.c:397 scan(): 41b 4i - 00000000 @10 -> + 00d60001 @10
Debug: 2453 386 riscv-013.c:408 scan():  ->  hartsello=214 dmactive
Debug: 2454 386 riscv-013.c:397 scan(): 41b 4i r 00000000 @11 -> + 00000000 @10
Debug: 2455 387 riscv-013.c:397 scan(): 41b 4i - 00000000 @11 -> + 00003082 @11
Debug: 2456 387 riscv-013.c:408 scan():  ->  allunavail anyunavail authenticated version=2
Debug: 2457 387 riscv-013.c:397 scan(): 41b 4i r 00000000 @10 -> + 00000000 @11
Debug: 2458 387 riscv-013.c:397 scan(): 41b 4i - 00000000 @10 -> + 00d60001 @10
Debug: 2459 387 riscv-013.c:408 scan():  ->  hartsello=214 dmactive
Debug: 2460 388 riscv-013.c:397 scan(): 41b 4i w 00d70001 @10 -> + 00000000 @10
Debug: 2461 388 riscv-013.c:408 scan():  hartsello=215 dmactive -> 
Debug: 2462 388 riscv-013.c:397 scan(): 41b 4i - 00000000 @10 -> + 00d70001 @10
Debug: 2463 388 riscv-013.c:408 scan():  ->  hartsello=215 dmactive
Debug: 2464 388 riscv-013.c:397 scan(): 41b 4i r 00000000 @11 -> + 00000000 @10
Debug: 2465 388 riscv-013.c:397 scan(): 41b 4i - 00000000 @11 -> + 00003082 @11
Debug: 2466 388 riscv-013.c:408 scan():  ->  allunavail anyunavail authenticated version=2
Debug: 2467 389 riscv-013.c:397 scan(): 41b 4i r 00000000 @10 -> + 00000000 @11
Debug: 2468 389 riscv-013.c:397 scan(): 41b 4i - 00000000 @10 -> + 00d70001 @10
Debug: 2469 389 riscv-013.c:408 scan():  ->  hartsello=215 dmactive
Debug: 2470 389 riscv-013.c:397 scan(): 41b 4i w 00d80001 @10 -> + 00000000 @10
Debug: 2471 389 riscv-013.c:408 scan():  hartsello=216 dmactive -> 
Debug: 2472 389 riscv-013.c:397 scan(): 41b 4i - 00000000 @10 -> + 00d80001 @10
Debug: 2473 389 riscv-013.c:408 scan():  ->  hartsello=216 dmactive
Debug: 2474 389 riscv-013.c:397 scan(): 41b 4i r 00000000 @11 -> + 00000000 @10
Debug: 2475 390 riscv-013.c:397 scan(): 41b 4i - 00000000 @11 -> + 00003082 @11
Debug: 2476 390 riscv-013.c:408 scan():  ->  allunavail anyunavail authenticated version=2
Debug: 2477 390 riscv-013.c:397 scan(): 41b 4i r 00000000 @10 -> + 00000000 @11
Debug: 2478 390 riscv-013.c:397 scan(): 41b 4i - 00000000 @10 -> + 00d80001 @10
Debug: 2479 390 riscv-013.c:408 scan():  ->  hartsello=216 dmactive
Debug: 2480 390 riscv-013.c:397 scan(): 41b 4i w 00d90001 @10 -> + 00000000 @10
Debug: 2481 390 riscv-013.c:408 scan():  hartsello=217 dmactive -> 
Debug: 2482 391 riscv-013.c:397 scan(): 41b 4i - 00000000 @10 -> + 00d90001 @10
Debug: 2483 391 riscv-013.c:408 scan():  ->  hartsello=217 dmactive
Debug: 2484 391 riscv-013.c:397 scan(): 41b 4i r 00000000 @11 -> + 00000000 @10
Debug: 2485 391 riscv-013.c:397 scan(): 41b 4i - 00000000 @11 -> + 00003082 @11
Debug: 2486 391 riscv-013.c:408 scan():  ->  allunavail anyunavail authenticated version=2
Debug: 2487 391 riscv-013.c:397 scan(): 41b 4i r 00000000 @10 -> + 00000000 @11
Debug: 2488 392 riscv-013.c:397 scan(): 41b 4i - 00000000 @10 -> + 00d90001 @10
Debug: 2489 392 riscv-013.c:408 scan():  ->  hartsello=217 dmactive
Debug: 2490 392 riscv-013.c:397 scan(): 41b 4i w 00da0001 @10 -> + 00000000 @10
Debug: 2491 392 riscv-013.c:408 scan():  hartsello=218 dmactive -> 
Debug: 2492 392 riscv-013.c:397 scan(): 41b 4i - 00000000 @10 -> + 00da0001 @10
Debug: 2493 392 riscv-013.c:408 scan():  ->  hartsello=218 dmactive
Debug: 2494 392 riscv-013.c:397 scan(): 41b 4i r 00000000 @11 -> + 00000000 @10
Debug: 2495 393 riscv-013.c:397 scan(): 41b 4i - 00000000 @11 -> + 00003082 @11
Debug: 2496 393 riscv-013.c:408 scan():  ->  allunavail anyunavail authenticated version=2
Debug: 2497 393 riscv-013.c:397 scan(): 41b 4i r 00000000 @10 -> + 00000000 @11
Debug: 2498 393 riscv-013.c:397 scan(): 41b 4i - 00000000 @10 -> + 00da0001 @10
Debug: 2499 393 riscv-013.c:408 scan():  ->  hartsello=218 dmactive
Debug: 2500 394 riscv-013.c:397 scan(): 41b 4i w 00db0001 @10 -> + 00000000 @10
Debug: 2501 394 riscv-013.c:408 scan():  hartsello=219 dmactive -> 
Debug: 2502 394 riscv-013.c:397 scan(): 41b 4i - 00000000 @10 -> + 00db0001 @10
Debug: 2503 394 riscv-013.c:408 scan():  ->  hartsello=219 dmactive
Debug: 2504 394 riscv-013.c:397 scan(): 41b 4i r 00000000 @11 -> + 00000000 @10
Debug: 2505 394 riscv-013.c:397 scan(): 41b 4i - 00000000 @11 -> + 00003082 @11
Debug: 2506 394 riscv-013.c:408 scan():  ->  allunavail anyunavail authenticated version=2
Debug: 2507 394 riscv-013.c:397 scan(): 41b 4i r 00000000 @10 -> + 00000000 @11
Debug: 2508 395 riscv-013.c:397 scan(): 41b 4i - 00000000 @10 -> + 00db0001 @10
Debug: 2509 395 riscv-013.c:408 scan():  ->  hartsello=219 dmactive
Debug: 2510 395 riscv-013.c:397 scan(): 41b 4i w 00dc0001 @10 -> + 00000000 @10
Debug: 2511 395 riscv-013.c:408 scan():  hartsello=220 dmactive -> 
Debug: 2512 395 riscv-013.c:397 scan(): 41b 4i - 00000000 @10 -> + 00dc0001 @10
Debug: 2513 395 riscv-013.c:408 scan():  ->  hartsello=220 dmactive
Debug: 2514 395 riscv-013.c:397 scan(): 41b 4i r 00000000 @11 -> + 00000000 @10
Debug: 2515 396 riscv-013.c:397 scan(): 41b 4i - 00000000 @11 -> + 00003082 @11
Debug: 2516 396 riscv-013.c:408 scan():  ->  allunavail anyunavail authenticated version=2
Debug: 2517 396 riscv-013.c:397 scan(): 41b 4i r 00000000 @10 -> + 00000000 @11
Debug: 2518 396 riscv-013.c:397 scan(): 41b 4i - 00000000 @10 -> + 00dc0001 @10
Debug: 2519 396 riscv-013.c:408 scan():  ->  hartsello=220 dmactive
Debug: 2520 396 riscv-013.c:397 scan(): 41b 4i w 00dd0001 @10 -> + 00000000 @10
Debug: 2521 396 riscv-013.c:408 scan():  hartsello=221 dmactive -> 
Debug: 2522 396 riscv-013.c:397 scan(): 41b 4i - 00000000 @10 -> + 00dd0001 @10
Debug: 2523 396 riscv-013.c:408 scan():  ->  hartsello=221 dmactive
Debug: 2524 397 riscv-013.c:397 scan(): 41b 4i r 00000000 @11 -> + 00000000 @10
Debug: 2525 397 riscv-013.c:397 scan(): 41b 4i - 00000000 @11 -> + 00003082 @11
Debug: 2526 397 riscv-013.c:408 scan():  ->  allunavail anyunavail authenticated version=2
Debug: 2527 397 riscv-013.c:397 scan(): 41b 4i r 00000000 @10 -> + 00000000 @11
Debug: 2528 397 riscv-013.c:397 scan(): 41b 4i - 00000000 @10 -> + 00dd0001 @10
Debug: 2529 397 riscv-013.c:408 scan():  ->  hartsello=221 dmactive
Debug: 2530 397 riscv-013.c:397 scan(): 41b 4i w 00de0001 @10 -> + 00000000 @10
Debug: 2531 397 riscv-013.c:408 scan():  hartsello=222 dmactive -> 
Debug: 2532 397 riscv-013.c:397 scan(): 41b 4i - 00000000 @10 -> + 00de0001 @10
Debug: 2533 397 riscv-013.c:408 scan():  ->  hartsello=222 dmactive
Debug: 2534 398 riscv-013.c:397 scan(): 41b 4i r 00000000 @11 -> + 00000000 @10
Debug: 2535 398 riscv-013.c:397 scan(): 41b 4i - 00000000 @11 -> + 00003082 @11
Debug: 2536 398 riscv-013.c:408 scan():  ->  allunavail anyunavail authenticated version=2
Debug: 2537 398 riscv-013.c:397 scan(): 41b 4i r 00000000 @10 -> + 00000000 @11
Debug: 2538 398 riscv-013.c:397 scan(): 41b 4i - 00000000 @10 -> + 00de0001 @10
Debug: 2539 398 riscv-013.c:408 scan():  ->  hartsello=222 dmactive
Debug: 2540 398 riscv-013.c:397 scan(): 41b 4i w 00df0001 @10 -> + 00000000 @10
Debug: 2541 398 riscv-013.c:408 scan():  hartsello=223 dmactive -> 
Debug: 2542 399 riscv-013.c:397 scan(): 41b 4i - 00000000 @10 -> + 00df0001 @10
Debug: 2543 399 riscv-013.c:408 scan():  ->  hartsello=223 dmactive
Debug: 2544 399 riscv-013.c:397 scan(): 41b 4i r 00000000 @11 -> + 00000000 @10
Debug: 2545 399 riscv-013.c:397 scan(): 41b 4i - 00000000 @11 -> + 00003082 @11
Debug: 2546 399 riscv-013.c:408 scan():  ->  allunavail anyunavail authenticated version=2
Debug: 2547 399 riscv-013.c:397 scan(): 41b 4i r 00000000 @10 -> + 00000000 @11
Debug: 2548 400 riscv-013.c:397 scan(): 41b 4i - 00000000 @10 -> + 00df0001 @10
Debug: 2549 400 riscv-013.c:408 scan():  ->  hartsello=223 dmactive
Debug: 2550 400 riscv-013.c:397 scan(): 41b 4i w 00e00001 @10 -> + 00000000 @10
Debug: 2551 400 riscv-013.c:408 scan():  hartsello=224 dmactive -> 
Debug: 2552 400 riscv-013.c:397 scan(): 41b 4i - 00000000 @10 -> + 00e00001 @10
Debug: 2553 400 riscv-013.c:408 scan():  ->  hartsello=224 dmactive
Debug: 2554 401 riscv-013.c:397 scan(): 41b 4i r 00000000 @11 -> + 00000000 @10
Debug: 2555 401 riscv-013.c:397 scan(): 41b 4i - 00000000 @11 -> + 00003082 @11
Debug: 2556 401 riscv-013.c:408 scan():  ->  allunavail anyunavail authenticated version=2
Debug: 2557 401 riscv-013.c:397 scan(): 41b 4i r 00000000 @10 -> + 00000000 @11
Debug: 2558 401 riscv-013.c:397 scan(): 41b 4i - 00000000 @10 -> + 00e00001 @10
Debug: 2559 401 riscv-013.c:408 scan():  ->  hartsello=224 dmactive
Debug: 2560 402 riscv-013.c:397 scan(): 41b 4i w 00e10001 @10 -> + 00000000 @10
Debug: 2561 402 riscv-013.c:408 scan():  hartsello=225 dmactive -> 
Debug: 2562 402 riscv-013.c:397 scan(): 41b 4i - 00000000 @10 -> + 00e10001 @10
Debug: 2563 402 riscv-013.c:408 scan():  ->  hartsello=225 dmactive
Debug: 2564 402 riscv-013.c:397 scan(): 41b 4i r 00000000 @11 -> + 00000000 @10
Debug: 2565 402 riscv-013.c:397 scan(): 41b 4i - 00000000 @11 -> + 00003082 @11
Debug: 2566 402 riscv-013.c:408 scan():  ->  allunavail anyunavail authenticated version=2
Debug: 2567 403 riscv-013.c:397 scan(): 41b 4i r 00000000 @10 -> + 00000000 @11
Debug: 2568 403 riscv-013.c:397 scan(): 41b 4i - 00000000 @10 -> + 00e10001 @10
Debug: 2569 403 riscv-013.c:408 scan():  ->  hartsello=225 dmactive
Debug: 2570 403 riscv-013.c:397 scan(): 41b 4i w 00e20001 @10 -> + 00000000 @10
Debug: 2571 403 riscv-013.c:408 scan():  hartsello=226 dmactive -> 
Debug: 2572 403 riscv-013.c:397 scan(): 41b 4i - 00000000 @10 -> + 00e20001 @10
Debug: 2573 403 riscv-013.c:408 scan():  ->  hartsello=226 dmactive
Debug: 2574 404 riscv-013.c:397 scan(): 41b 4i r 00000000 @11 -> + 00000000 @10
Debug: 2575 404 riscv-013.c:397 scan(): 41b 4i - 00000000 @11 -> + 00003082 @11
Debug: 2576 404 riscv-013.c:408 scan():  ->  allunavail anyunavail authenticated version=2
Debug: 2577 404 riscv-013.c:397 scan(): 41b 4i r 00000000 @10 -> + 00000000 @11
Debug: 2578 404 riscv-013.c:397 scan(): 41b 4i - 00000000 @10 -> + 00e20001 @10
Debug: 2579 404 riscv-013.c:408 scan():  ->  hartsello=226 dmactive
Debug: 2580 405 riscv-013.c:397 scan(): 41b 4i w 00e30001 @10 -> + 00000000 @10
Debug: 2581 405 riscv-013.c:408 scan():  hartsello=227 dmactive -> 
Debug: 2582 405 riscv-013.c:397 scan(): 41b 4i - 00000000 @10 -> + 00e30001 @10
Debug: 2583 405 riscv-013.c:408 scan():  ->  hartsello=227 dmactive
Debug: 2584 405 riscv-013.c:397 scan(): 41b 4i r 00000000 @11 -> + 00000000 @10
Debug: 2585 405 riscv-013.c:397 scan(): 41b 4i - 00000000 @11 -> + 00003082 @11
Debug: 2586 405 riscv-013.c:408 scan():  ->  allunavail anyunavail authenticated version=2
Debug: 2587 406 riscv-013.c:397 scan(): 41b 4i r 00000000 @10 -> + 00000000 @11
Debug: 2588 406 riscv-013.c:397 scan(): 41b 4i - 00000000 @10 -> + 00e30001 @10
Debug: 2589 406 riscv-013.c:408 scan():  ->  hartsello=227 dmactive
Debug: 2590 406 riscv-013.c:397 scan(): 41b 4i w 00e40001 @10 -> + 00000000 @10
Debug: 2591 406 riscv-013.c:408 scan():  hartsello=228 dmactive -> 
Debug: 2592 407 riscv-013.c:397 scan(): 41b 4i - 00000000 @10 -> + 00e40001 @10
Debug: 2593 407 riscv-013.c:408 scan():  ->  hartsello=228 dmactive
Debug: 2594 407 riscv-013.c:397 scan(): 41b 4i r 00000000 @11 -> + 00000000 @10
Debug: 2595 407 riscv-013.c:397 scan(): 41b 4i - 00000000 @11 -> + 00003082 @11
Debug: 2596 407 riscv-013.c:408 scan():  ->  allunavail anyunavail authenticated version=2
Debug: 2597 408 riscv-013.c:397 scan(): 41b 4i r 00000000 @10 -> + 00000000 @11
Debug: 2598 408 riscv-013.c:397 scan(): 41b 4i - 00000000 @10 -> + 00e40001 @10
Debug: 2599 408 riscv-013.c:408 scan():  ->  hartsello=228 dmactive
Debug: 2600 408 riscv-013.c:397 scan(): 41b 4i w 00e50001 @10 -> + 00000000 @10
Debug: 2601 408 riscv-013.c:408 scan():  hartsello=229 dmactive -> 
Debug: 2602 408 riscv-013.c:397 scan(): 41b 4i - 00000000 @10 -> + 00e50001 @10
Debug: 2603 408 riscv-013.c:408 scan():  ->  hartsello=229 dmactive
Debug: 2604 408 riscv-013.c:397 scan(): 41b 4i r 00000000 @11 -> + 00000000 @10
Debug: 2605 409 riscv-013.c:397 scan(): 41b 4i - 00000000 @11 -> + 00003082 @11
Debug: 2606 409 riscv-013.c:408 scan():  ->  allunavail anyunavail authenticated version=2
Debug: 2607 409 riscv-013.c:397 scan(): 41b 4i r 00000000 @10 -> + 00000000 @11
Debug: 2608 409 riscv-013.c:397 scan(): 41b 4i - 00000000 @10 -> + 00e50001 @10
Debug: 2609 409 riscv-013.c:408 scan():  ->  hartsello=229 dmactive
Debug: 2610 409 riscv-013.c:397 scan(): 41b 4i w 00e60001 @10 -> + 00000000 @10
Debug: 2611 410 riscv-013.c:408 scan():  hartsello=230 dmactive -> 
Debug: 2612 410 riscv-013.c:397 scan(): 41b 4i - 00000000 @10 -> + 00e60001 @10
Debug: 2613 410 riscv-013.c:408 scan():  ->  hartsello=230 dmactive
Debug: 2614 410 riscv-013.c:397 scan(): 41b 4i r 00000000 @11 -> + 00000000 @10
Debug: 2615 410 riscv-013.c:397 scan(): 41b 4i - 00000000 @11 -> + 00003082 @11
Debug: 2616 410 riscv-013.c:408 scan():  ->  allunavail anyunavail authenticated version=2
Debug: 2617 410 riscv-013.c:397 scan(): 41b 4i r 00000000 @10 -> + 00000000 @11
Debug: 2618 411 riscv-013.c:397 scan(): 41b 4i - 00000000 @10 -> + 00e60001 @10
Debug: 2619 411 riscv-013.c:408 scan():  ->  hartsello=230 dmactive
Debug: 2620 411 riscv-013.c:397 scan(): 41b 4i w 00e70001 @10 -> + 00000000 @10
Debug: 2621 411 riscv-013.c:408 scan():  hartsello=231 dmactive -> 
Debug: 2622 411 riscv-013.c:397 scan(): 41b 4i - 00000000 @10 -> + 00e70001 @10
Debug: 2623 411 riscv-013.c:408 scan():  ->  hartsello=231 dmactive
Debug: 2624 411 riscv-013.c:397 scan(): 41b 4i r 00000000 @11 -> + 00000000 @10
Debug: 2625 412 riscv-013.c:397 scan(): 41b 4i - 00000000 @11 -> + 00003082 @11
Debug: 2626 412 riscv-013.c:408 scan():  ->  allunavail anyunavail authenticated version=2
Debug: 2627 412 riscv-013.c:397 scan(): 41b 4i r 00000000 @10 -> + 00000000 @11
Debug: 2628 412 riscv-013.c:397 scan(): 41b 4i - 00000000 @10 -> + 00e70001 @10
Debug: 2629 412 riscv-013.c:408 scan():  ->  hartsello=231 dmactive
Debug: 2630 413 riscv-013.c:397 scan(): 41b 4i w 00e80001 @10 -> + 00000000 @10
Debug: 2631 413 riscv-013.c:408 scan():  hartsello=232 dmactive -> 
Debug: 2632 413 riscv-013.c:397 scan(): 41b 4i - 00000000 @10 -> + 00e80001 @10
Debug: 2633 413 riscv-013.c:408 scan():  ->  hartsello=232 dmactive
Debug: 2634 413 riscv-013.c:397 scan(): 41b 4i r 00000000 @11 -> + 00000000 @10
Debug: 2635 413 riscv-013.c:397 scan(): 41b 4i - 00000000 @11 -> + 00003082 @11
Debug: 2636 414 riscv-013.c:408 scan():  ->  allunavail anyunavail authenticated version=2
Debug: 2637 414 riscv-013.c:397 scan(): 41b 4i r 00000000 @10 -> + 00000000 @11
Debug: 2638 414 riscv-013.c:397 scan(): 41b 4i - 00000000 @10 -> + 00e80001 @10
Debug: 2639 414 riscv-013.c:408 scan():  ->  hartsello=232 dmactive
Debug: 2640 414 riscv-013.c:397 scan(): 41b 4i w 00e90001 @10 -> + 00000000 @10
Debug: 2641 414 riscv-013.c:408 scan():  hartsello=233 dmactive -> 
Debug: 2642 414 riscv-013.c:397 scan(): 41b 4i - 00000000 @10 -> + 00e90001 @10
Debug: 2643 415 riscv-013.c:408 scan():  ->  hartsello=233 dmactive
Debug: 2644 415 riscv-013.c:397 scan(): 41b 4i r 00000000 @11 -> + 00000000 @10
Debug: 2645 415 riscv-013.c:397 scan(): 41b 4i - 00000000 @11 -> + 00003082 @11
Debug: 2646 415 riscv-013.c:408 scan():  ->  allunavail anyunavail authenticated version=2
Debug: 2647 415 riscv-013.c:397 scan(): 41b 4i r 00000000 @10 -> + 00000000 @11
Debug: 2648 416 riscv-013.c:397 scan(): 41b 4i - 00000000 @10 -> + 00e90001 @10
Debug: 2649 416 riscv-013.c:408 scan():  ->  hartsello=233 dmactive
Debug: 2650 416 riscv-013.c:397 scan(): 41b 4i w 00ea0001 @10 -> + 00000000 @10
Debug: 2651 416 riscv-013.c:408 scan():  hartsello=234 dmactive -> 
Debug: 2652 416 riscv-013.c:397 scan(): 41b 4i - 00000000 @10 -> + 00ea0001 @10
Debug: 2653 416 riscv-013.c:408 scan():  ->  hartsello=234 dmactive
Debug: 2654 416 riscv-013.c:397 scan(): 41b 4i r 00000000 @11 -> + 00000000 @10
Debug: 2655 416 riscv-013.c:397 scan(): 41b 4i - 00000000 @11 -> + 00003082 @11
Debug: 2656 417 riscv-013.c:408 scan():  ->  allunavail anyunavail authenticated version=2
Debug: 2657 417 riscv-013.c:397 scan(): 41b 4i r 00000000 @10 -> + 00000000 @11
Debug: 2658 417 riscv-013.c:397 scan(): 41b 4i - 00000000 @10 -> + 00ea0001 @10
Debug: 2659 417 riscv-013.c:408 scan():  ->  hartsello=234 dmactive
Debug: 2660 417 riscv-013.c:397 scan(): 41b 4i w 00eb0001 @10 -> + 00000000 @10
Debug: 2661 417 riscv-013.c:408 scan():  hartsello=235 dmactive -> 
Debug: 2662 418 riscv-013.c:397 scan(): 41b 4i - 00000000 @10 -> + 00eb0001 @10
Debug: 2663 418 riscv-013.c:408 scan():  ->  hartsello=235 dmactive
Debug: 2664 418 riscv-013.c:397 scan(): 41b 4i r 00000000 @11 -> + 00000000 @10
Debug: 2665 418 riscv-013.c:397 scan(): 41b 4i - 00000000 @11 -> + 00003082 @11
Debug: 2666 418 riscv-013.c:408 scan():  ->  allunavail anyunavail authenticated version=2
Debug: 2667 418 riscv-013.c:397 scan(): 41b 4i r 00000000 @10 -> + 00000000 @11
Debug: 2668 418 riscv-013.c:397 scan(): 41b 4i - 00000000 @10 -> + 00eb0001 @10
Debug: 2669 418 riscv-013.c:408 scan():  ->  hartsello=235 dmactive
Debug: 2670 419 riscv-013.c:397 scan(): 41b 4i w 00ec0001 @10 -> + 00000000 @10
Debug: 2671 419 riscv-013.c:408 scan():  hartsello=236 dmactive -> 
Debug: 2672 419 riscv-013.c:397 scan(): 41b 4i - 00000000 @10 -> + 00ec0001 @10
Debug: 2673 419 riscv-013.c:408 scan():  ->  hartsello=236 dmactive
Debug: 2674 419 riscv-013.c:397 scan(): 41b 4i r 00000000 @11 -> + 00000000 @10
Debug: 2675 420 riscv-013.c:397 scan(): 41b 4i - 00000000 @11 -> + 00003082 @11
Debug: 2676 420 riscv-013.c:408 scan():  ->  allunavail anyunavail authenticated version=2
Debug: 2677 420 riscv-013.c:397 scan(): 41b 4i r 00000000 @10 -> + 00000000 @11
Debug: 2678 420 riscv-013.c:397 scan(): 41b 4i - 00000000 @10 -> + 00ec0001 @10
Debug: 2679 420 riscv-013.c:408 scan():  ->  hartsello=236 dmactive
Debug: 2680 420 riscv-013.c:397 scan(): 41b 4i w 00ed0001 @10 -> + 00000000 @10
Debug: 2681 420 riscv-013.c:408 scan():  hartsello=237 dmactive -> 
Debug: 2682 421 riscv-013.c:397 scan(): 41b 4i - 00000000 @10 -> + 00ed0001 @10
Debug: 2683 421 riscv-013.c:408 scan():  ->  hartsello=237 dmactive
Debug: 2684 421 riscv-013.c:397 scan(): 41b 4i r 00000000 @11 -> + 00000000 @10
Debug: 2685 421 riscv-013.c:397 scan(): 41b 4i - 00000000 @11 -> + 00003082 @11
Debug: 2686 421 riscv-013.c:408 scan():  ->  allunavail anyunavail authenticated version=2
Debug: 2687 421 riscv-013.c:397 scan(): 41b 4i r 00000000 @10 -> + 00000000 @11
Debug: 2688 422 riscv-013.c:397 scan(): 41b 4i - 00000000 @10 -> + 00ed0001 @10
Debug: 2689 422 riscv-013.c:408 scan():  ->  hartsello=237 dmactive
Debug: 2690 422 riscv-013.c:397 scan(): 41b 4i w 00ee0001 @10 -> + 00000000 @10
Debug: 2691 422 riscv-013.c:408 scan():  hartsello=238 dmactive -> 
Debug: 2692 422 riscv-013.c:397 scan(): 41b 4i - 00000000 @10 -> + 00ee0001 @10
Debug: 2693 422 riscv-013.c:408 scan():  ->  hartsello=238 dmactive
Debug: 2694 422 riscv-013.c:397 scan(): 41b 4i r 00000000 @11 -> + 00000000 @10
Debug: 2695 423 riscv-013.c:397 scan(): 41b 4i - 00000000 @11 -> + 00003082 @11
Debug: 2696 423 riscv-013.c:408 scan():  ->  allunavail anyunavail authenticated version=2
Debug: 2697 423 riscv-013.c:397 scan(): 41b 4i r 00000000 @10 -> + 00000000 @11
Debug: 2698 423 riscv-013.c:397 scan(): 41b 4i - 00000000 @10 -> + 00ee0001 @10
Debug: 2699 423 riscv-013.c:408 scan():  ->  hartsello=238 dmactive
Debug: 2700 423 riscv-013.c:397 scan(): 41b 4i w 00ef0001 @10 -> + 00000000 @10
Debug: 2701 424 riscv-013.c:408 scan():  hartsello=239 dmactive -> 
Debug: 2702 424 riscv-013.c:397 scan(): 41b 4i - 00000000 @10 -> + 00ef0001 @10
Debug: 2703 424 riscv-013.c:408 scan():  ->  hartsello=239 dmactive
Debug: 2704 424 riscv-013.c:397 scan(): 41b 4i r 00000000 @11 -> + 00000000 @10
Debug: 2705 424 riscv-013.c:397 scan(): 41b 4i - 00000000 @11 -> + 00003082 @11
Debug: 2706 424 riscv-013.c:408 scan():  ->  allunavail anyunavail authenticated version=2
Debug: 2707 424 riscv-013.c:397 scan(): 41b 4i r 00000000 @10 -> + 00000000 @11
Debug: 2708 425 riscv-013.c:397 scan(): 41b 4i - 00000000 @10 -> + 00ef0001 @10
Debug: 2709 425 riscv-013.c:408 scan():  ->  hartsello=239 dmactive
Debug: 2710 425 riscv-013.c:397 scan(): 41b 4i w 00f00001 @10 -> + 00000000 @10
Debug: 2711 425 riscv-013.c:408 scan():  hartsello=240 dmactive -> 
Debug: 2712 425 riscv-013.c:397 scan(): 41b 4i - 00000000 @10 -> + 00f00001 @10
Debug: 2713 425 riscv-013.c:408 scan():  ->  hartsello=240 dmactive
Debug: 2714 425 riscv-013.c:397 scan(): 41b 4i r 00000000 @11 -> + 00000000 @10
Debug: 2715 426 riscv-013.c:397 scan(): 41b 4i - 00000000 @11 -> + 00003082 @11
Debug: 2716 426 riscv-013.c:408 scan():  ->  allunavail anyunavail authenticated version=2
Debug: 2717 426 riscv-013.c:397 scan(): 41b 4i r 00000000 @10 -> + 00000000 @11
Debug: 2718 426 riscv-013.c:397 scan(): 41b 4i - 00000000 @10 -> + 00f00001 @10
Debug: 2719 426 riscv-013.c:408 scan():  ->  hartsello=240 dmactive
Debug: 2720 426 riscv-013.c:397 scan(): 41b 4i w 00f10001 @10 -> + 00000000 @10
Debug: 2721 427 riscv-013.c:408 scan():  hartsello=241 dmactive -> 
Debug: 2722 427 riscv-013.c:397 scan(): 41b 4i - 00000000 @10 -> + 00f10001 @10
Debug: 2723 427 riscv-013.c:408 scan():  ->  hartsello=241 dmactive
Debug: 2724 427 riscv-013.c:397 scan(): 41b 4i r 00000000 @11 -> + 00000000 @10
Debug: 2725 427 riscv-013.c:397 scan(): 41b 4i - 00000000 @11 -> + 00003082 @11
Debug: 2726 427 riscv-013.c:408 scan():  ->  allunavail anyunavail authenticated version=2
Debug: 2727 427 riscv-013.c:397 scan(): 41b 4i r 00000000 @10 -> + 00000000 @11
Debug: 2728 428 riscv-013.c:397 scan(): 41b 4i - 00000000 @10 -> + 00f10001 @10
Debug: 2729 428 riscv-013.c:408 scan():  ->  hartsello=241 dmactive
Debug: 2730 428 riscv-013.c:397 scan(): 41b 4i w 00f20001 @10 -> + 00000000 @10
Debug: 2731 428 riscv-013.c:408 scan():  hartsello=242 dmactive -> 
Debug: 2732 428 riscv-013.c:397 scan(): 41b 4i - 00000000 @10 -> + 00f20001 @10
Debug: 2733 428 riscv-013.c:408 scan():  ->  hartsello=242 dmactive
Debug: 2734 428 riscv-013.c:397 scan(): 41b 4i r 00000000 @11 -> + 00000000 @10
Debug: 2735 429 riscv-013.c:397 scan(): 41b 4i - 00000000 @11 -> + 00003082 @11
Debug: 2736 429 riscv-013.c:408 scan():  ->  allunavail anyunavail authenticated version=2
Debug: 2737 429 riscv-013.c:397 scan(): 41b 4i r 00000000 @10 -> + 00000000 @11
Debug: 2738 429 riscv-013.c:397 scan(): 41b 4i - 00000000 @10 -> + 00f20001 @10
Debug: 2739 429 riscv-013.c:408 scan():  ->  hartsello=242 dmactive
Debug: 2740 429 riscv-013.c:397 scan(): 41b 4i w 00f30001 @10 -> + 00000000 @10
Debug: 2741 429 riscv-013.c:408 scan():  hartsello=243 dmactive -> 
Debug: 2742 430 riscv-013.c:397 scan(): 41b 4i - 00000000 @10 -> + 00f30001 @10
Debug: 2743 430 riscv-013.c:408 scan():  ->  hartsello=243 dmactive
Debug: 2744 430 riscv-013.c:397 scan(): 41b 4i r 00000000 @11 -> + 00000000 @10
Debug: 2745 430 riscv-013.c:397 scan(): 41b 4i - 00000000 @11 -> + 00003082 @11
Debug: 2746 430 riscv-013.c:408 scan():  ->  allunavail anyunavail authenticated version=2
Debug: 2747 430 riscv-013.c:397 scan(): 41b 4i r 00000000 @10 -> + 00000000 @11
Debug: 2748 430 riscv-013.c:397 scan(): 41b 4i - 00000000 @10 -> + 00f30001 @10
Debug: 2749 430 riscv-013.c:408 scan():  ->  hartsello=243 dmactive
Debug: 2750 430 riscv-013.c:397 scan(): 41b 4i w 00f40001 @10 -> + 00000000 @10
Debug: 2751 430 riscv-013.c:408 scan():  hartsello=244 dmactive -> 
Debug: 2752 431 riscv-013.c:397 scan(): 41b 4i - 00000000 @10 -> + 00f40001 @10
Debug: 2753 431 riscv-013.c:408 scan():  ->  hartsello=244 dmactive
Debug: 2754 431 riscv-013.c:397 scan(): 41b 4i r 00000000 @11 -> + 00000000 @10
Debug: 2755 431 riscv-013.c:397 scan(): 41b 4i - 00000000 @11 -> + 00003082 @11
Debug: 2756 431 riscv-013.c:408 scan():  ->  allunavail anyunavail authenticated version=2
Debug: 2757 431 riscv-013.c:397 scan(): 41b 4i r 00000000 @10 -> + 00000000 @11
Debug: 2758 431 riscv-013.c:397 scan(): 41b 4i - 00000000 @10 -> + 00f40001 @10
Debug: 2759 431 riscv-013.c:408 scan():  ->  hartsello=244 dmactive
Debug: 2760 431 riscv-013.c:397 scan(): 41b 4i w 00f50001 @10 -> + 00000000 @10
Debug: 2761 431 riscv-013.c:408 scan():  hartsello=245 dmactive -> 
Debug: 2762 431 riscv-013.c:397 scan(): 41b 4i - 00000000 @10 -> + 00f50001 @10
Debug: 2763 431 riscv-013.c:408 scan():  ->  hartsello=245 dmactive
Debug: 2764 432 riscv-013.c:397 scan(): 41b 4i r 00000000 @11 -> + 00000000 @10
Debug: 2765 432 riscv-013.c:397 scan(): 41b 4i - 00000000 @11 -> + 00003082 @11
Debug: 2766 432 riscv-013.c:408 scan():  ->  allunavail anyunavail authenticated version=2
Debug: 2767 432 riscv-013.c:397 scan(): 41b 4i r 00000000 @10 -> + 00000000 @11
Debug: 2768 432 riscv-013.c:397 scan(): 41b 4i - 00000000 @10 -> + 00f50001 @10
Debug: 2769 432 riscv-013.c:408 scan():  ->  hartsello=245 dmactive
Debug: 2770 432 riscv-013.c:397 scan(): 41b 4i w 00f60001 @10 -> + 00000000 @10
Debug: 2771 432 riscv-013.c:408 scan():  hartsello=246 dmactive -> 
Debug: 2772 433 riscv-013.c:397 scan(): 41b 4i - 00000000 @10 -> + 00f60001 @10
Debug: 2773 433 riscv-013.c:408 scan():  ->  hartsello=246 dmactive
Debug: 2774 433 riscv-013.c:397 scan(): 41b 4i r 00000000 @11 -> + 00000000 @10
Debug: 2775 433 riscv-013.c:397 scan(): 41b 4i - 00000000 @11 -> + 00003082 @11
Debug: 2776 433 riscv-013.c:408 scan():  ->  allunavail anyunavail authenticated version=2
Debug: 2777 433 riscv-013.c:397 scan(): 41b 4i r 00000000 @10 -> + 00000000 @11
Debug: 2778 434 riscv-013.c:397 scan(): 41b 4i - 00000000 @10 -> + 00f60001 @10
Debug: 2779 434 riscv-013.c:408 scan():  ->  hartsello=246 dmactive
Debug: 2780 434 riscv-013.c:397 scan(): 41b 4i w 00f70001 @10 -> + 00000000 @10
Debug: 2781 434 riscv-013.c:408 scan():  hartsello=247 dmactive -> 
Debug: 2782 434 riscv-013.c:397 scan(): 41b 4i - 00000000 @10 -> + 00f70001 @10
Debug: 2783 434 riscv-013.c:408 scan():  ->  hartsello=247 dmactive
Debug: 2784 434 riscv-013.c:397 scan(): 41b 4i r 00000000 @11 -> + 00000000 @10
Debug: 2785 435 riscv-013.c:397 scan(): 41b 4i - 00000000 @11 -> + 00003082 @11
Debug: 2786 435 riscv-013.c:408 scan():  ->  allunavail anyunavail authenticated version=2
Debug: 2787 435 riscv-013.c:397 scan(): 41b 4i r 00000000 @10 -> + 00000000 @11
Debug: 2788 435 riscv-013.c:397 scan(): 41b 4i - 00000000 @10 -> + 00f70001 @10
Debug: 2789 435 riscv-013.c:408 scan():  ->  hartsello=247 dmactive
Debug: 2790 435 riscv-013.c:397 scan(): 41b 4i w 00f80001 @10 -> + 00000000 @10
Debug: 2791 435 riscv-013.c:408 scan():  hartsello=248 dmactive -> 
Debug: 2792 436 riscv-013.c:397 scan(): 41b 4i - 00000000 @10 -> + 00f80001 @10
Debug: 2793 436 riscv-013.c:408 scan():  ->  hartsello=248 dmactive
Debug: 2794 436 riscv-013.c:397 scan(): 41b 4i r 00000000 @11 -> + 00000000 @10
Debug: 2795 436 riscv-013.c:397 scan(): 41b 4i - 00000000 @11 -> + 00003082 @11
Debug: 2796 436 riscv-013.c:408 scan():  ->  allunavail anyunavail authenticated version=2
Debug: 2797 437 riscv-013.c:397 scan(): 41b 4i r 00000000 @10 -> + 00000000 @11
Debug: 2798 437 riscv-013.c:397 scan(): 41b 4i - 00000000 @10 -> + 00f80001 @10
Debug: 2799 437 riscv-013.c:408 scan():  ->  hartsello=248 dmactive
Debug: 2800 437 riscv-013.c:397 scan(): 41b 4i w 00f90001 @10 -> + 00000000 @10
Debug: 2801 437 riscv-013.c:408 scan():  hartsello=249 dmactive -> 
Debug: 2802 438 riscv-013.c:397 scan(): 41b 4i - 00000000 @10 -> + 00f90001 @10
Debug: 2803 438 riscv-013.c:408 scan():  ->  hartsello=249 dmactive
Debug: 2804 438 riscv-013.c:397 scan(): 41b 4i r 00000000 @11 -> + 00000000 @10
Debug: 2805 438 riscv-013.c:397 scan(): 41b 4i - 00000000 @11 -> + 00003082 @11
Debug: 2806 438 riscv-013.c:408 scan():  ->  allunavail anyunavail authenticated version=2
Debug: 2807 439 riscv-013.c:397 scan(): 41b 4i r 00000000 @10 -> + 00000000 @11
Debug: 2808 439 riscv-013.c:397 scan(): 41b 4i - 00000000 @10 -> + 00f90001 @10
Debug: 2809 439 riscv-013.c:408 scan():  ->  hartsello=249 dmactive
Debug: 2810 439 riscv-013.c:397 scan(): 41b 4i w 00fa0001 @10 -> + 00000000 @10
Debug: 2811 439 riscv-013.c:408 scan():  hartsello=250 dmactive -> 
Debug: 2812 439 riscv-013.c:397 scan(): 41b 4i - 00000000 @10 -> + 00fa0001 @10
Debug: 2813 439 riscv-013.c:408 scan():  ->  hartsello=250 dmactive
Debug: 2814 440 riscv-013.c:397 scan(): 41b 4i r 00000000 @11 -> + 00000000 @10
Debug: 2815 440 riscv-013.c:397 scan(): 41b 4i - 00000000 @11 -> + 00003082 @11
Debug: 2816 440 riscv-013.c:408 scan():  ->  allunavail anyunavail authenticated version=2
Debug: 2817 440 riscv-013.c:397 scan(): 41b 4i r 00000000 @10 -> + 00000000 @11
Debug: 2818 440 riscv-013.c:397 scan(): 41b 4i - 00000000 @10 -> + 00fa0001 @10
Debug: 2819 441 riscv-013.c:408 scan():  ->  hartsello=250 dmactive
Debug: 2820 441 riscv-013.c:397 scan(): 41b 4i w 00fb0001 @10 -> + 00000000 @10
Debug: 2821 441 riscv-013.c:408 scan():  hartsello=251 dmactive -> 
Debug: 2822 441 riscv-013.c:397 scan(): 41b 4i - 00000000 @10 -> + 00fb0001 @10
Debug: 2823 441 riscv-013.c:408 scan():  ->  hartsello=251 dmactive
Debug: 2824 441 riscv-013.c:397 scan(): 41b 4i r 00000000 @11 -> + 00000000 @10
Debug: 2825 442 riscv-013.c:397 scan(): 41b 4i - 00000000 @11 -> + 00003082 @11
Debug: 2826 442 riscv-013.c:408 scan():  ->  allunavail anyunavail authenticated version=2
Debug: 2827 442 riscv-013.c:397 scan(): 41b 4i r 00000000 @10 -> + 00000000 @11
Debug: 2828 442 riscv-013.c:397 scan(): 41b 4i - 00000000 @10 -> + 00fb0001 @10
Debug: 2829 442 riscv-013.c:408 scan():  ->  hartsello=251 dmactive
Debug: 2830 442 riscv-013.c:397 scan(): 41b 4i w 00fc0001 @10 -> + 00000000 @10
Debug: 2831 443 riscv-013.c:408 scan():  hartsello=252 dmactive -> 
Debug: 2832 443 riscv-013.c:397 scan(): 41b 4i - 00000000 @10 -> + 00fc0001 @10
Debug: 2833 443 riscv-013.c:408 scan():  ->  hartsello=252 dmactive
Debug: 2834 443 riscv-013.c:397 scan(): 41b 4i r 00000000 @11 -> + 00000000 @10
Debug: 2835 443 riscv-013.c:397 scan(): 41b 4i - 00000000 @11 -> + 00003082 @11
Debug: 2836 443 riscv-013.c:408 scan():  ->  allunavail anyunavail authenticated version=2
Debug: 2837 443 riscv-013.c:397 scan(): 41b 4i r 00000000 @10 -> + 00000000 @11
Debug: 2838 444 riscv-013.c:397 scan(): 41b 4i - 00000000 @10 -> + 00fc0001 @10
Debug: 2839 444 riscv-013.c:408 scan():  ->  hartsello=252 dmactive
Debug: 2840 444 riscv-013.c:397 scan(): 41b 4i w 00fd0001 @10 -> + 00000000 @10
Debug: 2841 444 riscv-013.c:408 scan():  hartsello=253 dmactive -> 
Debug: 2842 444 riscv-013.c:397 scan(): 41b 4i - 00000000 @10 -> + 00fd0001 @10
Debug: 2843 444 riscv-013.c:408 scan():  ->  hartsello=253 dmactive
Debug: 2844 444 riscv-013.c:397 scan(): 41b 4i r 00000000 @11 -> + 00000000 @10
Debug: 2845 445 riscv-013.c:397 scan(): 41b 4i - 00000000 @11 -> + 00003082 @11
Debug: 2846 445 riscv-013.c:408 scan():  ->  allunavail anyunavail authenticated version=2
Debug: 2847 445 riscv-013.c:397 scan(): 41b 4i r 00000000 @10 -> + 00000000 @11
Debug: 2848 445 riscv-013.c:397 scan(): 41b 4i - 00000000 @10 -> + 00fd0001 @10
Debug: 2849 445 riscv-013.c:408 scan():  ->  hartsello=253 dmactive
Debug: 2850 445 riscv-013.c:397 scan(): 41b 4i w 00fe0001 @10 -> + 00000000 @10
Debug: 2851 445 riscv-013.c:408 scan():  hartsello=254 dmactive -> 
Debug: 2852 446 riscv-013.c:397 scan(): 41b 4i - 00000000 @10 -> + 00fe0001 @10
Debug: 2853 446 riscv-013.c:408 scan():  ->  hartsello=254 dmactive
Debug: 2854 446 riscv-013.c:397 scan(): 41b 4i r 00000000 @11 -> + 00000000 @10
Debug: 2855 446 riscv-013.c:397 scan(): 41b 4i - 00000000 @11 -> + 00003082 @11
Debug: 2856 446 riscv-013.c:408 scan():  ->  allunavail anyunavail authenticated version=2
Debug: 2857 446 riscv-013.c:397 scan(): 41b 4i r 00000000 @10 -> + 00000000 @11
Debug: 2858 447 riscv-013.c:397 scan(): 41b 4i - 00000000 @10 -> + 00fe0001 @10
Debug: 2859 447 riscv-013.c:408 scan():  ->  hartsello=254 dmactive
Debug: 2860 447 riscv-013.c:397 scan(): 41b 4i w 00ff0001 @10 -> + 00000000 @10
Debug: 2861 447 riscv-013.c:408 scan():  hartsello=255 dmactive -> 
Debug: 2862 447 riscv-013.c:397 scan(): 41b 4i - 00000000 @10 -> + 00ff0001 @10
Debug: 2863 447 riscv-013.c:408 scan():  ->  hartsello=255 dmactive
Debug: 2864 448 riscv-013.c:397 scan(): 41b 4i r 00000000 @11 -> + 00000000 @10
Debug: 2865 448 riscv-013.c:397 scan(): 41b 4i - 00000000 @11 -> + 00003082 @11
Debug: 2866 448 riscv-013.c:408 scan():  ->  allunavail anyunavail authenticated version=2
Debug: 2867 448 riscv-013.c:397 scan(): 41b 4i r 00000000 @10 -> + 00000000 @11
Debug: 2868 449 riscv-013.c:397 scan(): 41b 4i - 00000000 @10 -> + 00ff0001 @10
Debug: 2869 449 riscv-013.c:408 scan():  ->  hartsello=255 dmactive
Debug: 2870 449 riscv-013.c:397 scan(): 41b 4i w 01000001 @10 -> + 00000000 @10
Debug: 2871 449 riscv-013.c:408 scan():  hartsello=256 dmactive -> 
Debug: 2872 449 riscv-013.c:397 scan(): 41b 4i - 00000000 @10 -> + 01000001 @10
Debug: 2873 449 riscv-013.c:408 scan():  ->  hartsello=256 dmactive
Debug: 2874 449 riscv-013.c:397 scan(): 41b 4i r 00000000 @11 -> + 00000000 @10
Debug: 2875 450 riscv-013.c:397 scan(): 41b 4i - 00000000 @11 -> + 00003082 @11
Debug: 2876 450 riscv-013.c:408 scan():  ->  allunavail anyunavail authenticated version=2
Debug: 2877 450 riscv-013.c:397 scan(): 41b 4i r 00000000 @10 -> + 00000000 @11
Debug: 2878 450 riscv-013.c:397 scan(): 41b 4i - 00000000 @10 -> + 01000001 @10
Debug: 2879 450 riscv-013.c:408 scan():  ->  hartsello=256 dmactive
Debug: 2880 450 riscv-013.c:397 scan(): 41b 4i w 01010001 @10 -> + 00000000 @10
Debug: 2881 451 riscv-013.c:408 scan():  hartsello=257 dmactive -> 
Debug: 2882 451 riscv-013.c:397 scan(): 41b 4i - 00000000 @10 -> + 01010001 @10
Debug: 2883 451 riscv-013.c:408 scan():  ->  hartsello=257 dmactive
Debug: 2884 451 riscv-013.c:397 scan(): 41b 4i r 00000000 @11 -> + 00000000 @10
Debug: 2885 451 riscv-013.c:397 scan(): 41b 4i - 00000000 @11 -> + 00003082 @11
Debug: 2886 451 riscv-013.c:408 scan():  ->  allunavail anyunavail authenticated version=2
Debug: 2887 451 riscv-013.c:397 scan(): 41b 4i r 00000000 @10 -> + 00000000 @11
Debug: 2888 452 riscv-013.c:397 scan(): 41b 4i - 00000000 @10 -> + 01010001 @10
Debug: 2889 452 riscv-013.c:408 scan():  ->  hartsello=257 dmactive
Debug: 2890 452 riscv-013.c:397 scan(): 41b 4i w 01020001 @10 -> + 00000000 @10
Debug: 2891 452 riscv-013.c:408 scan():  hartsello=258 dmactive -> 
Debug: 2892 452 riscv-013.c:397 scan(): 41b 4i - 00000000 @10 -> + 01020001 @10
Debug: 2893 452 riscv-013.c:408 scan():  ->  hartsello=258 dmactive
Debug: 2894 453 riscv-013.c:397 scan(): 41b 4i r 00000000 @11 -> + 00000000 @10
Debug: 2895 453 riscv-013.c:397 scan(): 41b 4i - 00000000 @11 -> + 00003082 @11
Debug: 2896 453 riscv-013.c:408 scan():  ->  allunavail anyunavail authenticated version=2
Debug: 2897 453 riscv-013.c:397 scan(): 41b 4i r 00000000 @10 -> + 00000000 @11
Debug: 2898 453 riscv-013.c:397 scan(): 41b 4i - 00000000 @10 -> + 01020001 @10
Debug: 2899 453 riscv-013.c:408 scan():  ->  hartsello=258 dmactive
Debug: 2900 454 riscv-013.c:397 scan(): 41b 4i w 01030001 @10 -> + 00000000 @10
Debug: 2901 454 riscv-013.c:408 scan():  hartsello=259 dmactive -> 
Debug: 2902 454 riscv-013.c:397 scan(): 41b 4i - 00000000 @10 -> + 01030001 @10
Debug: 2903 454 riscv-013.c:408 scan():  ->  hartsello=259 dmactive
Debug: 2904 454 riscv-013.c:397 scan(): 41b 4i r 00000000 @11 -> + 00000000 @10
Debug: 2905 454 riscv-013.c:397 scan(): 41b 4i - 00000000 @11 -> + 00003082 @11
Debug: 2906 454 riscv-013.c:408 scan():  ->  allunavail anyunavail authenticated version=2
Debug: 2907 454 riscv-013.c:397 scan(): 41b 4i r 00000000 @10 -> + 00000000 @11
Debug: 2908 455 riscv-013.c:397 scan(): 41b 4i - 00000000 @10 -> + 01030001 @10
Debug: 2909 455 riscv-013.c:408 scan():  ->  hartsello=259 dmactive
Debug: 2910 455 riscv-013.c:397 scan(): 41b 4i w 01040001 @10 -> + 00000000 @10
Debug: 2911 455 riscv-013.c:408 scan():  hartsello=260 dmactive -> 
Debug: 2912 455 riscv-013.c:397 scan(): 41b 4i - 00000000 @10 -> + 01040001 @10
Debug: 2913 455 riscv-013.c:408 scan():  ->  hartsello=260 dmactive
Debug: 2914 456 riscv-013.c:397 scan(): 41b 4i r 00000000 @11 -> + 00000000 @10
Debug: 2915 456 riscv-013.c:397 scan(): 41b 4i - 00000000 @11 -> + 00003082 @11
Debug: 2916 456 riscv-013.c:408 scan():  ->  allunavail anyunavail authenticated version=2
Debug: 2917 456 riscv-013.c:397 scan(): 41b 4i r 00000000 @10 -> + 00000000 @11
Debug: 2918 457 riscv-013.c:397 scan(): 41b 4i - 00000000 @10 -> + 01040001 @10
Debug: 2919 457 riscv-013.c:408 scan():  ->  hartsello=260 dmactive
Debug: 2920 457 riscv-013.c:397 scan(): 41b 4i w 01050001 @10 -> + 00000000 @10
Debug: 2921 457 riscv-013.c:408 scan():  hartsello=261 dmactive -> 
Debug: 2922 457 riscv-013.c:397 scan(): 41b 4i - 00000000 @10 -> + 01050001 @10
Debug: 2923 457 riscv-013.c:408 scan():  ->  hartsello=261 dmactive
Debug: 2924 458 riscv-013.c:397 scan(): 41b 4i r 00000000 @11 -> + 00000000 @10
Debug: 2925 458 riscv-013.c:397 scan(): 41b 4i - 00000000 @11 -> + 00003082 @11
Debug: 2926 458 riscv-013.c:408 scan():  ->  allunavail anyunavail authenticated version=2
Debug: 2927 458 riscv-013.c:397 scan(): 41b 4i r 00000000 @10 -> + 00000000 @11
Debug: 2928 458 riscv-013.c:397 scan(): 41b 4i - 00000000 @10 -> + 01050001 @10
Debug: 2929 458 riscv-013.c:408 scan():  ->  hartsello=261 dmactive
Debug: 2930 459 riscv-013.c:397 scan(): 41b 4i w 01060001 @10 -> + 00000000 @10
Debug: 2931 459 riscv-013.c:408 scan():  hartsello=262 dmactive -> 
Debug: 2932 459 riscv-013.c:397 scan(): 41b 4i - 00000000 @10 -> + 01060001 @10
Debug: 2933 459 riscv-013.c:408 scan():  ->  hartsello=262 dmactive
Debug: 2934 459 riscv-013.c:397 scan(): 41b 4i r 00000000 @11 -> + 00000000 @10
Debug: 2935 459 riscv-013.c:397 scan(): 41b 4i - 00000000 @11 -> + 00003082 @11
Debug: 2936 459 riscv-013.c:408 scan():  ->  allunavail anyunavail authenticated version=2
Debug: 2937 460 riscv-013.c:397 scan(): 41b 4i r 00000000 @10 -> + 00000000 @11
Debug: 2938 460 riscv-013.c:397 scan(): 41b 4i - 00000000 @10 -> + 01060001 @10
Debug: 2939 460 riscv-013.c:408 scan():  ->  hartsello=262 dmactive
Debug: 2940 460 riscv-013.c:397 scan(): 41b 4i w 01070001 @10 -> + 00000000 @10
Debug: 2941 460 riscv-013.c:408 scan():  hartsello=263 dmactive -> 
Debug: 2942 460 riscv-013.c:397 scan(): 41b 4i - 00000000 @10 -> + 01070001 @10
Debug: 2943 460 riscv-013.c:408 scan():  ->  hartsello=263 dmactive
Debug: 2944 461 riscv-013.c:397 scan(): 41b 4i r 00000000 @11 -> + 00000000 @10
Debug: 2945 461 riscv-013.c:397 scan(): 41b 4i - 00000000 @11 -> + 00003082 @11
Debug: 2946 461 riscv-013.c:408 scan():  ->  allunavail anyunavail authenticated version=2
Debug: 2947 461 riscv-013.c:397 scan(): 41b 4i r 00000000 @10 -> + 00000000 @11
Debug: 2948 461 riscv-013.c:397 scan(): 41b 4i - 00000000 @10 -> + 01070001 @10
Debug: 2949 461 riscv-013.c:408 scan():  ->  hartsello=263 dmactive
Debug: 2950 462 riscv-013.c:397 scan(): 41b 4i w 01080001 @10 -> + 00000000 @10
Debug: 2951 462 riscv-013.c:408 scan():  hartsello=264 dmactive -> 
Debug: 2952 462 riscv-013.c:397 scan(): 41b 4i - 00000000 @10 -> + 01080001 @10
Debug: 2953 462 riscv-013.c:408 scan():  ->  hartsello=264 dmactive
Debug: 2954 462 riscv-013.c:397 scan(): 41b 4i r 00000000 @11 -> + 00000000 @10
Debug: 2955 462 riscv-013.c:397 scan(): 41b 4i - 00000000 @11 -> + 00003082 @11
Debug: 2956 463 riscv-013.c:408 scan():  ->  allunavail anyunavail authenticated version=2
Debug: 2957 463 riscv-013.c:397 scan(): 41b 4i r 00000000 @10 -> + 00000000 @11
Debug: 2958 463 riscv-013.c:397 scan(): 41b 4i - 00000000 @10 -> + 01080001 @10
Debug: 2959 463 riscv-013.c:408 scan():  ->  hartsello=264 dmactive
Debug: 2960 463 riscv-013.c:397 scan(): 41b 4i w 01090001 @10 -> + 00000000 @10
Debug: 2961 463 riscv-013.c:408 scan():  hartsello=265 dmactive -> 
Debug: 2962 464 riscv-013.c:397 scan(): 41b 4i - 00000000 @10 -> + 01090001 @10
Debug: 2963 464 riscv-013.c:408 scan():  ->  hartsello=265 dmactive
Debug: 2964 464 riscv-013.c:397 scan(): 41b 4i r 00000000 @11 -> + 00000000 @10
Debug: 2965 464 riscv-013.c:397 scan(): 41b 4i - 00000000 @11 -> + 00003082 @11
Debug: 2966 464 riscv-013.c:408 scan():  ->  allunavail anyunavail authenticated version=2
Debug: 2967 465 riscv-013.c:397 scan(): 41b 4i r 00000000 @10 -> + 00000000 @11
Debug: 2968 465 riscv-013.c:397 scan(): 41b 4i - 00000000 @10 -> + 01090001 @10
Debug: 2969 465 riscv-013.c:408 scan():  ->  hartsello=265 dmactive
Debug: 2970 465 riscv-013.c:397 scan(): 41b 4i w 010a0001 @10 -> + 00000000 @10
Debug: 2971 465 riscv-013.c:408 scan():  hartsello=266 dmactive -> 
Debug: 2972 465 riscv-013.c:397 scan(): 41b 4i - 00000000 @10 -> + 010a0001 @10
Debug: 2973 465 riscv-013.c:408 scan():  ->  hartsello=266 dmactive
Debug: 2974 466 riscv-013.c:397 scan(): 41b 4i r 00000000 @11 -> + 00000000 @10
Debug: 2975 466 riscv-013.c:397 scan(): 41b 4i - 00000000 @11 -> + 00003082 @11
Debug: 2976 466 riscv-013.c:408 scan():  ->  allunavail anyunavail authenticated version=2
Debug: 2977 466 riscv-013.c:397 scan(): 41b 4i r 00000000 @10 -> + 00000000 @11
Debug: 2978 466 riscv-013.c:397 scan(): 41b 4i - 00000000 @10 -> + 010a0001 @10
Debug: 2979 466 riscv-013.c:408 scan():  ->  hartsello=266 dmactive
Debug: 2980 467 riscv-013.c:397 scan(): 41b 4i w 010b0001 @10 -> + 00000000 @10
Debug: 2981 467 riscv-013.c:408 scan():  hartsello=267 dmactive -> 
Debug: 2982 467 riscv-013.c:397 scan(): 41b 4i - 00000000 @10 -> + 010b0001 @10
Debug: 2983 467 riscv-013.c:408 scan():  ->  hartsello=267 dmactive
Debug: 2984 467 riscv-013.c:397 scan(): 41b 4i r 00000000 @11 -> + 00000000 @10
Debug: 2985 467 riscv-013.c:397 scan(): 41b 4i - 00000000 @11 -> + 00003082 @11
Debug: 2986 467 riscv-013.c:408 scan():  ->  allunavail anyunavail authenticated version=2
Debug: 2987 468 riscv-013.c:397 scan(): 41b 4i r 00000000 @10 -> + 00000000 @11
Debug: 2988 468 riscv-013.c:397 scan(): 41b 4i - 00000000 @10 -> + 010b0001 @10
Debug: 2989 468 riscv-013.c:408 scan():  ->  hartsello=267 dmactive
Debug: 2990 468 riscv-013.c:397 scan(): 41b 4i w 010c0001 @10 -> + 00000000 @10
Debug: 2991 468 riscv-013.c:408 scan():  hartsello=268 dmactive -> 
Debug: 2992 468 riscv-013.c:397 scan(): 41b 4i - 00000000 @10 -> + 010c0001 @10
Debug: 2993 468 riscv-013.c:408 scan():  ->  hartsello=268 dmactive
Debug: 2994 469 riscv-013.c:397 scan(): 41b 4i r 00000000 @11 -> + 00000000 @10
Debug: 2995 469 riscv-013.c:397 scan(): 41b 4i - 00000000 @11 -> + 00003082 @11
Debug: 2996 469 riscv-013.c:408 scan():  ->  allunavail anyunavail authenticated version=2
Debug: 2997 469 riscv-013.c:397 scan(): 41b 4i r 00000000 @10 -> + 00000000 @11
Debug: 2998 469 riscv-013.c:397 scan(): 41b 4i - 00000000 @10 -> + 010c0001 @10
Debug: 2999 469 riscv-013.c:408 scan():  ->  hartsello=268 dmactive
Debug: 3000 470 riscv-013.c:397 scan(): 41b 4i w 010d0001 @10 -> + 00000000 @10
Debug: 3001 470 riscv-013.c:408 scan():  hartsello=269 dmactive -> 
Debug: 3002 470 riscv-013.c:397 scan(): 41b 4i - 00000000 @10 -> + 010d0001 @10
Debug: 3003 470 riscv-013.c:408 scan():  ->  hartsello=269 dmactive
Debug: 3004 470 riscv-013.c:397 scan(): 41b 4i r 00000000 @11 -> + 00000000 @10
Debug: 3005 470 riscv-013.c:397 scan(): 41b 4i - 00000000 @11 -> + 00003082 @11
Debug: 3006 470 riscv-013.c:408 scan():  ->  allunavail anyunavail authenticated version=2
Debug: 3007 471 riscv-013.c:397 scan(): 41b 4i r 00000000 @10 -> + 00000000 @11
Debug: 3008 471 riscv-013.c:397 scan(): 41b 4i - 00000000 @10 -> + 010d0001 @10
Debug: 3009 471 riscv-013.c:408 scan():  ->  hartsello=269 dmactive
Debug: 3010 471 riscv-013.c:397 scan(): 41b 4i w 010e0001 @10 -> + 00000000 @10
Debug: 3011 471 riscv-013.c:408 scan():  hartsello=270 dmactive -> 
Debug: 3012 471 riscv-013.c:397 scan(): 41b 4i - 00000000 @10 -> + 010e0001 @10
Debug: 3013 471 riscv-013.c:408 scan():  ->  hartsello=270 dmactive
Debug: 3014 472 riscv-013.c:397 scan(): 41b 4i r 00000000 @11 -> + 00000000 @10
Debug: 3015 472 riscv-013.c:397 scan(): 41b 4i - 00000000 @11 -> + 00003082 @11
Debug: 3016 472 riscv-013.c:408 scan():  ->  allunavail anyunavail authenticated version=2
Debug: 3017 472 riscv-013.c:397 scan(): 41b 4i r 00000000 @10 -> + 00000000 @11
Debug: 3018 472 riscv-013.c:397 scan(): 41b 4i - 00000000 @10 -> + 010e0001 @10
Debug: 3019 472 riscv-013.c:408 scan():  ->  hartsello=270 dmactive
Debug: 3020 473 riscv-013.c:397 scan(): 41b 4i w 010f0001 @10 -> + 00000000 @10
Debug: 3021 473 riscv-013.c:408 scan():  hartsello=271 dmactive -> 
Debug: 3022 473 riscv-013.c:397 scan(): 41b 4i - 00000000 @10 -> + 010f0001 @10
Debug: 3023 473 riscv-013.c:408 scan():  ->  hartsello=271 dmactive
Debug: 3024 473 riscv-013.c:397 scan(): 41b 4i r 00000000 @11 -> + 00000000 @10
Debug: 3025 474 riscv-013.c:397 scan(): 41b 4i - 00000000 @11 -> + 00003082 @11
Debug: 3026 474 riscv-013.c:408 scan():  ->  allunavail anyunavail authenticated version=2
Debug: 3027 474 riscv-013.c:397 scan(): 41b 4i r 00000000 @10 -> + 00000000 @11
Debug: 3028 474 riscv-013.c:397 scan(): 41b 4i - 00000000 @10 -> + 010f0001 @10
Debug: 3029 474 riscv-013.c:408 scan():  ->  hartsello=271 dmactive
Debug: 3030 474 riscv-013.c:397 scan(): 41b 4i w 01100001 @10 -> + 00000000 @10
Debug: 3031 475 riscv-013.c:408 scan():  hartsello=272 dmactive -> 
Debug: 3032 475 riscv-013.c:397 scan(): 41b 4i - 00000000 @10 -> + 01100001 @10
Debug: 3033 475 riscv-013.c:408 scan():  ->  hartsello=272 dmactive
Debug: 3034 475 riscv-013.c:397 scan(): 41b 4i r 00000000 @11 -> + 00000000 @10
Debug: 3035 475 riscv-013.c:397 scan(): 41b 4i - 00000000 @11 -> + 00003082 @11
Debug: 3036 475 riscv-013.c:408 scan():  ->  allunavail anyunavail authenticated version=2
Debug: 3037 476 riscv-013.c:397 scan(): 41b 4i r 00000000 @10 -> + 00000000 @11
Debug: 3038 476 riscv-013.c:397 scan(): 41b 4i - 00000000 @10 -> + 01100001 @10
Debug: 3039 476 riscv-013.c:408 scan():  ->  hartsello=272 dmactive
Debug: 3040 476 riscv-013.c:397 scan(): 41b 4i w 01110001 @10 -> + 00000000 @10
Debug: 3041 476 riscv-013.c:408 scan():  hartsello=273 dmactive -> 
Debug: 3042 477 riscv-013.c:397 scan(): 41b 4i - 00000000 @10 -> + 01110001 @10
Debug: 3043 477 riscv-013.c:408 scan():  ->  hartsello=273 dmactive
Debug: 3044 477 riscv-013.c:397 scan(): 41b 4i r 00000000 @11 -> + 00000000 @10
Debug: 3045 477 riscv-013.c:397 scan(): 41b 4i - 00000000 @11 -> + 00003082 @11
Debug: 3046 477 riscv-013.c:408 scan():  ->  allunavail anyunavail authenticated version=2
Debug: 3047 477 riscv-013.c:397 scan(): 41b 4i r 00000000 @10 -> + 00000000 @11
Debug: 3048 478 riscv-013.c:397 scan(): 41b 4i - 00000000 @10 -> + 01110001 @10
Debug: 3049 478 riscv-013.c:408 scan():  ->  hartsello=273 dmactive
Debug: 3050 478 riscv-013.c:397 scan(): 41b 4i w 01120001 @10 -> + 00000000 @10
Debug: 3051 478 riscv-013.c:408 scan():  hartsello=274 dmactive -> 
Debug: 3052 478 riscv-013.c:397 scan(): 41b 4i - 00000000 @10 -> + 01120001 @10
Debug: 3053 478 riscv-013.c:408 scan():  ->  hartsello=274 dmactive
Debug: 3054 478 riscv-013.c:397 scan(): 41b 4i r 00000000 @11 -> + 00000000 @10
Debug: 3055 479 riscv-013.c:397 scan(): 41b 4i - 00000000 @11 -> + 00003082 @11
Debug: 3056 479 riscv-013.c:408 scan():  ->  allunavail anyunavail authenticated version=2
Debug: 3057 479 riscv-013.c:397 scan(): 41b 4i r 00000000 @10 -> + 00000000 @11
Debug: 3058 479 riscv-013.c:397 scan(): 41b 4i - 00000000 @10 -> + 01120001 @10
Debug: 3059 479 riscv-013.c:408 scan():  ->  hartsello=274 dmactive
Debug: 3060 480 riscv-013.c:397 scan(): 41b 4i w 01130001 @10 -> + 00000000 @10
Debug: 3061 480 riscv-013.c:408 scan():  hartsello=275 dmactive -> 
Debug: 3062 480 riscv-013.c:397 scan(): 41b 4i - 00000000 @10 -> + 01130001 @10
Debug: 3063 480 riscv-013.c:408 scan():  ->  hartsello=275 dmactive
Debug: 3064 480 riscv-013.c:397 scan(): 41b 4i r 00000000 @11 -> + 00000000 @10
Debug: 3065 480 riscv-013.c:397 scan(): 41b 4i - 00000000 @11 -> + 00003082 @11
Debug: 3066 480 riscv-013.c:408 scan():  ->  allunavail anyunavail authenticated version=2
Debug: 3067 481 riscv-013.c:397 scan(): 41b 4i r 00000000 @10 -> + 00000000 @11
Debug: 3068 481 riscv-013.c:397 scan(): 41b 4i - 00000000 @10 -> + 01130001 @10
Debug: 3069 481 riscv-013.c:408 scan():  ->  hartsello=275 dmactive
Debug: 3070 481 riscv-013.c:397 scan(): 41b 4i w 01140001 @10 -> + 00000000 @10
Debug: 3071 481 riscv-013.c:408 scan():  hartsello=276 dmactive -> 
Debug: 3072 482 riscv-013.c:397 scan(): 41b 4i - 00000000 @10 -> + 01140001 @10
Debug: 3073 482 riscv-013.c:408 scan():  ->  hartsello=276 dmactive
Debug: 3074 482 riscv-013.c:397 scan(): 41b 4i r 00000000 @11 -> + 00000000 @10
Debug: 3075 482 riscv-013.c:397 scan(): 41b 4i - 00000000 @11 -> + 00003082 @11
Debug: 3076 482 riscv-013.c:408 scan():  ->  allunavail anyunavail authenticated version=2
Debug: 3077 482 riscv-013.c:397 scan(): 41b 4i r 00000000 @10 -> + 00000000 @11
Debug: 3078 483 riscv-013.c:397 scan(): 41b 4i - 00000000 @10 -> + 01140001 @10
Debug: 3079 483 riscv-013.c:408 scan():  ->  hartsello=276 dmactive
Debug: 3080 483 riscv-013.c:397 scan(): 41b 4i w 01150001 @10 -> + 00000000 @10
Debug: 3081 483 riscv-013.c:408 scan():  hartsello=277 dmactive -> 
Debug: 3082 484 riscv-013.c:397 scan(): 41b 4i - 00000000 @10 -> + 01150001 @10
Debug: 3083 484 riscv-013.c:408 scan():  ->  hartsello=277 dmactive
Debug: 3084 484 riscv-013.c:397 scan(): 41b 4i r 00000000 @11 -> + 00000000 @10
Debug: 3085 484 riscv-013.c:397 scan(): 41b 4i - 00000000 @11 -> + 00003082 @11
Debug: 3086 484 riscv-013.c:408 scan():  ->  allunavail anyunavail authenticated version=2
Debug: 3087 484 riscv-013.c:397 scan(): 41b 4i r 00000000 @10 -> + 00000000 @11
Debug: 3088 485 riscv-013.c:397 scan(): 41b 4i - 00000000 @10 -> + 01150001 @10
Debug: 3089 485 riscv-013.c:408 scan():  ->  hartsello=277 dmactive
Debug: 3090 485 riscv-013.c:397 scan(): 41b 4i w 01160001 @10 -> + 00000000 @10
Debug: 3091 485 riscv-013.c:408 scan():  hartsello=278 dmactive -> 
Debug: 3092 485 riscv-013.c:397 scan(): 41b 4i - 00000000 @10 -> + 01160001 @10
Debug: 3093 485 riscv-013.c:408 scan():  ->  hartsello=278 dmactive
Debug: 3094 485 riscv-013.c:397 scan(): 41b 4i r 00000000 @11 -> + 00000000 @10
Debug: 3095 486 riscv-013.c:397 scan(): 41b 4i - 00000000 @11 -> + 00003082 @11
Debug: 3096 486 riscv-013.c:408 scan():  ->  allunavail anyunavail authenticated version=2
Debug: 3097 486 riscv-013.c:397 scan(): 41b 4i r 00000000 @10 -> + 00000000 @11
Debug: 3098 486 riscv-013.c:397 scan(): 41b 4i - 00000000 @10 -> + 01160001 @10
Debug: 3099 486 riscv-013.c:408 scan():  ->  hartsello=278 dmactive
Debug: 3100 487 riscv-013.c:397 scan(): 41b 4i w 01170001 @10 -> + 00000000 @10
Debug: 3101 487 riscv-013.c:408 scan():  hartsello=279 dmactive -> 
Debug: 3102 487 riscv-013.c:397 scan(): 41b 4i - 00000000 @10 -> + 01170001 @10
Debug: 3103 487 riscv-013.c:408 scan():  ->  hartsello=279 dmactive
Debug: 3104 487 riscv-013.c:397 scan(): 41b 4i r 00000000 @11 -> + 00000000 @10
Debug: 3105 488 riscv-013.c:397 scan(): 41b 4i - 00000000 @11 -> + 00003082 @11
Debug: 3106 488 riscv-013.c:408 scan():  ->  allunavail anyunavail authenticated version=2
Debug: 3107 488 riscv-013.c:397 scan(): 41b 4i r 00000000 @10 -> + 00000000 @11
Debug: 3108 488 riscv-013.c:397 scan(): 41b 4i - 00000000 @10 -> + 01170001 @10
Debug: 3109 488 riscv-013.c:408 scan():  ->  hartsello=279 dmactive
Debug: 3110 488 riscv-013.c:397 scan(): 41b 4i w 01180001 @10 -> + 00000000 @10
Debug: 3111 488 riscv-013.c:408 scan():  hartsello=280 dmactive -> 
Debug: 3112 489 riscv-013.c:397 scan(): 41b 4i - 00000000 @10 -> + 01180001 @10
Debug: 3113 489 riscv-013.c:408 scan():  ->  hartsello=280 dmactive
Debug: 3114 489 riscv-013.c:397 scan(): 41b 4i r 00000000 @11 -> + 00000000 @10
Debug: 3115 489 riscv-013.c:397 scan(): 41b 4i - 00000000 @11 -> + 00003082 @11
Debug: 3116 489 riscv-013.c:408 scan():  ->  allunavail anyunavail authenticated version=2
Debug: 3117 490 riscv-013.c:397 scan(): 41b 4i r 00000000 @10 -> + 00000000 @11
Debug: 3118 490 riscv-013.c:397 scan(): 41b 4i - 00000000 @10 -> + 01180001 @10
Debug: 3119 490 riscv-013.c:408 scan():  ->  hartsello=280 dmactive
Debug: 3120 490 riscv-013.c:397 scan(): 41b 4i w 01190001 @10 -> + 00000000 @10
Debug: 3121 490 riscv-013.c:408 scan():  hartsello=281 dmactive -> 
Debug: 3122 490 riscv-013.c:397 scan(): 41b 4i - 00000000 @10 -> + 01190001 @10
Debug: 3123 490 riscv-013.c:408 scan():  ->  hartsello=281 dmactive
Debug: 3124 491 riscv-013.c:397 scan(): 41b 4i r 00000000 @11 -> + 00000000 @10
Debug: 3125 491 riscv-013.c:397 scan(): 41b 4i - 00000000 @11 -> + 00003082 @11
Debug: 3126 491 riscv-013.c:408 scan():  ->  allunavail anyunavail authenticated version=2
Debug: 3127 491 riscv-013.c:397 scan(): 41b 4i r 00000000 @10 -> + 00000000 @11
Debug: 3128 491 riscv-013.c:397 scan(): 41b 4i - 00000000 @10 -> + 01190001 @10
Debug: 3129 491 riscv-013.c:408 scan():  ->  hartsello=281 dmactive
Debug: 3130 492 riscv-013.c:397 scan(): 41b 4i w 011a0001 @10 -> + 00000000 @10
Debug: 3131 492 riscv-013.c:408 scan():  hartsello=282 dmactive -> 
Debug: 3132 492 riscv-013.c:397 scan(): 41b 4i - 00000000 @10 -> + 011a0001 @10
Debug: 3133 492 riscv-013.c:408 scan():  ->  hartsello=282 dmactive
Debug: 3134 492 riscv-013.c:397 scan(): 41b 4i r 00000000 @11 -> + 00000000 @10
Debug: 3135 492 riscv-013.c:397 scan(): 41b 4i - 00000000 @11 -> + 00003082 @11
Debug: 3136 492 riscv-013.c:408 scan():  ->  allunavail anyunavail authenticated version=2
Debug: 3137 493 riscv-013.c:397 scan(): 41b 4i r 00000000 @10 -> + 00000000 @11
Debug: 3138 493 riscv-013.c:397 scan(): 41b 4i - 00000000 @10 -> + 011a0001 @10
Debug: 3139 493 riscv-013.c:408 scan():  ->  hartsello=282 dmactive
Debug: 3140 493 riscv-013.c:397 scan(): 41b 4i w 011b0001 @10 -> + 00000000 @10
Debug: 3141 493 riscv-013.c:408 scan():  hartsello=283 dmactive -> 
Debug: 3142 494 riscv-013.c:397 scan(): 41b 4i - 00000000 @10 -> + 011b0001 @10
Debug: 3143 494 riscv-013.c:408 scan():  ->  hartsello=283 dmactive
Debug: 3144 494 riscv-013.c:397 scan(): 41b 4i r 00000000 @11 -> + 00000000 @10
Debug: 3145 494 riscv-013.c:397 scan(): 41b 4i - 00000000 @11 -> + 00003082 @11
Debug: 3146 494 riscv-013.c:408 scan():  ->  allunavail anyunavail authenticated version=2
Debug: 3147 495 riscv-013.c:397 scan(): 41b 4i r 00000000 @10 -> + 00000000 @11
Debug: 3148 495 riscv-013.c:397 scan(): 41b 4i - 00000000 @10 -> + 011b0001 @10
Debug: 3149 495 riscv-013.c:408 scan():  ->  hartsello=283 dmactive
Debug: 3150 495 riscv-013.c:397 scan(): 41b 4i w 011c0001 @10 -> + 00000000 @10
Debug: 3151 495 riscv-013.c:408 scan():  hartsello=284 dmactive -> 
Debug: 3152 496 riscv-013.c:397 scan(): 41b 4i - 00000000 @10 -> + 011c0001 @10
Debug: 3153 496 riscv-013.c:408 scan():  ->  hartsello=284 dmactive
Debug: 3154 496 riscv-013.c:397 scan(): 41b 4i r 00000000 @11 -> + 00000000 @10
Debug: 3155 496 riscv-013.c:397 scan(): 41b 4i - 00000000 @11 -> + 00003082 @11
Debug: 3156 496 riscv-013.c:408 scan():  ->  allunavail anyunavail authenticated version=2
Debug: 3157 497 riscv-013.c:397 scan(): 41b 4i r 00000000 @10 -> + 00000000 @11
Debug: 3158 497 riscv-013.c:397 scan(): 41b 4i - 00000000 @10 -> + 011c0001 @10
Debug: 3159 497 riscv-013.c:408 scan():  ->  hartsello=284 dmactive
Debug: 3160 497 riscv-013.c:397 scan(): 41b 4i w 011d0001 @10 -> + 00000000 @10
Debug: 3161 497 riscv-013.c:408 scan():  hartsello=285 dmactive -> 
Debug: 3162 497 riscv-013.c:397 scan(): 41b 4i - 00000000 @10 -> + 011d0001 @10
Debug: 3163 497 riscv-013.c:408 scan():  ->  hartsello=285 dmactive
Debug: 3164 498 riscv-013.c:397 scan(): 41b 4i r 00000000 @11 -> + 00000000 @10
Debug: 3165 498 riscv-013.c:397 scan(): 41b 4i - 00000000 @11 -> + 00003082 @11
Debug: 3166 498 riscv-013.c:408 scan():  ->  allunavail anyunavail authenticated version=2
Debug: 3167 498 riscv-013.c:397 scan(): 41b 4i r 00000000 @10 -> + 00000000 @11
Debug: 3168 498 riscv-013.c:397 scan(): 41b 4i - 00000000 @10 -> + 011d0001 @10
Debug: 3169 498 riscv-013.c:408 scan():  ->  hartsello=285 dmactive
Debug: 3170 499 riscv-013.c:397 scan(): 41b 4i w 011e0001 @10 -> + 00000000 @10
Debug: 3171 499 riscv-013.c:408 scan():  hartsello=286 dmactive -> 
Debug: 3172 499 riscv-013.c:397 scan(): 41b 4i - 00000000 @10 -> + 011e0001 @10
Debug: 3173 499 riscv-013.c:408 scan():  ->  hartsello=286 dmactive
Debug: 3174 499 riscv-013.c:397 scan(): 41b 4i r 00000000 @11 -> + 00000000 @10
Debug: 3175 500 riscv-013.c:397 scan(): 41b 4i - 00000000 @11 -> + 00003082 @11
Debug: 3176 500 riscv-013.c:408 scan():  ->  allunavail anyunavail authenticated version=2
Debug: 3177 500 riscv-013.c:397 scan(): 41b 4i r 00000000 @10 -> + 00000000 @11
Debug: 3178 500 riscv-013.c:397 scan(): 41b 4i - 00000000 @10 -> + 011e0001 @10
Debug: 3179 500 riscv-013.c:408 scan():  ->  hartsello=286 dmactive
Debug: 3180 500 riscv-013.c:397 scan(): 41b 4i w 011f0001 @10 -> + 00000000 @10
Debug: 3181 500 riscv-013.c:408 scan():  hartsello=287 dmactive -> 
Debug: 3183 501 riscv-013.c:397 scan(): 41b 4i - 00000000 @10 -> + 011f0001 @10
Debug: 3184 501 riscv-013.c:408 scan():  ->  hartsello=287 dmactive
Debug: 3185 501 riscv-013.c:397 scan(): 41b 4i r 00000000 @11 -> + 00000000 @10
Debug: 3186 501 riscv-013.c:397 scan(): 41b 4i - 00000000 @11 -> + 00003082 @11
Debug: 3187 501 riscv-013.c:408 scan():  ->  allunavail anyunavail authenticated version=2
Debug: 3188 502 riscv-013.c:397 scan(): 41b 4i r 00000000 @10 -> + 00000000 @11
Debug: 3189 502 riscv-013.c:397 scan(): 41b 4i - 00000000 @10 -> + 011f0001 @10
Debug: 3190 502 riscv-013.c:408 scan():  ->  hartsello=287 dmactive
Debug: 3191 502 riscv-013.c:397 scan(): 41b 4i w 01200001 @10 -> + 00000000 @10
Debug: 3192 502 riscv-013.c:408 scan():  hartsello=288 dmactive -> 
Debug: 3193 502 riscv-013.c:397 scan(): 41b 4i - 00000000 @10 -> + 01200001 @10
Debug: 3194 502 riscv-013.c:408 scan():  ->  hartsello=288 dmactive
Debug: 3195 503 riscv-013.c:397 scan(): 41b 4i r 00000000 @11 -> + 00000000 @10
Debug: 3196 503 riscv-013.c:397 scan(): 41b 4i - 00000000 @11 -> + 00003082 @11
Debug: 3197 503 riscv-013.c:408 scan():  ->  allunavail anyunavail authenticated version=2
Debug: 3198 503 riscv-013.c:397 scan(): 41b 4i r 00000000 @10 -> + 00000000 @11
Debug: 3199 503 riscv-013.c:397 scan(): 41b 4i - 00000000 @10 -> + 01200001 @10
Debug: 3200 503 riscv-013.c:408 scan():  ->  hartsello=288 dmactive
Debug: 3201 504 riscv-013.c:397 scan(): 41b 4i w 01210001 @10 -> + 00000000 @10
Debug: 3202 504 riscv-013.c:408 scan():  hartsello=289 dmactive -> 
Debug: 3203 504 riscv-013.c:397 scan(): 41b 4i - 00000000 @10 -> + 01210001 @10
Debug: 3204 504 riscv-013.c:408 scan():  ->  hartsello=289 dmactive
Debug: 3205 504 riscv-013.c:397 scan(): 41b 4i r 00000000 @11 -> + 00000000 @10
Debug: 3206 505 riscv-013.c:397 scan(): 41b 4i - 00000000 @11 -> + 00003082 @11
Debug: 3207 505 riscv-013.c:408 scan():  ->  allunavail anyunavail authenticated version=2
Debug: 3208 505 riscv-013.c:397 scan(): 41b 4i r 00000000 @10 -> + 00000000 @11
Debug: 3209 505 riscv-013.c:397 scan(): 41b 4i - 00000000 @10 -> + 01210001 @10
Debug: 3210 505 riscv-013.c:408 scan():  ->  hartsello=289 dmactive
Debug: 3211 505 riscv-013.c:397 scan(): 41b 4i w 01220001 @10 -> + 00000000 @10
Debug: 3212 505 riscv-013.c:408 scan():  hartsello=290 dmactive -> 
Debug: 3213 506 riscv-013.c:397 scan(): 41b 4i - 00000000 @10 -> + 01220001 @10
Debug: 3214 506 riscv-013.c:408 scan():  ->  hartsello=290 dmactive
Debug: 3215 506 riscv-013.c:397 scan(): 41b 4i r 00000000 @11 -> + 00000000 @10
Debug: 3216 506 riscv-013.c:397 scan(): 41b 4i - 00000000 @11 -> + 00003082 @11
Debug: 3217 506 riscv-013.c:408 scan():  ->  allunavail anyunavail authenticated version=2
Debug: 3218 507 riscv-013.c:397 scan(): 41b 4i r 00000000 @10 -> + 00000000 @11
Debug: 3219 507 riscv-013.c:397 scan(): 41b 4i - 00000000 @10 -> + 01220001 @10
Debug: 3220 507 riscv-013.c:408 scan():  ->  hartsello=290 dmactive
Debug: 3221 507 riscv-013.c:397 scan(): 41b 4i w 01230001 @10 -> + 00000000 @10
Debug: 3222 507 riscv-013.c:408 scan():  hartsello=291 dmactive -> 
Debug: 3223 508 riscv-013.c:397 scan(): 41b 4i - 00000000 @10 -> + 01230001 @10
Debug: 3224 508 riscv-013.c:408 scan():  ->  hartsello=291 dmactive
Debug: 3225 508 riscv-013.c:397 scan(): 41b 4i r 00000000 @11 -> + 00000000 @10
Debug: 3226 508 riscv-013.c:397 scan(): 41b 4i - 00000000 @11 -> + 00003082 @11
Debug: 3227 508 riscv-013.c:408 scan():  ->  allunavail anyunavail authenticated version=2
Debug: 3228 508 riscv-013.c:397 scan(): 41b 4i r 00000000 @10 -> + 00000000 @11
Debug: 3229 509 riscv-013.c:397 scan(): 41b 4i - 00000000 @10 -> + 01230001 @10
Debug: 3230 509 riscv-013.c:408 scan():  ->  hartsello=291 dmactive
Debug: 3231 509 riscv-013.c:397 scan(): 41b 4i w 01240001 @10 -> + 00000000 @10
Debug: 3232 509 riscv-013.c:408 scan():  hartsello=292 dmactive -> 
Debug: 3233 509 riscv-013.c:397 scan(): 41b 4i - 00000000 @10 -> + 01240001 @10
Debug: 3234 509 riscv-013.c:408 scan():  ->  hartsello=292 dmactive
Debug: 3235 510 riscv-013.c:397 scan(): 41b 4i r 00000000 @11 -> + 00000000 @10
Debug: 3236 510 riscv-013.c:397 scan(): 41b 4i - 00000000 @11 -> + 00003082 @11
Debug: 3237 510 riscv-013.c:408 scan():  ->  allunavail anyunavail authenticated version=2
Debug: 3238 510 riscv-013.c:397 scan(): 41b 4i r 00000000 @10 -> + 00000000 @11
Debug: 3239 510 riscv-013.c:397 scan(): 41b 4i - 00000000 @10 -> + 01240001 @10
Debug: 3240 510 riscv-013.c:408 scan():  ->  hartsello=292 dmactive
Debug: 3241 511 riscv-013.c:397 scan(): 41b 4i w 01250001 @10 -> + 00000000 @10
Debug: 3242 511 riscv-013.c:408 scan():  hartsello=293 dmactive -> 
Debug: 3243 511 riscv-013.c:397 scan(): 41b 4i - 00000000 @10 -> + 01250001 @10
Debug: 3244 511 riscv-013.c:408 scan():  ->  hartsello=293 dmactive
Debug: 3245 511 riscv-013.c:397 scan(): 41b 4i r 00000000 @11 -> + 00000000 @10
Debug: 3246 511 riscv-013.c:397 scan(): 41b 4i - 00000000 @11 -> + 00003082 @11
Debug: 3247 511 riscv-013.c:408 scan():  ->  allunavail anyunavail authenticated version=2
Debug: 3248 512 riscv-013.c:397 scan(): 41b 4i r 00000000 @10 -> + 00000000 @11
Debug: 3249 512 riscv-013.c:397 scan(): 41b 4i - 00000000 @10 -> + 01250001 @10
Debug: 3250 512 riscv-013.c:408 scan():  ->  hartsello=293 dmactive
Debug: 3251 512 riscv-013.c:397 scan(): 41b 4i w 01260001 @10 -> + 00000000 @10
Debug: 3252 512 riscv-013.c:408 scan():  hartsello=294 dmactive -> 
Debug: 3253 512 riscv-013.c:397 scan(): 41b 4i - 00000000 @10 -> + 01260001 @10
Debug: 3254 512 riscv-013.c:408 scan():  ->  hartsello=294 dmactive
Debug: 3255 513 riscv-013.c:397 scan(): 41b 4i r 00000000 @11 -> + 00000000 @10
Debug: 3256 513 riscv-013.c:397 scan(): 41b 4i - 00000000 @11 -> + 00003082 @11
Debug: 3257 513 riscv-013.c:408 scan():  ->  allunavail anyunavail authenticated version=2
Debug: 3258 513 riscv-013.c:397 scan(): 41b 4i r 00000000 @10 -> + 00000000 @11
Debug: 3259 514 riscv-013.c:397 scan(): 41b 4i - 00000000 @10 -> + 01260001 @10
Debug: 3260 514 riscv-013.c:408 scan():  ->  hartsello=294 dmactive
Debug: 3261 514 riscv-013.c:397 scan(): 41b 4i w 01270001 @10 -> + 00000000 @10
Debug: 3262 514 riscv-013.c:408 scan():  hartsello=295 dmactive -> 
Debug: 3263 514 riscv-013.c:397 scan(): 41b 4i - 00000000 @10 -> + 01270001 @10
Debug: 3264 514 riscv-013.c:408 scan():  ->  hartsello=295 dmactive
Debug: 3265 514 riscv-013.c:397 scan(): 41b 4i r 00000000 @11 -> + 00000000 @10
Debug: 3266 514 riscv-013.c:397 scan(): 41b 4i - 00000000 @11 -> + 00003082 @11
Debug: 3267 515 riscv-013.c:408 scan():  ->  allunavail anyunavail authenticated version=2
Debug: 3268 515 riscv-013.c:397 scan(): 41b 4i r 00000000 @10 -> + 00000000 @11
Debug: 3269 515 riscv-013.c:397 scan(): 41b 4i - 00000000 @10 -> + 01270001 @10
Debug: 3270 515 riscv-013.c:408 scan():  ->  hartsello=295 dmactive
Debug: 3271 515 riscv-013.c:397 scan(): 41b 4i w 01280001 @10 -> + 00000000 @10
Debug: 3272 515 riscv-013.c:408 scan():  hartsello=296 dmactive -> 
Debug: 3273 516 riscv-013.c:397 scan(): 41b 4i - 00000000 @10 -> + 01280001 @10
Debug: 3274 516 riscv-013.c:408 scan():  ->  hartsello=296 dmactive
Debug: 3275 516 riscv-013.c:397 scan(): 41b 4i r 00000000 @11 -> + 00000000 @10
Debug: 3276 516 riscv-013.c:397 scan(): 41b 4i - 00000000 @11 -> + 00003082 @11
Debug: 3277 516 riscv-013.c:408 scan():  ->  allunavail anyunavail authenticated version=2
Debug: 3278 516 riscv-013.c:397 scan(): 41b 4i r 00000000 @10 -> + 00000000 @11
Debug: 3279 517 riscv-013.c:397 scan(): 41b 4i - 00000000 @10 -> + 01280001 @10
Debug: 3280 517 riscv-013.c:408 scan():  ->  hartsello=296 dmactive
Debug: 3281 517 riscv-013.c:397 scan(): 41b 4i w 01290001 @10 -> + 00000000 @10
Debug: 3282 517 riscv-013.c:408 scan():  hartsello=297 dmactive -> 
Debug: 3283 517 riscv-013.c:397 scan(): 41b 4i - 00000000 @10 -> + 01290001 @10
Debug: 3284 517 riscv-013.c:408 scan():  ->  hartsello=297 dmactive
Debug: 3285 518 riscv-013.c:397 scan(): 41b 4i r 00000000 @11 -> + 00000000 @10
Debug: 3286 518 riscv-013.c:397 scan(): 41b 4i - 00000000 @11 -> + 00003082 @11
Debug: 3287 518 riscv-013.c:408 scan():  ->  allunavail anyunavail authenticated version=2
Debug: 3288 518 riscv-013.c:397 scan(): 41b 4i r 00000000 @10 -> + 00000000 @11
Debug: 3289 518 riscv-013.c:397 scan(): 41b 4i - 00000000 @10 -> + 01290001 @10
Debug: 3290 518 riscv-013.c:408 scan():  ->  hartsello=297 dmactive
Debug: 3291 519 riscv-013.c:397 scan(): 41b 4i w 012a0001 @10 -> + 00000000 @10
Debug: 3292 519 riscv-013.c:408 scan():  hartsello=298 dmactive -> 
Debug: 3293 519 riscv-013.c:397 scan(): 41b 4i - 00000000 @10 -> + 012a0001 @10
Debug: 3294 519 riscv-013.c:408 scan():  ->  hartsello=298 dmactive
Debug: 3295 519 riscv-013.c:397 scan(): 41b 4i r 00000000 @11 -> + 00000000 @10
Debug: 3296 520 riscv-013.c:397 scan(): 41b 4i - 00000000 @11 -> + 00003082 @11
Debug: 3297 520 riscv-013.c:408 scan():  ->  allunavail anyunavail authenticated version=2
Debug: 3298 520 riscv-013.c:397 scan(): 41b 4i r 00000000 @10 -> + 00000000 @11
Debug: 3299 520 riscv-013.c:397 scan(): 41b 4i - 00000000 @10 -> + 012a0001 @10
Debug: 3300 520 riscv-013.c:408 scan():  ->  hartsello=298 dmactive
Debug: 3301 521 riscv-013.c:397 scan(): 41b 4i w 012b0001 @10 -> + 00000000 @10
Debug: 3302 521 riscv-013.c:408 scan():  hartsello=299 dmactive -> 
Debug: 3303 521 riscv-013.c:397 scan(): 41b 4i - 00000000 @10 -> + 012b0001 @10
Debug: 3304 521 riscv-013.c:408 scan():  ->  hartsello=299 dmactive
Debug: 3305 521 riscv-013.c:397 scan(): 41b 4i r 00000000 @11 -> + 00000000 @10
Debug: 3306 521 riscv-013.c:397 scan(): 41b 4i - 00000000 @11 -> + 00003082 @11
Debug: 3307 521 riscv-013.c:408 scan():  ->  allunavail anyunavail authenticated version=2
Debug: 3308 522 riscv-013.c:397 scan(): 41b 4i r 00000000 @10 -> + 00000000 @11
Debug: 3309 522 riscv-013.c:397 scan(): 41b 4i - 00000000 @10 -> + 012b0001 @10
Debug: 3310 522 riscv-013.c:408 scan():  ->  hartsello=299 dmactive
Debug: 3311 522 riscv-013.c:397 scan(): 41b 4i w 012c0001 @10 -> + 00000000 @10
Debug: 3312 522 riscv-013.c:408 scan():  hartsello=300 dmactive -> 
Debug: 3313 523 riscv-013.c:397 scan(): 41b 4i - 00000000 @10 -> + 012c0001 @10
Debug: 3314 523 riscv-013.c:408 scan():  ->  hartsello=300 dmactive
Debug: 3315 523 riscv-013.c:397 scan(): 41b 4i r 00000000 @11 -> + 00000000 @10
Debug: 3316 523 riscv-013.c:397 scan(): 41b 4i - 00000000 @11 -> + 00003082 @11
Debug: 3317 523 riscv-013.c:408 scan():  ->  allunavail anyunavail authenticated version=2
Debug: 3318 524 riscv-013.c:397 scan(): 41b 4i r 00000000 @10 -> + 00000000 @11
Debug: 3319 524 riscv-013.c:397 scan(): 41b 4i - 00000000 @10 -> + 012c0001 @10
Debug: 3320 524 riscv-013.c:408 scan():  ->  hartsello=300 dmactive
Debug: 3321 524 riscv-013.c:397 scan(): 41b 4i w 012d0001 @10 -> + 00000000 @10
Debug: 3322 524 riscv-013.c:408 scan():  hartsello=301 dmactive -> 
Debug: 3323 525 riscv-013.c:397 scan(): 41b 4i - 00000000 @10 -> + 012d0001 @10
Debug: 3324 525 riscv-013.c:408 scan():  ->  hartsello=301 dmactive
Debug: 3325 525 riscv-013.c:397 scan(): 41b 4i r 00000000 @11 -> + 00000000 @10
Debug: 3326 525 riscv-013.c:397 scan(): 41b 4i - 00000000 @11 -> + 00003082 @11
Debug: 3327 525 riscv-013.c:408 scan():  ->  allunavail anyunavail authenticated version=2
Debug: 3328 525 riscv-013.c:397 scan(): 41b 4i r 00000000 @10 -> + 00000000 @11
Debug: 3329 526 riscv-013.c:397 scan(): 41b 4i - 00000000 @10 -> + 012d0001 @10
Debug: 3330 526 riscv-013.c:408 scan():  ->  hartsello=301 dmactive
Debug: 3331 526 riscv-013.c:397 scan(): 41b 4i w 012e0001 @10 -> + 00000000 @10
Debug: 3332 526 riscv-013.c:408 scan():  hartsello=302 dmactive -> 
Debug: 3333 526 riscv-013.c:397 scan(): 41b 4i - 00000000 @10 -> + 012e0001 @10
Debug: 3334 526 riscv-013.c:408 scan():  ->  hartsello=302 dmactive
Debug: 3335 526 riscv-013.c:397 scan(): 41b 4i r 00000000 @11 -> + 00000000 @10
Debug: 3336 527 riscv-013.c:397 scan(): 41b 4i - 00000000 @11 -> + 00003082 @11
Debug: 3337 527 riscv-013.c:408 scan():  ->  allunavail anyunavail authenticated version=2
Debug: 3338 527 riscv-013.c:397 scan(): 41b 4i r 00000000 @10 -> + 00000000 @11
Debug: 3339 527 riscv-013.c:397 scan(): 41b 4i - 00000000 @10 -> + 012e0001 @10
Debug: 3340 527 riscv-013.c:408 scan():  ->  hartsello=302 dmactive
Debug: 3341 528 riscv-013.c:397 scan(): 41b 4i w 012f0001 @10 -> + 00000000 @10
Debug: 3342 528 riscv-013.c:408 scan():  hartsello=303 dmactive -> 
Debug: 3343 528 riscv-013.c:397 scan(): 41b 4i - 00000000 @10 -> + 012f0001 @10
Debug: 3344 528 riscv-013.c:408 scan():  ->  hartsello=303 dmactive
Debug: 3345 528 riscv-013.c:397 scan(): 41b 4i r 00000000 @11 -> + 00000000 @10
Debug: 3346 528 riscv-013.c:397 scan(): 41b 4i - 00000000 @11 -> + 00003082 @11
Debug: 3347 529 riscv-013.c:408 scan():  ->  allunavail anyunavail authenticated version=2
Debug: 3348 529 riscv-013.c:397 scan(): 41b 4i r 00000000 @10 -> + 00000000 @11
Debug: 3349 529 riscv-013.c:397 scan(): 41b 4i - 00000000 @10 -> + 012f0001 @10
Debug: 3350 529 riscv-013.c:408 scan():  ->  hartsello=303 dmactive
Debug: 3351 529 riscv-013.c:397 scan(): 41b 4i w 01300001 @10 -> + 00000000 @10
Debug: 3352 529 riscv-013.c:408 scan():  hartsello=304 dmactive -> 
Debug: 3353 530 riscv-013.c:397 scan(): 41b 4i - 00000000 @10 -> + 01300001 @10
Debug: 3354 530 riscv-013.c:408 scan():  ->  hartsello=304 dmactive
Debug: 3355 530 riscv-013.c:397 scan(): 41b 4i r 00000000 @11 -> + 00000000 @10
Debug: 3356 530 riscv-013.c:397 scan(): 41b 4i - 00000000 @11 -> + 00003082 @11
Debug: 3357 530 riscv-013.c:408 scan():  ->  allunavail anyunavail authenticated version=2
Debug: 3358 530 riscv-013.c:397 scan(): 41b 4i r 00000000 @10 -> + 00000000 @11
Debug: 3359 531 riscv-013.c:397 scan(): 41b 4i - 00000000 @10 -> + 01300001 @10
Debug: 3360 531 riscv-013.c:408 scan():  ->  hartsello=304 dmactive
Debug: 3361 531 riscv-013.c:397 scan(): 41b 4i w 01310001 @10 -> + 00000000 @10
Debug: 3362 531 riscv-013.c:408 scan():  hartsello=305 dmactive -> 
Debug: 3363 531 riscv-013.c:397 scan(): 41b 4i - 00000000 @10 -> + 01310001 @10
Debug: 3364 531 riscv-013.c:408 scan():  ->  hartsello=305 dmactive
Debug: 3365 532 riscv-013.c:397 scan(): 41b 4i r 00000000 @11 -> + 00000000 @10
Debug: 3366 532 riscv-013.c:397 scan(): 41b 4i - 00000000 @11 -> + 00003082 @11
Debug: 3367 532 riscv-013.c:408 scan():  ->  allunavail anyunavail authenticated version=2
Debug: 3368 532 riscv-013.c:397 scan(): 41b 4i r 00000000 @10 -> + 00000000 @11
Debug: 3369 533 riscv-013.c:397 scan(): 41b 4i - 00000000 @10 -> + 01310001 @10
Debug: 3370 533 riscv-013.c:408 scan():  ->  hartsello=305 dmactive
Debug: 3371 533 riscv-013.c:397 scan(): 41b 4i w 01320001 @10 -> + 00000000 @10
Debug: 3372 533 riscv-013.c:408 scan():  hartsello=306 dmactive -> 
Debug: 3373 533 riscv-013.c:397 scan(): 41b 4i - 00000000 @10 -> + 01320001 @10
Debug: 3374 533 riscv-013.c:408 scan():  ->  hartsello=306 dmactive
Debug: 3375 534 riscv-013.c:397 scan(): 41b 4i r 00000000 @11 -> + 00000000 @10
Debug: 3376 534 riscv-013.c:397 scan(): 41b 4i - 00000000 @11 -> + 00003082 @11
Debug: 3377 534 riscv-013.c:408 scan():  ->  allunavail anyunavail authenticated version=2
Debug: 3378 534 riscv-013.c:397 scan(): 41b 4i r 00000000 @10 -> + 00000000 @11
Debug: 3379 534 riscv-013.c:397 scan(): 41b 4i - 00000000 @10 -> + 01320001 @10
Debug: 3380 534 riscv-013.c:408 scan():  ->  hartsello=306 dmactive
Debug: 3381 535 riscv-013.c:397 scan(): 41b 4i w 01330001 @10 -> + 00000000 @10
Debug: 3382 535 riscv-013.c:408 scan():  hartsello=307 dmactive -> 
Debug: 3383 535 riscv-013.c:397 scan(): 41b 4i - 00000000 @10 -> + 01330001 @10
Debug: 3384 535 riscv-013.c:408 scan():  ->  hartsello=307 dmactive
Debug: 3385 535 riscv-013.c:397 scan(): 41b 4i r 00000000 @11 -> + 00000000 @10
Debug: 3386 536 riscv-013.c:397 scan(): 41b 4i - 00000000 @11 -> + 00003082 @11
Debug: 3387 536 riscv-013.c:408 scan():  ->  allunavail anyunavail authenticated version=2
Debug: 3388 536 riscv-013.c:397 scan(): 41b 4i r 00000000 @10 -> + 00000000 @11
Debug: 3389 536 riscv-013.c:397 scan(): 41b 4i - 00000000 @10 -> + 01330001 @10
Debug: 3390 536 riscv-013.c:408 scan():  ->  hartsello=307 dmactive
Debug: 3391 536 riscv-013.c:397 scan(): 41b 4i w 01340001 @10 -> + 00000000 @10
Debug: 3392 536 riscv-013.c:408 scan():  hartsello=308 dmactive -> 
Debug: 3393 537 riscv-013.c:397 scan(): 41b 4i - 00000000 @10 -> + 01340001 @10
Debug: 3394 537 riscv-013.c:408 scan():  ->  hartsello=308 dmactive
Debug: 3395 537 riscv-013.c:397 scan(): 41b 4i r 00000000 @11 -> + 00000000 @10
Debug: 3396 537 riscv-013.c:397 scan(): 41b 4i - 00000000 @11 -> + 00003082 @11
Debug: 3397 537 riscv-013.c:408 scan():  ->  allunavail anyunavail authenticated version=2
Debug: 3398 537 riscv-013.c:397 scan(): 41b 4i r 00000000 @10 -> + 00000000 @11
Debug: 3399 538 riscv-013.c:397 scan(): 41b 4i - 00000000 @10 -> + 01340001 @10
Debug: 3400 538 riscv-013.c:408 scan():  ->  hartsello=308 dmactive
Debug: 3401 538 riscv-013.c:397 scan(): 41b 4i w 01350001 @10 -> + 00000000 @10
Debug: 3402 538 riscv-013.c:408 scan():  hartsello=309 dmactive -> 
Debug: 3403 538 riscv-013.c:397 scan(): 41b 4i - 00000000 @10 -> + 01350001 @10
Debug: 3404 538 riscv-013.c:408 scan():  ->  hartsello=309 dmactive
Debug: 3405 538 riscv-013.c:397 scan(): 41b 4i r 00000000 @11 -> + 00000000 @10
Debug: 3406 539 riscv-013.c:397 scan(): 41b 4i - 00000000 @11 -> + 00003082 @11
Debug: 3407 539 riscv-013.c:408 scan():  ->  allunavail anyunavail authenticated version=2
Debug: 3408 539 riscv-013.c:397 scan(): 41b 4i r 00000000 @10 -> + 00000000 @11
Debug: 3409 539 riscv-013.c:397 scan(): 41b 4i - 00000000 @10 -> + 01350001 @10
Debug: 3410 539 riscv-013.c:408 scan():  ->  hartsello=309 dmactive
Debug: 3411 539 riscv-013.c:397 scan(): 41b 4i w 01360001 @10 -> + 00000000 @10
Debug: 3412 539 riscv-013.c:408 scan():  hartsello=310 dmactive -> 
Debug: 3413 540 riscv-013.c:397 scan(): 41b 4i - 00000000 @10 -> + 01360001 @10
Debug: 3414 540 riscv-013.c:408 scan():  ->  hartsello=310 dmactive
Debug: 3415 540 riscv-013.c:397 scan(): 41b 4i r 00000000 @11 -> + 00000000 @10
Debug: 3416 540 riscv-013.c:397 scan(): 41b 4i - 00000000 @11 -> + 00003082 @11
Debug: 3417 540 riscv-013.c:408 scan():  ->  allunavail anyunavail authenticated version=2
Debug: 3418 541 riscv-013.c:397 scan(): 41b 4i r 00000000 @10 -> + 00000000 @11
Debug: 3419 541 riscv-013.c:397 scan(): 41b 4i - 00000000 @10 -> + 01360001 @10
Debug: 3420 541 riscv-013.c:408 scan():  ->  hartsello=310 dmactive
Debug: 3421 541 riscv-013.c:397 scan(): 41b 4i w 01370001 @10 -> + 00000000 @10
Debug: 3422 541 riscv-013.c:408 scan():  hartsello=311 dmactive -> 
Debug: 3423 541 riscv-013.c:397 scan(): 41b 4i - 00000000 @10 -> + 01370001 @10
Debug: 3424 541 riscv-013.c:408 scan():  ->  hartsello=311 dmactive
Debug: 3425 542 riscv-013.c:397 scan(): 41b 4i r 00000000 @11 -> + 00000000 @10
Debug: 3426 542 riscv-013.c:397 scan(): 41b 4i - 00000000 @11 -> + 00003082 @11
Debug: 3427 542 riscv-013.c:408 scan():  ->  allunavail anyunavail authenticated version=2
Debug: 3428 542 riscv-013.c:397 scan(): 41b 4i r 00000000 @10 -> + 00000000 @11
Debug: 3429 543 riscv-013.c:397 scan(): 41b 4i - 00000000 @10 -> + 01370001 @10
Debug: 3430 543 riscv-013.c:408 scan():  ->  hartsello=311 dmactive
Debug: 3431 543 riscv-013.c:397 scan(): 41b 4i w 01380001 @10 -> + 00000000 @10
Debug: 3432 543 riscv-013.c:408 scan():  hartsello=312 dmactive -> 
Debug: 3433 543 riscv-013.c:397 scan(): 41b 4i - 00000000 @10 -> + 01380001 @10
Debug: 3434 543 riscv-013.c:408 scan():  ->  hartsello=312 dmactive
Debug: 3435 544 riscv-013.c:397 scan(): 41b 4i r 00000000 @11 -> + 00000000 @10
Debug: 3436 544 riscv-013.c:397 scan(): 41b 4i - 00000000 @11 -> + 00003082 @11
Debug: 3437 544 riscv-013.c:408 scan():  ->  allunavail anyunavail authenticated version=2
Debug: 3438 544 riscv-013.c:397 scan(): 41b 4i r 00000000 @10 -> + 00000000 @11
Debug: 3439 544 riscv-013.c:397 scan(): 41b 4i - 00000000 @10 -> + 01380001 @10
Debug: 3440 544 riscv-013.c:408 scan():  ->  hartsello=312 dmactive
Debug: 3441 545 riscv-013.c:397 scan(): 41b 4i w 01390001 @10 -> + 00000000 @10
Debug: 3442 545 riscv-013.c:408 scan():  hartsello=313 dmactive -> 
Debug: 3443 545 riscv-013.c:397 scan(): 41b 4i - 00000000 @10 -> + 01390001 @10
Debug: 3444 545 riscv-013.c:408 scan():  ->  hartsello=313 dmactive
Debug: 3445 545 riscv-013.c:397 scan(): 41b 4i r 00000000 @11 -> + 00000000 @10
Debug: 3446 546 riscv-013.c:397 scan(): 41b 4i - 00000000 @11 -> + 00003082 @11
Debug: 3447 546 riscv-013.c:408 scan():  ->  allunavail anyunavail authenticated version=2
Debug: 3448 546 riscv-013.c:397 scan(): 41b 4i r 00000000 @10 -> + 00000000 @11
Debug: 3449 546 riscv-013.c:397 scan(): 41b 4i - 00000000 @10 -> + 01390001 @10
Debug: 3450 546 riscv-013.c:408 scan():  ->  hartsello=313 dmactive
Debug: 3451 547 riscv-013.c:397 scan(): 41b 4i w 013a0001 @10 -> + 00000000 @10
Debug: 3452 547 riscv-013.c:408 scan():  hartsello=314 dmactive -> 
Debug: 3453 547 riscv-013.c:397 scan(): 41b 4i - 00000000 @10 -> + 013a0001 @10
Debug: 3454 547 riscv-013.c:408 scan():  ->  hartsello=314 dmactive
Debug: 3455 547 riscv-013.c:397 scan(): 41b 4i r 00000000 @11 -> + 00000000 @10
Debug: 3456 547 riscv-013.c:397 scan(): 41b 4i - 00000000 @11 -> + 00003082 @11
Debug: 3457 547 riscv-013.c:408 scan():  ->  allunavail anyunavail authenticated version=2
Debug: 3458 548 riscv-013.c:397 scan(): 41b 4i r 00000000 @10 -> + 00000000 @11
Debug: 3459 548 riscv-013.c:397 scan(): 41b 4i - 00000000 @10 -> + 013a0001 @10
Debug: 3460 548 riscv-013.c:408 scan():  ->  hartsello=314 dmactive
Debug: 3461 548 riscv-013.c:397 scan(): 41b 4i w 013b0001 @10 -> + 00000000 @10
Debug: 3462 548 riscv-013.c:408 scan():  hartsello=315 dmactive -> 
Debug: 3463 549 riscv-013.c:397 scan(): 41b 4i - 00000000 @10 -> + 013b0001 @10
Debug: 3464 549 riscv-013.c:408 scan():  ->  hartsello=315 dmactive
Debug: 3465 549 riscv-013.c:397 scan(): 41b 4i r 00000000 @11 -> + 00000000 @10
Debug: 3466 549 riscv-013.c:397 scan(): 41b 4i - 00000000 @11 -> + 00003082 @11
Debug: 3467 549 riscv-013.c:408 scan():  ->  allunavail anyunavail authenticated version=2
Debug: 3468 550 riscv-013.c:397 scan(): 41b 4i r 00000000 @10 -> + 00000000 @11
Debug: 3469 550 riscv-013.c:397 scan(): 41b 4i - 00000000 @10 -> + 013b0001 @10
Debug: 3470 550 riscv-013.c:408 scan():  ->  hartsello=315 dmactive
Debug: 3471 550 riscv-013.c:397 scan(): 41b 4i w 013c0001 @10 -> + 00000000 @10
Debug: 3472 550 riscv-013.c:408 scan():  hartsello=316 dmactive -> 
Debug: 3473 550 riscv-013.c:397 scan(): 41b 4i - 00000000 @10 -> + 013c0001 @10
Debug: 3474 550 riscv-013.c:408 scan():  ->  hartsello=316 dmactive
Debug: 3475 551 riscv-013.c:397 scan(): 41b 4i r 00000000 @11 -> + 00000000 @10
Debug: 3476 551 riscv-013.c:397 scan(): 41b 4i - 00000000 @11 -> + 00003082 @11
Debug: 3477 551 riscv-013.c:408 scan():  ->  allunavail anyunavail authenticated version=2
Debug: 3478 551 riscv-013.c:397 scan(): 41b 4i r 00000000 @10 -> + 00000000 @11
Debug: 3479 552 riscv-013.c:397 scan(): 41b 4i - 00000000 @10 -> + 013c0001 @10
Debug: 3480 552 riscv-013.c:408 scan():  ->  hartsello=316 dmactive
Debug: 3481 552 riscv-013.c:397 scan(): 41b 4i w 013d0001 @10 -> + 00000000 @10
Debug: 3482 552 riscv-013.c:408 scan():  hartsello=317 dmactive -> 
Debug: 3483 552 riscv-013.c:397 scan(): 41b 4i - 00000000 @10 -> + 013d0001 @10
Debug: 3484 552 riscv-013.c:408 scan():  ->  hartsello=317 dmactive
Debug: 3485 553 riscv-013.c:397 scan(): 41b 4i r 00000000 @11 -> + 00000000 @10
Debug: 3486 553 riscv-013.c:397 scan(): 41b 4i - 00000000 @11 -> + 00003082 @11
Debug: 3487 553 riscv-013.c:408 scan():  ->  allunavail anyunavail authenticated version=2
Debug: 3488 553 riscv-013.c:397 scan(): 41b 4i r 00000000 @10 -> + 00000000 @11
Debug: 3489 553 riscv-013.c:397 scan(): 41b 4i - 00000000 @10 -> + 013d0001 @10
Debug: 3490 553 riscv-013.c:408 scan():  ->  hartsello=317 dmactive
Debug: 3491 554 riscv-013.c:397 scan(): 41b 4i w 013e0001 @10 -> + 00000000 @10
Debug: 3492 554 riscv-013.c:408 scan():  hartsello=318 dmactive -> 
Debug: 3493 554 riscv-013.c:397 scan(): 41b 4i - 00000000 @10 -> + 013e0001 @10
Debug: 3494 554 riscv-013.c:408 scan():  ->  hartsello=318 dmactive
Debug: 3495 554 riscv-013.c:397 scan(): 41b 4i r 00000000 @11 -> + 00000000 @10
Debug: 3496 555 riscv-013.c:397 scan(): 41b 4i - 00000000 @11 -> + 00003082 @11
Debug: 3497 555 riscv-013.c:408 scan():  ->  allunavail anyunavail authenticated version=2
Debug: 3498 555 riscv-013.c:397 scan(): 41b 4i r 00000000 @10 -> + 00000000 @11
Debug: 3499 555 riscv-013.c:397 scan(): 41b 4i - 00000000 @10 -> + 013e0001 @10
Debug: 3500 555 riscv-013.c:408 scan():  ->  hartsello=318 dmactive
Debug: 3501 556 riscv-013.c:397 scan(): 41b 4i w 013f0001 @10 -> + 00000000 @10
Debug: 3502 556 riscv-013.c:408 scan():  hartsello=319 dmactive -> 
Debug: 3503 556 riscv-013.c:397 scan(): 41b 4i - 00000000 @10 -> + 013f0001 @10
Debug: 3504 556 riscv-013.c:408 scan():  ->  hartsello=319 dmactive
Debug: 3505 556 riscv-013.c:397 scan(): 41b 4i r 00000000 @11 -> + 00000000 @10
Debug: 3506 556 riscv-013.c:397 scan(): 41b 4i - 00000000 @11 -> + 00003082 @11
Debug: 3507 556 riscv-013.c:408 scan():  ->  allunavail anyunavail authenticated version=2
Debug: 3508 557 riscv-013.c:397 scan(): 41b 4i r 00000000 @10 -> + 00000000 @11
Debug: 3509 557 riscv-013.c:397 scan(): 41b 4i - 00000000 @10 -> + 013f0001 @10
Debug: 3510 557 riscv-013.c:408 scan():  ->  hartsello=319 dmactive
Debug: 3511 557 riscv-013.c:397 scan(): 41b 4i w 01400001 @10 -> + 00000000 @10
Debug: 3512 557 riscv-013.c:408 scan():  hartsello=320 dmactive -> 
Debug: 3513 557 riscv-013.c:397 scan(): 41b 4i - 00000000 @10 -> + 01400001 @10
Debug: 3514 557 riscv-013.c:408 scan():  ->  hartsello=320 dmactive
Debug: 3515 558 riscv-013.c:397 scan(): 41b 4i r 00000000 @11 -> + 00000000 @10
Debug: 3516 558 riscv-013.c:397 scan(): 41b 4i - 00000000 @11 -> + 00003082 @11
Debug: 3517 558 riscv-013.c:408 scan():  ->  allunavail anyunavail authenticated version=2
Debug: 3518 558 riscv-013.c:397 scan(): 41b 4i r 00000000 @10 -> + 00000000 @11
Debug: 3519 558 riscv-013.c:397 scan(): 41b 4i - 00000000 @10 -> + 01400001 @10
Debug: 3520 558 riscv-013.c:408 scan():  ->  hartsello=320 dmactive
Debug: 3521 559 riscv-013.c:397 scan(): 41b 4i w 01410001 @10 -> + 00000000 @10
Debug: 3522 559 riscv-013.c:408 scan():  hartsello=321 dmactive -> 
Debug: 3523 559 riscv-013.c:397 scan(): 41b 4i - 00000000 @10 -> + 01410001 @10
Debug: 3524 559 riscv-013.c:408 scan():  ->  hartsello=321 dmactive
Debug: 3525 559 riscv-013.c:397 scan(): 41b 4i r 00000000 @11 -> + 00000000 @10
Debug: 3526 560 riscv-013.c:397 scan(): 41b 4i - 00000000 @11 -> + 00003082 @11
Debug: 3527 560 riscv-013.c:408 scan():  ->  allunavail anyunavail authenticated version=2
Debug: 3528 560 riscv-013.c:397 scan(): 41b 4i r 00000000 @10 -> + 00000000 @11
Debug: 3529 560 riscv-013.c:397 scan(): 41b 4i - 00000000 @10 -> + 01410001 @10
Debug: 3530 560 riscv-013.c:408 scan():  ->  hartsello=321 dmactive
Debug: 3531 561 riscv-013.c:397 scan(): 41b 4i w 01420001 @10 -> + 00000000 @10
Debug: 3532 561 riscv-013.c:408 scan():  hartsello=322 dmactive -> 
Debug: 3533 561 riscv-013.c:397 scan(): 41b 4i - 00000000 @10 -> + 01420001 @10
Debug: 3534 561 riscv-013.c:408 scan():  ->  hartsello=322 dmactive
Debug: 3535 561 riscv-013.c:397 scan(): 41b 4i r 00000000 @11 -> + 00000000 @10
Debug: 3536 561 riscv-013.c:397 scan(): 41b 4i - 00000000 @11 -> + 00003082 @11
Debug: 3537 561 riscv-013.c:408 scan():  ->  allunavail anyunavail authenticated version=2
Debug: 3538 562 riscv-013.c:397 scan(): 41b 4i r 00000000 @10 -> + 00000000 @11
Debug: 3539 562 riscv-013.c:397 scan(): 41b 4i - 00000000 @10 -> + 01420001 @10
Debug: 3540 562 riscv-013.c:408 scan():  ->  hartsello=322 dmactive
Debug: 3541 562 riscv-013.c:397 scan(): 41b 4i w 01430001 @10 -> + 00000000 @10
Debug: 3542 562 riscv-013.c:408 scan():  hartsello=323 dmactive -> 
Debug: 3543 562 riscv-013.c:397 scan(): 41b 4i - 00000000 @10 -> + 01430001 @10
Debug: 3544 562 riscv-013.c:408 scan():  ->  hartsello=323 dmactive
Debug: 3545 563 riscv-013.c:397 scan(): 41b 4i r 00000000 @11 -> + 00000000 @10
Debug: 3546 563 riscv-013.c:397 scan(): 41b 4i - 00000000 @11 -> + 00003082 @11
Debug: 3547 563 riscv-013.c:408 scan():  ->  allunavail anyunavail authenticated version=2
Debug: 3548 563 riscv-013.c:397 scan(): 41b 4i r 00000000 @10 -> + 00000000 @11
Debug: 3549 563 riscv-013.c:397 scan(): 41b 4i - 00000000 @10 -> + 01430001 @10
Debug: 3550 563 riscv-013.c:408 scan():  ->  hartsello=323 dmactive
Debug: 3551 564 riscv-013.c:397 scan(): 41b 4i w 01440001 @10 -> + 00000000 @10
Debug: 3552 564 riscv-013.c:408 scan():  hartsello=324 dmactive -> 
Debug: 3553 564 riscv-013.c:397 scan(): 41b 4i - 00000000 @10 -> + 01440001 @10
Debug: 3554 564 riscv-013.c:408 scan():  ->  hartsello=324 dmactive
Debug: 3555 564 riscv-013.c:397 scan(): 41b 4i r 00000000 @11 -> + 00000000 @10
Debug: 3556 564 riscv-013.c:397 scan(): 41b 4i - 00000000 @11 -> + 00003082 @11
Debug: 3557 565 riscv-013.c:408 scan():  ->  allunavail anyunavail authenticated version=2
Debug: 3558 565 riscv-013.c:397 scan(): 41b 4i r 00000000 @10 -> + 00000000 @11
Debug: 3559 565 riscv-013.c:397 scan(): 41b 4i - 00000000 @10 -> + 01440001 @10
Debug: 3560 565 riscv-013.c:408 scan():  ->  hartsello=324 dmactive
Debug: 3561 565 riscv-013.c:397 scan(): 41b 4i w 01450001 @10 -> + 00000000 @10
Debug: 3562 565 riscv-013.c:408 scan():  hartsello=325 dmactive -> 
Debug: 3563 566 riscv-013.c:397 scan(): 41b 4i - 00000000 @10 -> + 01450001 @10
Debug: 3564 566 riscv-013.c:408 scan():  ->  hartsello=325 dmactive
Debug: 3565 566 riscv-013.c:397 scan(): 41b 4i r 00000000 @11 -> + 00000000 @10
Debug: 3566 566 riscv-013.c:397 scan(): 41b 4i - 00000000 @11 -> + 00003082 @11
Debug: 3567 566 riscv-013.c:408 scan():  ->  allunavail anyunavail authenticated version=2
Debug: 3568 566 riscv-013.c:397 scan(): 41b 4i r 00000000 @10 -> + 00000000 @11
Debug: 3569 567 riscv-013.c:397 scan(): 41b 4i - 00000000 @10 -> + 01450001 @10
Debug: 3570 567 riscv-013.c:408 scan():  ->  hartsello=325 dmactive
Debug: 3571 567 riscv-013.c:397 scan(): 41b 4i w 01460001 @10 -> + 00000000 @10
Debug: 3572 567 riscv-013.c:408 scan():  hartsello=326 dmactive -> 
Debug: 3573 567 riscv-013.c:397 scan(): 41b 4i - 00000000 @10 -> + 01460001 @10
Debug: 3574 567 riscv-013.c:408 scan():  ->  hartsello=326 dmactive
Debug: 3575 567 riscv-013.c:397 scan(): 41b 4i r 00000000 @11 -> + 00000000 @10
Debug: 3576 568 riscv-013.c:397 scan(): 41b 4i - 00000000 @11 -> + 00003082 @11
Debug: 3577 568 riscv-013.c:408 scan():  ->  allunavail anyunavail authenticated version=2
Debug: 3578 568 riscv-013.c:397 scan(): 41b 4i r 00000000 @10 -> + 00000000 @11
Debug: 3579 568 riscv-013.c:397 scan(): 41b 4i - 00000000 @10 -> + 01460001 @10
Debug: 3580 568 riscv-013.c:408 scan():  ->  hartsello=326 dmactive
Debug: 3581 568 riscv-013.c:397 scan(): 41b 4i w 01470001 @10 -> + 00000000 @10
Debug: 3582 569 riscv-013.c:408 scan():  hartsello=327 dmactive -> 
Debug: 3583 569 riscv-013.c:397 scan(): 41b 4i - 00000000 @10 -> + 01470001 @10
Debug: 3584 569 riscv-013.c:408 scan():  ->  hartsello=327 dmactive
Debug: 3585 569 riscv-013.c:397 scan(): 41b 4i r 00000000 @11 -> + 00000000 @10
Debug: 3586 569 riscv-013.c:397 scan(): 41b 4i - 00000000 @11 -> + 00003082 @11
Debug: 3587 569 riscv-013.c:408 scan():  ->  allunavail anyunavail authenticated version=2
Debug: 3588 569 riscv-013.c:397 scan(): 41b 4i r 00000000 @10 -> + 00000000 @11
Debug: 3589 570 riscv-013.c:397 scan(): 41b 4i - 00000000 @10 -> + 01470001 @10
Debug: 3590 570 riscv-013.c:408 scan():  ->  hartsello=327 dmactive
Debug: 3591 570 riscv-013.c:397 scan(): 41b 4i w 01480001 @10 -> + 00000000 @10
Debug: 3592 570 riscv-013.c:408 scan():  hartsello=328 dmactive -> 
Debug: 3593 570 riscv-013.c:397 scan(): 41b 4i - 00000000 @10 -> + 01480001 @10
Debug: 3594 570 riscv-013.c:408 scan():  ->  hartsello=328 dmactive
Debug: 3595 570 riscv-013.c:397 scan(): 41b 4i r 00000000 @11 -> + 00000000 @10
Debug: 3596 571 riscv-013.c:397 scan(): 41b 4i - 00000000 @11 -> + 00003082 @11
Debug: 3597 571 riscv-013.c:408 scan():  ->  allunavail anyunavail authenticated version=2
Debug: 3598 571 riscv-013.c:397 scan(): 41b 4i r 00000000 @10 -> + 00000000 @11
Debug: 3599 571 riscv-013.c:397 scan(): 41b 4i - 00000000 @10 -> + 01480001 @10
Debug: 3600 571 riscv-013.c:408 scan():  ->  hartsello=328 dmactive
Debug: 3601 572 riscv-013.c:397 scan(): 41b 4i w 01490001 @10 -> + 00000000 @10
Debug: 3602 572 riscv-013.c:408 scan():  hartsello=329 dmactive -> 
Debug: 3603 572 riscv-013.c:397 scan(): 41b 4i - 00000000 @10 -> + 01490001 @10
Debug: 3604 572 riscv-013.c:408 scan():  ->  hartsello=329 dmactive
Debug: 3605 572 riscv-013.c:397 scan(): 41b 4i r 00000000 @11 -> + 00000000 @10
Debug: 3606 572 riscv-013.c:397 scan(): 41b 4i - 00000000 @11 -> + 00003082 @11
Debug: 3607 572 riscv-013.c:408 scan():  ->  allunavail anyunavail authenticated version=2
Debug: 3608 573 riscv-013.c:397 scan(): 41b 4i r 00000000 @10 -> + 00000000 @11
Debug: 3609 573 riscv-013.c:397 scan(): 41b 4i - 00000000 @10 -> + 01490001 @10
Debug: 3610 573 riscv-013.c:408 scan():  ->  hartsello=329 dmactive
Debug: 3611 573 riscv-013.c:397 scan(): 41b 4i w 014a0001 @10 -> + 00000000 @10
Debug: 3612 573 riscv-013.c:408 scan():  hartsello=330 dmactive -> 
Debug: 3613 573 riscv-013.c:397 scan(): 41b 4i - 00000000 @10 -> + 014a0001 @10
Debug: 3614 573 riscv-013.c:408 scan():  ->  hartsello=330 dmactive
Debug: 3615 574 riscv-013.c:397 scan(): 41b 4i r 00000000 @11 -> + 00000000 @10
Debug: 3616 574 riscv-013.c:397 scan(): 41b 4i - 00000000 @11 -> + 00003082 @11
Debug: 3617 574 riscv-013.c:408 scan():  ->  allunavail anyunavail authenticated version=2
Debug: 3618 574 riscv-013.c:397 scan(): 41b 4i r 00000000 @10 -> + 00000000 @11
Debug: 3619 574 riscv-013.c:397 scan(): 41b 4i - 00000000 @10 -> + 014a0001 @10
Debug: 3620 574 riscv-013.c:408 scan():  ->  hartsello=330 dmactive
Debug: 3621 575 riscv-013.c:397 scan(): 41b 4i w 014b0001 @10 -> + 00000000 @10
Debug: 3622 575 riscv-013.c:408 scan():  hartsello=331 dmactive -> 
Debug: 3623 575 riscv-013.c:397 scan(): 41b 4i - 00000000 @10 -> + 014b0001 @10
Debug: 3624 575 riscv-013.c:408 scan():  ->  hartsello=331 dmactive
Debug: 3625 575 riscv-013.c:397 scan(): 41b 4i r 00000000 @11 -> + 00000000 @10
Debug: 3626 576 riscv-013.c:397 scan(): 41b 4i - 00000000 @11 -> + 00003082 @11
Debug: 3627 576 riscv-013.c:408 scan():  ->  allunavail anyunavail authenticated version=2
Debug: 3628 576 riscv-013.c:397 scan(): 41b 4i r 00000000 @10 -> + 00000000 @11
Debug: 3629 576 riscv-013.c:397 scan(): 41b 4i - 00000000 @10 -> + 014b0001 @10
Debug: 3630 576 riscv-013.c:408 scan():  ->  hartsello=331 dmactive
Debug: 3631 576 riscv-013.c:397 scan(): 41b 4i w 014c0001 @10 -> + 00000000 @10
Debug: 3632 576 riscv-013.c:408 scan():  hartsello=332 dmactive -> 
Debug: 3633 577 riscv-013.c:397 scan(): 41b 4i - 00000000 @10 -> + 014c0001 @10
Debug: 3634 577 riscv-013.c:408 scan():  ->  hartsello=332 dmactive
Debug: 3635 577 riscv-013.c:397 scan(): 41b 4i r 00000000 @11 -> + 00000000 @10
Debug: 3636 577 riscv-013.c:397 scan(): 41b 4i - 00000000 @11 -> + 00003082 @11
Debug: 3637 577 riscv-013.c:408 scan():  ->  allunavail anyunavail authenticated version=2
Debug: 3638 577 riscv-013.c:397 scan(): 41b 4i r 00000000 @10 -> + 00000000 @11
Debug: 3639 578 riscv-013.c:397 scan(): 41b 4i - 00000000 @10 -> + 014c0001 @10
Debug: 3640 578 riscv-013.c:408 scan():  ->  hartsello=332 dmactive
Debug: 3641 578 riscv-013.c:397 scan(): 41b 4i w 014d0001 @10 -> + 00000000 @10
Debug: 3642 578 riscv-013.c:408 scan():  hartsello=333 dmactive -> 
Debug: 3643 578 riscv-013.c:397 scan(): 41b 4i - 00000000 @10 -> + 014d0001 @10
Debug: 3644 578 riscv-013.c:408 scan():  ->  hartsello=333 dmactive
Debug: 3645 578 riscv-013.c:397 scan(): 41b 4i r 00000000 @11 -> + 00000000 @10
Debug: 3646 579 riscv-013.c:397 scan(): 41b 4i - 00000000 @11 -> + 00003082 @11
Debug: 3647 579 riscv-013.c:408 scan():  ->  allunavail anyunavail authenticated version=2
Debug: 3648 579 riscv-013.c:397 scan(): 41b 4i r 00000000 @10 -> + 00000000 @11
Debug: 3649 579 riscv-013.c:397 scan(): 41b 4i - 00000000 @10 -> + 014d0001 @10
Debug: 3650 579 riscv-013.c:408 scan():  ->  hartsello=333 dmactive
Debug: 3651 579 riscv-013.c:397 scan(): 41b 4i w 014e0001 @10 -> + 00000000 @10
Debug: 3652 579 riscv-013.c:408 scan():  hartsello=334 dmactive -> 
Debug: 3653 580 riscv-013.c:397 scan(): 41b 4i - 00000000 @10 -> + 014e0001 @10
Debug: 3654 580 riscv-013.c:408 scan():  ->  hartsello=334 dmactive
Debug: 3655 580 riscv-013.c:397 scan(): 41b 4i r 00000000 @11 -> + 00000000 @10
Debug: 3656 580 riscv-013.c:397 scan(): 41b 4i - 00000000 @11 -> + 00003082 @11
Debug: 3657 580 riscv-013.c:408 scan():  ->  allunavail anyunavail authenticated version=2
Debug: 3658 580 riscv-013.c:397 scan(): 41b 4i r 00000000 @10 -> + 00000000 @11
Debug: 3659 581 riscv-013.c:397 scan(): 41b 4i - 00000000 @10 -> + 014e0001 @10
Debug: 3660 581 riscv-013.c:408 scan():  ->  hartsello=334 dmactive
Debug: 3661 581 riscv-013.c:397 scan(): 41b 4i w 014f0001 @10 -> + 00000000 @10
Debug: 3662 581 riscv-013.c:408 scan():  hartsello=335 dmactive -> 
Debug: 3663 581 riscv-013.c:397 scan(): 41b 4i - 00000000 @10 -> + 014f0001 @10
Debug: 3664 581 riscv-013.c:408 scan():  ->  hartsello=335 dmactive
Debug: 3665 581 riscv-013.c:397 scan(): 41b 4i r 00000000 @11 -> + 00000000 @10
Debug: 3666 582 riscv-013.c:397 scan(): 41b 4i - 00000000 @11 -> + 00003082 @11
Debug: 3667 582 riscv-013.c:408 scan():  ->  allunavail anyunavail authenticated version=2
Debug: 3668 582 riscv-013.c:397 scan(): 41b 4i r 00000000 @10 -> + 00000000 @11
Debug: 3669 582 riscv-013.c:397 scan(): 41b 4i - 00000000 @10 -> + 014f0001 @10
Debug: 3670 582 riscv-013.c:408 scan():  ->  hartsello=335 dmactive
Debug: 3671 582 riscv-013.c:397 scan(): 41b 4i w 01500001 @10 -> + 00000000 @10
Debug: 3672 582 riscv-013.c:408 scan():  hartsello=336 dmactive -> 
Debug: 3673 583 riscv-013.c:397 scan(): 41b 4i - 00000000 @10 -> + 01500001 @10
Debug: 3674 583 riscv-013.c:408 scan():  ->  hartsello=336 dmactive
Debug: 3675 583 riscv-013.c:397 scan(): 41b 4i r 00000000 @11 -> + 00000000 @10
Debug: 3676 583 riscv-013.c:397 scan(): 41b 4i - 00000000 @11 -> + 00003082 @11
Debug: 3677 583 riscv-013.c:408 scan():  ->  allunavail anyunavail authenticated version=2
Debug: 3678 583 riscv-013.c:397 scan(): 41b 4i r 00000000 @10 -> + 00000000 @11
Debug: 3679 584 riscv-013.c:397 scan(): 41b 4i - 00000000 @10 -> + 01500001 @10
Debug: 3680 584 riscv-013.c:408 scan():  ->  hartsello=336 dmactive
Debug: 3681 584 riscv-013.c:397 scan(): 41b 4i w 01510001 @10 -> + 00000000 @10
Debug: 3682 584 riscv-013.c:408 scan():  hartsello=337 dmactive -> 
Debug: 3683 584 riscv-013.c:397 scan(): 41b 4i - 00000000 @10 -> + 01510001 @10
Debug: 3684 584 riscv-013.c:408 scan():  ->  hartsello=337 dmactive
Debug: 3685 584 riscv-013.c:397 scan(): 41b 4i r 00000000 @11 -> + 00000000 @10
Debug: 3686 585 riscv-013.c:397 scan(): 41b 4i - 00000000 @11 -> + 00003082 @11
Debug: 3687 585 riscv-013.c:408 scan():  ->  allunavail anyunavail authenticated version=2
Debug: 3688 585 riscv-013.c:397 scan(): 41b 4i r 00000000 @10 -> + 00000000 @11
Debug: 3689 585 riscv-013.c:397 scan(): 41b 4i - 00000000 @10 -> + 01510001 @10
Debug: 3690 585 riscv-013.c:408 scan():  ->  hartsello=337 dmactive
Debug: 3691 585 riscv-013.c:397 scan(): 41b 4i w 01520001 @10 -> + 00000000 @10
Debug: 3692 586 riscv-013.c:408 scan():  hartsello=338 dmactive -> 
Debug: 3693 586 riscv-013.c:397 scan(): 41b 4i - 00000000 @10 -> + 01520001 @10
Debug: 3694 586 riscv-013.c:408 scan():  ->  hartsello=338 dmactive
Debug: 3695 586 riscv-013.c:397 scan(): 41b 4i r 00000000 @11 -> + 00000000 @10
Debug: 3696 586 riscv-013.c:397 scan(): 41b 4i - 00000000 @11 -> + 00003082 @11
Debug: 3697 586 riscv-013.c:408 scan():  ->  allunavail anyunavail authenticated version=2
Debug: 3698 587 riscv-013.c:397 scan(): 41b 4i r 00000000 @10 -> + 00000000 @11
Debug: 3699 587 riscv-013.c:397 scan(): 41b 4i - 00000000 @10 -> + 01520001 @10
Debug: 3700 587 riscv-013.c:408 scan():  ->  hartsello=338 dmactive
Debug: 3701 587 riscv-013.c:397 scan(): 41b 4i w 01530001 @10 -> + 00000000 @10
Debug: 3702 587 riscv-013.c:408 scan():  hartsello=339 dmactive -> 
Debug: 3703 587 riscv-013.c:397 scan(): 41b 4i - 00000000 @10 -> + 01530001 @10
Debug: 3704 587 riscv-013.c:408 scan():  ->  hartsello=339 dmactive
Debug: 3705 588 riscv-013.c:397 scan(): 41b 4i r 00000000 @11 -> + 00000000 @10
Debug: 3706 588 riscv-013.c:397 scan(): 41b 4i - 00000000 @11 -> + 00003082 @11
Debug: 3707 588 riscv-013.c:408 scan():  ->  allunavail anyunavail authenticated version=2
Debug: 3708 588 riscv-013.c:397 scan(): 41b 4i r 00000000 @10 -> + 00000000 @11
Debug: 3709 589 riscv-013.c:397 scan(): 41b 4i - 00000000 @10 -> + 01530001 @10
Debug: 3710 589 riscv-013.c:408 scan():  ->  hartsello=339 dmactive
Debug: 3711 589 riscv-013.c:397 scan(): 41b 4i w 01540001 @10 -> + 00000000 @10
Debug: 3712 589 riscv-013.c:408 scan():  hartsello=340 dmactive -> 
Debug: 3713 589 riscv-013.c:397 scan(): 41b 4i - 00000000 @10 -> + 01540001 @10
Debug: 3714 589 riscv-013.c:408 scan():  ->  hartsello=340 dmactive
Debug: 3715 590 riscv-013.c:397 scan(): 41b 4i r 00000000 @11 -> + 00000000 @10
Debug: 3716 590 riscv-013.c:397 scan(): 41b 4i - 00000000 @11 -> + 00003082 @11
Debug: 3717 590 riscv-013.c:408 scan():  ->  allunavail anyunavail authenticated version=2
Debug: 3718 590 riscv-013.c:397 scan(): 41b 4i r 00000000 @10 -> + 00000000 @11
Debug: 3719 591 riscv-013.c:397 scan(): 41b 4i - 00000000 @10 -> + 01540001 @10
Debug: 3720 591 riscv-013.c:408 scan():  ->  hartsello=340 dmactive
Debug: 3721 591 riscv-013.c:397 scan(): 41b 4i w 01550001 @10 -> + 00000000 @10
Debug: 3722 591 riscv-013.c:408 scan():  hartsello=341 dmactive -> 
Debug: 3723 591 riscv-013.c:397 scan(): 41b 4i - 00000000 @10 -> + 01550001 @10
Debug: 3724 591 riscv-013.c:408 scan():  ->  hartsello=341 dmactive
Debug: 3725 592 riscv-013.c:397 scan(): 41b 4i r 00000000 @11 -> + 00000000 @10
Debug: 3726 592 riscv-013.c:397 scan(): 41b 4i - 00000000 @11 -> + 00003082 @11
Debug: 3727 592 riscv-013.c:408 scan():  ->  allunavail anyunavail authenticated version=2
Debug: 3728 592 riscv-013.c:397 scan(): 41b 4i r 00000000 @10 -> + 00000000 @11
Debug: 3729 592 riscv-013.c:397 scan(): 41b 4i - 00000000 @10 -> + 01550001 @10
Debug: 3730 592 riscv-013.c:408 scan():  ->  hartsello=341 dmactive
Debug: 3731 593 riscv-013.c:397 scan(): 41b 4i w 01560001 @10 -> + 00000000 @10
Debug: 3732 593 riscv-013.c:408 scan():  hartsello=342 dmactive -> 
Debug: 3733 593 riscv-013.c:397 scan(): 41b 4i - 00000000 @10 -> + 01560001 @10
Debug: 3734 593 riscv-013.c:408 scan():  ->  hartsello=342 dmactive
Debug: 3735 593 riscv-013.c:397 scan(): 41b 4i r 00000000 @11 -> + 00000000 @10
Debug: 3736 593 riscv-013.c:397 scan(): 41b 4i - 00000000 @11 -> + 00003082 @11
Debug: 3737 593 riscv-013.c:408 scan():  ->  allunavail anyunavail authenticated version=2
Debug: 3738 594 riscv-013.c:397 scan(): 41b 4i r 00000000 @10 -> + 00000000 @11
Debug: 3739 594 riscv-013.c:397 scan(): 41b 4i - 00000000 @10 -> + 01560001 @10
Debug: 3740 594 riscv-013.c:408 scan():  ->  hartsello=342 dmactive
Debug: 3741 594 riscv-013.c:397 scan(): 41b 4i w 01570001 @10 -> + 00000000 @10
Debug: 3742 594 riscv-013.c:408 scan():  hartsello=343 dmactive -> 
Debug: 3743 595 riscv-013.c:397 scan(): 41b 4i - 00000000 @10 -> + 01570001 @10
Debug: 3744 595 riscv-013.c:408 scan():  ->  hartsello=343 dmactive
Debug: 3745 595 riscv-013.c:397 scan(): 41b 4i r 00000000 @11 -> + 00000000 @10
Debug: 3746 595 riscv-013.c:397 scan(): 41b 4i - 00000000 @11 -> + 00003082 @11
Debug: 3747 595 riscv-013.c:408 scan():  ->  allunavail anyunavail authenticated version=2
Debug: 3748 596 riscv-013.c:397 scan(): 41b 4i r 00000000 @10 -> + 00000000 @11
Debug: 3749 596 riscv-013.c:397 scan(): 41b 4i - 00000000 @10 -> + 01570001 @10
Debug: 3750 596 riscv-013.c:408 scan():  ->  hartsello=343 dmactive
Debug: 3751 596 riscv-013.c:397 scan(): 41b 4i w 01580001 @10 -> + 00000000 @10
Debug: 3752 596 riscv-013.c:408 scan():  hartsello=344 dmactive -> 
Debug: 3753 596 riscv-013.c:397 scan(): 41b 4i - 00000000 @10 -> + 01580001 @10
Debug: 3754 596 riscv-013.c:408 scan():  ->  hartsello=344 dmactive
Debug: 3755 597 riscv-013.c:397 scan(): 41b 4i r 00000000 @11 -> + 00000000 @10
Debug: 3756 597 riscv-013.c:397 scan(): 41b 4i - 00000000 @11 -> + 00003082 @11
Debug: 3757 597 riscv-013.c:408 scan():  ->  allunavail anyunavail authenticated version=2
Debug: 3758 597 riscv-013.c:397 scan(): 41b 4i r 00000000 @10 -> + 00000000 @11
Debug: 3759 598 riscv-013.c:397 scan(): 41b 4i - 00000000 @10 -> + 01580001 @10
Debug: 3760 598 riscv-013.c:408 scan():  ->  hartsello=344 dmactive
Debug: 3761 598 riscv-013.c:397 scan(): 41b 4i w 01590001 @10 -> + 00000000 @10
Debug: 3762 598 riscv-013.c:408 scan():  hartsello=345 dmactive -> 
Debug: 3763 598 riscv-013.c:397 scan(): 41b 4i - 00000000 @10 -> + 01590001 @10
Debug: 3764 598 riscv-013.c:408 scan():  ->  hartsello=345 dmactive
Debug: 3765 598 riscv-013.c:397 scan(): 41b 4i r 00000000 @11 -> + 00000000 @10
Debug: 3766 599 riscv-013.c:397 scan(): 41b 4i - 00000000 @11 -> + 00003082 @11
Debug: 3767 599 riscv-013.c:408 scan():  ->  allunavail anyunavail authenticated version=2
Debug: 3768 599 riscv-013.c:397 scan(): 41b 4i r 00000000 @10 -> + 00000000 @11
Debug: 3769 599 riscv-013.c:397 scan(): 41b 4i - 00000000 @10 -> + 01590001 @10
Debug: 3770 599 riscv-013.c:408 scan():  ->  hartsello=345 dmactive
Debug: 3771 599 riscv-013.c:397 scan(): 41b 4i w 015a0001 @10 -> + 00000000 @10
Debug: 3772 599 riscv-013.c:408 scan():  hartsello=346 dmactive -> 
Debug: 3773 600 riscv-013.c:397 scan(): 41b 4i - 00000000 @10 -> + 015a0001 @10
Debug: 3774 600 riscv-013.c:408 scan():  ->  hartsello=346 dmactive
Debug: 3775 600 riscv-013.c:397 scan(): 41b 4i r 00000000 @11 -> + 00000000 @10
Debug: 3776 600 riscv-013.c:397 scan(): 41b 4i - 00000000 @11 -> + 00003082 @11
Debug: 3777 600 riscv-013.c:408 scan():  ->  allunavail anyunavail authenticated version=2
Debug: 3778 600 riscv-013.c:397 scan(): 41b 4i r 00000000 @10 -> + 00000000 @11
Debug: 3779 601 riscv-013.c:397 scan(): 41b 4i - 00000000 @10 -> + 015a0001 @10
Debug: 3780 601 riscv-013.c:408 scan():  ->  hartsello=346 dmactive
Debug: 3781 601 riscv-013.c:397 scan(): 41b 4i w 015b0001 @10 -> + 00000000 @10
Debug: 3782 601 riscv-013.c:408 scan():  hartsello=347 dmactive -> 
Debug: 3783 601 riscv-013.c:397 scan(): 41b 4i - 00000000 @10 -> + 015b0001 @10
Debug: 3784 601 riscv-013.c:408 scan():  ->  hartsello=347 dmactive
Debug: 3785 601 riscv-013.c:397 scan(): 41b 4i r 00000000 @11 -> + 00000000 @10
Debug: 3786 602 riscv-013.c:397 scan(): 41b 4i - 00000000 @11 -> + 00003082 @11
Debug: 3787 602 riscv-013.c:408 scan():  ->  allunavail anyunavail authenticated version=2
Debug: 3788 602 riscv-013.c:397 scan(): 41b 4i r 00000000 @10 -> + 00000000 @11
Debug: 3789 602 riscv-013.c:397 scan(): 41b 4i - 00000000 @10 -> + 015b0001 @10
Debug: 3790 602 riscv-013.c:408 scan():  ->  hartsello=347 dmactive
Debug: 3791 603 riscv-013.c:397 scan(): 41b 4i w 015c0001 @10 -> + 00000000 @10
Debug: 3792 603 riscv-013.c:408 scan():  hartsello=348 dmactive -> 
Debug: 3793 603 riscv-013.c:397 scan(): 41b 4i - 00000000 @10 -> + 015c0001 @10
Debug: 3794 603 riscv-013.c:408 scan():  ->  hartsello=348 dmactive
Debug: 3795 603 riscv-013.c:397 scan(): 41b 4i r 00000000 @11 -> + 00000000 @10
Debug: 3796 604 riscv-013.c:397 scan(): 41b 4i - 00000000 @11 -> + 00003082 @11
Debug: 3797 604 riscv-013.c:408 scan():  ->  allunavail anyunavail authenticated version=2
Debug: 3798 604 riscv-013.c:397 scan(): 41b 4i r 00000000 @10 -> + 00000000 @11
Debug: 3799 604 riscv-013.c:397 scan(): 41b 4i - 00000000 @10 -> + 015c0001 @10
Debug: 3800 604 riscv-013.c:408 scan():  ->  hartsello=348 dmactive
Debug: 3801 605 riscv-013.c:397 scan(): 41b 4i w 015d0001 @10 -> + 00000000 @10
Debug: 3802 605 riscv-013.c:408 scan():  hartsello=349 dmactive -> 
Debug: 3803 605 riscv-013.c:397 scan(): 41b 4i - 00000000 @10 -> + 015d0001 @10
Debug: 3804 605 riscv-013.c:408 scan():  ->  hartsello=349 dmactive
Debug: 3805 605 riscv-013.c:397 scan(): 41b 4i r 00000000 @11 -> + 00000000 @10
Debug: 3806 605 riscv-013.c:397 scan(): 41b 4i - 00000000 @11 -> + 00003082 @11
Debug: 3807 605 riscv-013.c:408 scan():  ->  allunavail anyunavail authenticated version=2
Debug: 3808 606 riscv-013.c:397 scan(): 41b 4i r 00000000 @10 -> + 00000000 @11
Debug: 3809 606 riscv-013.c:397 scan(): 41b 4i - 00000000 @10 -> + 015d0001 @10
Debug: 3810 606 riscv-013.c:408 scan():  ->  hartsello=349 dmactive
Debug: 3811 606 riscv-013.c:397 scan(): 41b 4i w 015e0001 @10 -> + 00000000 @10
Debug: 3812 606 riscv-013.c:408 scan():  hartsello=350 dmactive -> 
Debug: 3813 606 riscv-013.c:397 scan(): 41b 4i - 00000000 @10 -> + 015e0001 @10
Debug: 3814 606 riscv-013.c:408 scan():  ->  hartsello=350 dmactive
Debug: 3815 607 riscv-013.c:397 scan(): 41b 4i r 00000000 @11 -> + 00000000 @10
Debug: 3816 607 riscv-013.c:397 scan(): 41b 4i - 00000000 @11 -> + 00003082 @11
Debug: 3817 607 riscv-013.c:408 scan():  ->  allunavail anyunavail authenticated version=2
Debug: 3818 607 riscv-013.c:397 scan(): 41b 4i r 00000000 @10 -> + 00000000 @11
Debug: 3819 607 riscv-013.c:397 scan(): 41b 4i - 00000000 @10 -> + 015e0001 @10
Debug: 3820 607 riscv-013.c:408 scan():  ->  hartsello=350 dmactive
Debug: 3821 607 riscv-013.c:397 scan(): 41b 4i w 015f0001 @10 -> + 00000000 @10
Debug: 3822 607 riscv-013.c:408 scan():  hartsello=351 dmactive -> 
Debug: 3823 608 riscv-013.c:397 scan(): 41b 4i - 00000000 @10 -> + 015f0001 @10
Debug: 3824 608 riscv-013.c:408 scan():  ->  hartsello=351 dmactive
Debug: 3825 608 riscv-013.c:397 scan(): 41b 4i r 00000000 @11 -> + 00000000 @10
Debug: 3826 608 riscv-013.c:397 scan(): 41b 4i - 00000000 @11 -> + 00003082 @11
Debug: 3827 608 riscv-013.c:408 scan():  ->  allunavail anyunavail authenticated version=2
Debug: 3828 608 riscv-013.c:397 scan(): 41b 4i r 00000000 @10 -> + 00000000 @11
Debug: 3829 608 riscv-013.c:397 scan(): 41b 4i - 00000000 @10 -> + 015f0001 @10
Debug: 3830 608 riscv-013.c:408 scan():  ->  hartsello=351 dmactive
Debug: 3831 609 riscv-013.c:397 scan(): 41b 4i w 01600001 @10 -> + 00000000 @10
Debug: 3832 609 riscv-013.c:408 scan():  hartsello=352 dmactive -> 
Debug: 3833 609 riscv-013.c:397 scan(): 41b 4i - 00000000 @10 -> + 01600001 @10
Debug: 3834 609 riscv-013.c:408 scan():  ->  hartsello=352 dmactive
Debug: 3835 609 riscv-013.c:397 scan(): 41b 4i r 00000000 @11 -> + 00000000 @10
Debug: 3836 609 riscv-013.c:397 scan(): 41b 4i - 00000000 @11 -> + 00003082 @11
Debug: 3837 609 riscv-013.c:408 scan():  ->  allunavail anyunavail authenticated version=2
Debug: 3838 610 riscv-013.c:397 scan(): 41b 4i r 00000000 @10 -> + 00000000 @11
Debug: 3839 610 riscv-013.c:397 scan(): 41b 4i - 00000000 @10 -> + 01600001 @10
Debug: 3840 610 riscv-013.c:408 scan():  ->  hartsello=352 dmactive
Debug: 3841 610 riscv-013.c:397 scan(): 41b 4i w 01610001 @10 -> + 00000000 @10
Debug: 3842 610 riscv-013.c:408 scan():  hartsello=353 dmactive -> 
Debug: 3843 610 riscv-013.c:397 scan(): 41b 4i - 00000000 @10 -> + 01610001 @10
Debug: 3844 610 riscv-013.c:408 scan():  ->  hartsello=353 dmactive
Debug: 3845 610 riscv-013.c:397 scan(): 41b 4i r 00000000 @11 -> + 00000000 @10
Debug: 3846 610 riscv-013.c:397 scan(): 41b 4i - 00000000 @11 -> + 00003082 @11
Debug: 3847 610 riscv-013.c:408 scan():  ->  allunavail anyunavail authenticated version=2
Debug: 3848 611 riscv-013.c:397 scan(): 41b 4i r 00000000 @10 -> + 00000000 @11
Debug: 3849 611 riscv-013.c:397 scan(): 41b 4i - 00000000 @10 -> + 01610001 @10
Debug: 3850 611 riscv-013.c:408 scan():  ->  hartsello=353 dmactive
Debug: 3851 611 riscv-013.c:397 scan(): 41b 4i w 01620001 @10 -> + 00000000 @10
Debug: 3852 611 riscv-013.c:408 scan():  hartsello=354 dmactive -> 
Debug: 3853 611 riscv-013.c:397 scan(): 41b 4i - 00000000 @10 -> + 01620001 @10
Debug: 3854 611 riscv-013.c:408 scan():  ->  hartsello=354 dmactive
Debug: 3855 612 riscv-013.c:397 scan(): 41b 4i r 00000000 @11 -> + 00000000 @10
Debug: 3856 612 riscv-013.c:397 scan(): 41b 4i - 00000000 @11 -> + 00003082 @11
Debug: 3857 612 riscv-013.c:408 scan():  ->  allunavail anyunavail authenticated version=2
Debug: 3858 612 riscv-013.c:397 scan(): 41b 4i r 00000000 @10 -> + 00000000 @11
Debug: 3859 613 riscv-013.c:397 scan(): 41b 4i - 00000000 @10 -> + 01620001 @10
Debug: 3860 613 riscv-013.c:408 scan():  ->  hartsello=354 dmactive
Debug: 3861 613 riscv-013.c:397 scan(): 41b 4i w 01630001 @10 -> + 00000000 @10
Debug: 3862 613 riscv-013.c:408 scan():  hartsello=355 dmactive -> 
Debug: 3863 613 riscv-013.c:397 scan(): 41b 4i - 00000000 @10 -> + 01630001 @10
Debug: 3864 613 riscv-013.c:408 scan():  ->  hartsello=355 dmactive
Debug: 3865 613 riscv-013.c:397 scan(): 41b 4i r 00000000 @11 -> + 00000000 @10
Debug: 3866 614 riscv-013.c:397 scan(): 41b 4i - 00000000 @11 -> + 00003082 @11
Debug: 3867 614 riscv-013.c:408 scan():  ->  allunavail anyunavail authenticated version=2
Debug: 3868 614 riscv-013.c:397 scan(): 41b 4i r 00000000 @10 -> + 00000000 @11
Debug: 3869 614 riscv-013.c:397 scan(): 41b 4i - 00000000 @10 -> + 01630001 @10
Debug: 3870 614 riscv-013.c:408 scan():  ->  hartsello=355 dmactive
Debug: 3871 614 riscv-013.c:397 scan(): 41b 4i w 01640001 @10 -> + 00000000 @10
Debug: 3872 614 riscv-013.c:408 scan():  hartsello=356 dmactive -> 
Debug: 3873 615 riscv-013.c:397 scan(): 41b 4i - 00000000 @10 -> + 01640001 @10
Debug: 3874 615 riscv-013.c:408 scan():  ->  hartsello=356 dmactive
Debug: 3875 615 riscv-013.c:397 scan(): 41b 4i r 00000000 @11 -> + 00000000 @10
Debug: 3876 615 riscv-013.c:397 scan(): 41b 4i - 00000000 @11 -> + 00003082 @11
Debug: 3877 615 riscv-013.c:408 scan():  ->  allunavail anyunavail authenticated version=2
Debug: 3878 615 riscv-013.c:397 scan(): 41b 4i r 00000000 @10 -> + 00000000 @11
Debug: 3879 616 riscv-013.c:397 scan(): 41b 4i - 00000000 @10 -> + 01640001 @10
Debug: 3880 616 riscv-013.c:408 scan():  ->  hartsello=356 dmactive
Debug: 3881 616 riscv-013.c:397 scan(): 41b 4i w 01650001 @10 -> + 00000000 @10
Debug: 3882 616 riscv-013.c:408 scan():  hartsello=357 dmactive -> 
Debug: 3883 616 riscv-013.c:397 scan(): 41b 4i - 00000000 @10 -> + 01650001 @10
Debug: 3884 616 riscv-013.c:408 scan():  ->  hartsello=357 dmactive
Debug: 3885 617 riscv-013.c:397 scan(): 41b 4i r 00000000 @11 -> + 00000000 @10
Debug: 3886 617 riscv-013.c:397 scan(): 41b 4i - 00000000 @11 -> + 00003082 @11
Debug: 3887 617 riscv-013.c:408 scan():  ->  allunavail anyunavail authenticated version=2
Debug: 3888 617 riscv-013.c:397 scan(): 41b 4i r 00000000 @10 -> + 00000000 @11
Debug: 3889 618 riscv-013.c:397 scan(): 41b 4i - 00000000 @10 -> + 01650001 @10
Debug: 3890 618 riscv-013.c:408 scan():  ->  hartsello=357 dmactive
Debug: 3891 618 riscv-013.c:397 scan(): 41b 4i w 01660001 @10 -> + 00000000 @10
Debug: 3892 618 riscv-013.c:408 scan():  hartsello=358 dmactive -> 
Debug: 3893 618 riscv-013.c:397 scan(): 41b 4i - 00000000 @10 -> + 01660001 @10
Debug: 3894 618 riscv-013.c:408 scan():  ->  hartsello=358 dmactive
Debug: 3895 618 riscv-013.c:397 scan(): 41b 4i r 00000000 @11 -> + 00000000 @10
Debug: 3896 619 riscv-013.c:397 scan(): 41b 4i - 00000000 @11 -> + 00003082 @11
Debug: 3897 619 riscv-013.c:408 scan():  ->  allunavail anyunavail authenticated version=2
Debug: 3898 619 riscv-013.c:397 scan(): 41b 4i r 00000000 @10 -> + 00000000 @11
Debug: 3899 619 riscv-013.c:397 scan(): 41b 4i - 00000000 @10 -> + 01660001 @10
Debug: 3900 619 riscv-013.c:408 scan():  ->  hartsello=358 dmactive
Debug: 3901 620 riscv-013.c:397 scan(): 41b 4i w 01670001 @10 -> + 00000000 @10
Debug: 3902 620 riscv-013.c:408 scan():  hartsello=359 dmactive -> 
Debug: 3903 620 riscv-013.c:397 scan(): 41b 4i - 00000000 @10 -> + 01670001 @10
Debug: 3904 620 riscv-013.c:408 scan():  ->  hartsello=359 dmactive
Debug: 3905 620 riscv-013.c:397 scan(): 41b 4i r 00000000 @11 -> + 00000000 @10
Debug: 3906 621 riscv-013.c:397 scan(): 41b 4i - 00000000 @11 -> + 00003082 @11
Debug: 3907 621 riscv-013.c:408 scan():  ->  allunavail anyunavail authenticated version=2
Debug: 3908 621 riscv-013.c:397 scan(): 41b 4i r 00000000 @10 -> + 00000000 @11
Debug: 3909 621 riscv-013.c:397 scan(): 41b 4i - 00000000 @10 -> + 01670001 @10
Debug: 3910 621 riscv-013.c:408 scan():  ->  hartsello=359 dmactive
Debug: 3911 621 riscv-013.c:397 scan(): 41b 4i w 01680001 @10 -> + 00000000 @10
Debug: 3912 621 riscv-013.c:408 scan():  hartsello=360 dmactive -> 
Debug: 3913 622 riscv-013.c:397 scan(): 41b 4i - 00000000 @10 -> + 01680001 @10
Debug: 3914 622 riscv-013.c:408 scan():  ->  hartsello=360 dmactive
Debug: 3915 622 riscv-013.c:397 scan(): 41b 4i r 00000000 @11 -> + 00000000 @10
Debug: 3916 622 riscv-013.c:397 scan(): 41b 4i - 00000000 @11 -> + 00003082 @11
Debug: 3917 622 riscv-013.c:408 scan():  ->  allunavail anyunavail authenticated version=2
Debug: 3918 622 riscv-013.c:397 scan(): 41b 4i r 00000000 @10 -> + 00000000 @11
Debug: 3919 623 riscv-013.c:397 scan(): 41b 4i - 00000000 @10 -> + 01680001 @10
Debug: 3920 623 riscv-013.c:408 scan():  ->  hartsello=360 dmactive
Debug: 3921 623 riscv-013.c:397 scan(): 41b 4i w 01690001 @10 -> + 00000000 @10
Debug: 3922 623 riscv-013.c:408 scan():  hartsello=361 dmactive -> 
Debug: 3923 623 riscv-013.c:397 scan(): 41b 4i - 00000000 @10 -> + 01690001 @10
Debug: 3924 623 riscv-013.c:408 scan():  ->  hartsello=361 dmactive
Debug: 3925 624 riscv-013.c:397 scan(): 41b 4i r 00000000 @11 -> + 00000000 @10
Debug: 3926 624 riscv-013.c:397 scan(): 41b 4i - 00000000 @11 -> + 00003082 @11
Debug: 3927 624 riscv-013.c:408 scan():  ->  allunavail anyunavail authenticated version=2
Debug: 3928 624 riscv-013.c:397 scan(): 41b 4i r 00000000 @10 -> + 00000000 @11
Debug: 3929 625 riscv-013.c:397 scan(): 41b 4i - 00000000 @10 -> + 01690001 @10
Debug: 3930 625 riscv-013.c:408 scan():  ->  hartsello=361 dmactive
Debug: 3931 625 riscv-013.c:397 scan(): 41b 4i w 016a0001 @10 -> + 00000000 @10
Debug: 3932 625 riscv-013.c:408 scan():  hartsello=362 dmactive -> 
Debug: 3933 625 riscv-013.c:397 scan(): 41b 4i - 00000000 @10 -> + 016a0001 @10
Debug: 3934 625 riscv-013.c:408 scan():  ->  hartsello=362 dmactive
Debug: 3935 625 riscv-013.c:397 scan(): 41b 4i r 00000000 @11 -> + 00000000 @10
Debug: 3936 626 riscv-013.c:397 scan(): 41b 4i - 00000000 @11 -> + 00003082 @11
Debug: 3937 626 riscv-013.c:408 scan():  ->  allunavail anyunavail authenticated version=2
Debug: 3938 626 riscv-013.c:397 scan(): 41b 4i r 00000000 @10 -> + 00000000 @11
Debug: 3939 626 riscv-013.c:397 scan(): 41b 4i - 00000000 @10 -> + 016a0001 @10
Debug: 3940 626 riscv-013.c:408 scan():  ->  hartsello=362 dmactive
Debug: 3941 627 riscv-013.c:397 scan(): 41b 4i w 016b0001 @10 -> + 00000000 @10
Debug: 3942 627 riscv-013.c:408 scan():  hartsello=363 dmactive -> 
Debug: 3943 627 riscv-013.c:397 scan(): 41b 4i - 00000000 @10 -> + 016b0001 @10
Debug: 3944 627 riscv-013.c:408 scan():  ->  hartsello=363 dmactive
Debug: 3945 627 riscv-013.c:397 scan(): 41b 4i r 00000000 @11 -> + 00000000 @10
Debug: 3946 627 riscv-013.c:397 scan(): 41b 4i - 00000000 @11 -> + 00003082 @11
Debug: 3947 627 riscv-013.c:408 scan():  ->  allunavail anyunavail authenticated version=2
Debug: 3948 628 riscv-013.c:397 scan(): 41b 4i r 00000000 @10 -> + 00000000 @11
Debug: 3949 628 riscv-013.c:397 scan(): 41b 4i - 00000000 @10 -> + 016b0001 @10
Debug: 3950 628 riscv-013.c:408 scan():  ->  hartsello=363 dmactive
Debug: 3951 628 riscv-013.c:397 scan(): 41b 4i w 016c0001 @10 -> + 00000000 @10
Debug: 3952 628 riscv-013.c:408 scan():  hartsello=364 dmactive -> 
Debug: 3953 629 riscv-013.c:397 scan(): 41b 4i - 00000000 @10 -> + 016c0001 @10
Debug: 3954 629 riscv-013.c:408 scan():  ->  hartsello=364 dmactive
Debug: 3955 629 riscv-013.c:397 scan(): 41b 4i r 00000000 @11 -> + 00000000 @10
Debug: 3956 629 riscv-013.c:397 scan(): 41b 4i - 00000000 @11 -> + 00003082 @11
Debug: 3957 629 riscv-013.c:408 scan():  ->  allunavail anyunavail authenticated version=2
Debug: 3958 630 riscv-013.c:397 scan(): 41b 4i r 00000000 @10 -> + 00000000 @11
Debug: 3959 630 riscv-013.c:397 scan(): 41b 4i - 00000000 @10 -> + 016c0001 @10
Debug: 3960 630 riscv-013.c:408 scan():  ->  hartsello=364 dmactive
Debug: 3961 630 riscv-013.c:397 scan(): 41b 4i w 016d0001 @10 -> + 00000000 @10
Debug: 3962 630 riscv-013.c:408 scan():  hartsello=365 dmactive -> 
Debug: 3963 630 riscv-013.c:397 scan(): 41b 4i - 00000000 @10 -> + 016d0001 @10
Debug: 3964 630 riscv-013.c:408 scan():  ->  hartsello=365 dmactive
Debug: 3965 631 riscv-013.c:397 scan(): 41b 4i r 00000000 @11 -> + 00000000 @10
Debug: 3966 631 riscv-013.c:397 scan(): 41b 4i - 00000000 @11 -> + 00003082 @11
Debug: 3967 631 riscv-013.c:408 scan():  ->  allunavail anyunavail authenticated version=2
Debug: 3968 631 riscv-013.c:397 scan(): 41b 4i r 00000000 @10 -> + 00000000 @11
Debug: 3969 632 riscv-013.c:397 scan(): 41b 4i - 00000000 @10 -> + 016d0001 @10
Debug: 3970 632 riscv-013.c:408 scan():  ->  hartsello=365 dmactive
Debug: 3971 632 riscv-013.c:397 scan(): 41b 4i w 016e0001 @10 -> + 00000000 @10
Debug: 3972 632 riscv-013.c:408 scan():  hartsello=366 dmactive -> 
Debug: 3973 632 riscv-013.c:397 scan(): 41b 4i - 00000000 @10 -> + 016e0001 @10
Debug: 3974 632 riscv-013.c:408 scan():  ->  hartsello=366 dmactive
Debug: 3975 633 riscv-013.c:397 scan(): 41b 4i r 00000000 @11 -> + 00000000 @10
Debug: 3976 633 riscv-013.c:397 scan(): 41b 4i - 00000000 @11 -> + 00003082 @11
Debug: 3977 633 riscv-013.c:408 scan():  ->  allunavail anyunavail authenticated version=2
Debug: 3978 633 riscv-013.c:397 scan(): 41b 4i r 00000000 @10 -> + 00000000 @11
Debug: 3979 633 riscv-013.c:397 scan(): 41b 4i - 00000000 @10 -> + 016e0001 @10
Debug: 3980 633 riscv-013.c:408 scan():  ->  hartsello=366 dmactive
Debug: 3981 634 riscv-013.c:397 scan(): 41b 4i w 016f0001 @10 -> + 00000000 @10
Debug: 3982 634 riscv-013.c:408 scan():  hartsello=367 dmactive -> 
Debug: 3983 634 riscv-013.c:397 scan(): 41b 4i - 00000000 @10 -> + 016f0001 @10
Debug: 3984 634 riscv-013.c:408 scan():  ->  hartsello=367 dmactive
Debug: 3985 634 riscv-013.c:397 scan(): 41b 4i r 00000000 @11 -> + 00000000 @10
Debug: 3986 635 riscv-013.c:397 scan(): 41b 4i - 00000000 @11 -> + 00003082 @11
Debug: 3987 635 riscv-013.c:408 scan():  ->  allunavail anyunavail authenticated version=2
Debug: 3988 635 riscv-013.c:397 scan(): 41b 4i r 00000000 @10 -> + 00000000 @11
Debug: 3989 635 riscv-013.c:397 scan(): 41b 4i - 00000000 @10 -> + 016f0001 @10
Debug: 3990 635 riscv-013.c:408 scan():  ->  hartsello=367 dmactive
Debug: 3991 635 riscv-013.c:397 scan(): 41b 4i w 01700001 @10 -> + 00000000 @10
Debug: 3992 635 riscv-013.c:408 scan():  hartsello=368 dmactive -> 
Debug: 3993 636 riscv-013.c:397 scan(): 41b 4i - 00000000 @10 -> + 01700001 @10
Debug: 3994 636 riscv-013.c:408 scan():  ->  hartsello=368 dmactive
Debug: 3995 636 riscv-013.c:397 scan(): 41b 4i r 00000000 @11 -> + 00000000 @10
Debug: 3996 636 riscv-013.c:397 scan(): 41b 4i - 00000000 @11 -> + 00003082 @11
Debug: 3997 636 riscv-013.c:408 scan():  ->  allunavail anyunavail authenticated version=2
Debug: 3998 637 riscv-013.c:397 scan(): 41b 4i r 00000000 @10 -> + 00000000 @11
Debug: 3999 637 riscv-013.c:397 scan(): 41b 4i - 00000000 @10 -> + 01700001 @10
Debug: 4000 637 riscv-013.c:408 scan():  ->  hartsello=368 dmactive
Debug: 4001 637 riscv-013.c:397 scan(): 41b 4i w 01710001 @10 -> + 00000000 @10
Debug: 4002 637 riscv-013.c:408 scan():  hartsello=369 dmactive -> 
Debug: 4003 637 riscv-013.c:397 scan(): 41b 4i - 00000000 @10 -> + 01710001 @10
Debug: 4004 637 riscv-013.c:408 scan():  ->  hartsello=369 dmactive
Debug: 4005 638 riscv-013.c:397 scan(): 41b 4i r 00000000 @11 -> + 00000000 @10
Debug: 4006 638 riscv-013.c:397 scan(): 41b 4i - 00000000 @11 -> + 00003082 @11
Debug: 4007 638 riscv-013.c:408 scan():  ->  allunavail anyunavail authenticated version=2
Debug: 4008 638 riscv-013.c:397 scan(): 41b 4i r 00000000 @10 -> + 00000000 @11
Debug: 4009 638 riscv-013.c:397 scan(): 41b 4i - 00000000 @10 -> + 01710001 @10
Debug: 4010 638 riscv-013.c:408 scan():  ->  hartsello=369 dmactive
Debug: 4011 639 riscv-013.c:397 scan(): 41b 4i w 01720001 @10 -> + 00000000 @10
Debug: 4012 639 riscv-013.c:408 scan():  hartsello=370 dmactive -> 
Debug: 4013 639 riscv-013.c:397 scan(): 41b 4i - 00000000 @10 -> + 01720001 @10
Debug: 4014 639 riscv-013.c:408 scan():  ->  hartsello=370 dmactive
Debug: 4015 639 riscv-013.c:397 scan(): 41b 4i r 00000000 @11 -> + 00000000 @10
Debug: 4016 640 riscv-013.c:397 scan(): 41b 4i - 00000000 @11 -> + 00003082 @11
Debug: 4017 640 riscv-013.c:408 scan():  ->  allunavail anyunavail authenticated version=2
Debug: 4018 640 riscv-013.c:397 scan(): 41b 4i r 00000000 @10 -> + 00000000 @11
Debug: 4019 640 riscv-013.c:397 scan(): 41b 4i - 00000000 @10 -> + 01720001 @10
Debug: 4020 640 riscv-013.c:408 scan():  ->  hartsello=370 dmactive
Debug: 4021 641 riscv-013.c:397 scan(): 41b 4i w 01730001 @10 -> + 00000000 @10
Debug: 4022 641 riscv-013.c:408 scan():  hartsello=371 dmactive -> 
Debug: 4023 641 riscv-013.c:397 scan(): 41b 4i - 00000000 @10 -> + 01730001 @10
Debug: 4024 641 riscv-013.c:408 scan():  ->  hartsello=371 dmactive
Debug: 4025 641 riscv-013.c:397 scan(): 41b 4i r 00000000 @11 -> + 00000000 @10
Debug: 4026 641 riscv-013.c:397 scan(): 41b 4i - 00000000 @11 -> + 00003082 @11
Debug: 4027 641 riscv-013.c:408 scan():  ->  allunavail anyunavail authenticated version=2
Debug: 4028 642 riscv-013.c:397 scan(): 41b 4i r 00000000 @10 -> + 00000000 @11
Debug: 4029 642 riscv-013.c:397 scan(): 41b 4i - 00000000 @10 -> + 01730001 @10
Debug: 4030 642 riscv-013.c:408 scan():  ->  hartsello=371 dmactive
Debug: 4031 642 riscv-013.c:397 scan(): 41b 4i w 01740001 @10 -> + 00000000 @10
Debug: 4032 642 riscv-013.c:408 scan():  hartsello=372 dmactive -> 
Debug: 4033 643 riscv-013.c:397 scan(): 41b 4i - 00000000 @10 -> + 01740001 @10
Debug: 4034 643 riscv-013.c:408 scan():  ->  hartsello=372 dmactive
Debug: 4035 643 riscv-013.c:397 scan(): 41b 4i r 00000000 @11 -> + 00000000 @10
Debug: 4036 643 riscv-013.c:397 scan(): 41b 4i - 00000000 @11 -> + 00003082 @11
Debug: 4037 643 riscv-013.c:408 scan():  ->  allunavail anyunavail authenticated version=2
Debug: 4038 644 riscv-013.c:397 scan(): 41b 4i r 00000000 @10 -> + 00000000 @11
Debug: 4039 644 riscv-013.c:397 scan(): 41b 4i - 00000000 @10 -> + 01740001 @10
Debug: 4040 644 riscv-013.c:408 scan():  ->  hartsello=372 dmactive
Debug: 4041 644 riscv-013.c:397 scan(): 41b 4i w 01750001 @10 -> + 00000000 @10
Debug: 4042 644 riscv-013.c:408 scan():  hartsello=373 dmactive -> 
Debug: 4043 644 riscv-013.c:397 scan(): 41b 4i - 00000000 @10 -> + 01750001 @10
Debug: 4044 644 riscv-013.c:408 scan():  ->  hartsello=373 dmactive
Debug: 4045 645 riscv-013.c:397 scan(): 41b 4i r 00000000 @11 -> + 00000000 @10
Debug: 4046 645 riscv-013.c:397 scan(): 41b 4i - 00000000 @11 -> + 00003082 @11
Debug: 4047 645 riscv-013.c:408 scan():  ->  allunavail anyunavail authenticated version=2
Debug: 4048 645 riscv-013.c:397 scan(): 41b 4i r 00000000 @10 -> + 00000000 @11
Debug: 4049 645 riscv-013.c:397 scan(): 41b 4i - 00000000 @10 -> + 01750001 @10
Debug: 4050 645 riscv-013.c:408 scan():  ->  hartsello=373 dmactive
Debug: 4051 646 riscv-013.c:397 scan(): 41b 4i w 01760001 @10 -> + 00000000 @10
Debug: 4052 646 riscv-013.c:408 scan():  hartsello=374 dmactive -> 
Debug: 4053 646 riscv-013.c:397 scan(): 41b 4i - 00000000 @10 -> + 01760001 @10
Debug: 4054 646 riscv-013.c:408 scan():  ->  hartsello=374 dmactive
Debug: 4055 646 riscv-013.c:397 scan(): 41b 4i r 00000000 @11 -> + 00000000 @10
Debug: 4056 647 riscv-013.c:397 scan(): 41b 4i - 00000000 @11 -> + 00003082 @11
Debug: 4057 647 riscv-013.c:408 scan():  ->  allunavail anyunavail authenticated version=2
Debug: 4058 647 riscv-013.c:397 scan(): 41b 4i r 00000000 @10 -> + 00000000 @11
Debug: 4059 647 riscv-013.c:397 scan(): 41b 4i - 00000000 @10 -> + 01760001 @10
Debug: 4060 647 riscv-013.c:408 scan():  ->  hartsello=374 dmactive
Debug: 4061 647 riscv-013.c:397 scan(): 41b 4i w 01770001 @10 -> + 00000000 @10
Debug: 4062 647 riscv-013.c:408 scan():  hartsello=375 dmactive -> 
Debug: 4063 648 riscv-013.c:397 scan(): 41b 4i - 00000000 @10 -> + 01770001 @10
Debug: 4064 648 riscv-013.c:408 scan():  ->  hartsello=375 dmactive
Debug: 4065 648 riscv-013.c:397 scan(): 41b 4i r 00000000 @11 -> + 00000000 @10
Debug: 4066 648 riscv-013.c:397 scan(): 41b 4i - 00000000 @11 -> + 00003082 @11
Debug: 4067 648 riscv-013.c:408 scan():  ->  allunavail anyunavail authenticated version=2
Debug: 4068 648 riscv-013.c:397 scan(): 41b 4i r 00000000 @10 -> + 00000000 @11
Debug: 4069 649 riscv-013.c:397 scan(): 41b 4i - 00000000 @10 -> + 01770001 @10
Debug: 4070 649 riscv-013.c:408 scan():  ->  hartsello=375 dmactive
Debug: 4071 649 riscv-013.c:397 scan(): 41b 4i w 01780001 @10 -> + 00000000 @10
Debug: 4072 649 riscv-013.c:408 scan():  hartsello=376 dmactive -> 
Debug: 4073 649 riscv-013.c:397 scan(): 41b 4i - 00000000 @10 -> + 01780001 @10
Debug: 4074 649 riscv-013.c:408 scan():  ->  hartsello=376 dmactive
Debug: 4075 649 riscv-013.c:397 scan(): 41b 4i r 00000000 @11 -> + 00000000 @10
Debug: 4076 650 riscv-013.c:397 scan(): 41b 4i - 00000000 @11 -> + 00003082 @11
Debug: 4077 650 riscv-013.c:408 scan():  ->  allunavail anyunavail authenticated version=2
Debug: 4078 650 riscv-013.c:397 scan(): 41b 4i r 00000000 @10 -> + 00000000 @11
Debug: 4079 650 riscv-013.c:397 scan(): 41b 4i - 00000000 @10 -> + 01780001 @10
Debug: 4080 650 riscv-013.c:408 scan():  ->  hartsello=376 dmactive
Debug: 4081 650 riscv-013.c:397 scan(): 41b 4i w 01790001 @10 -> + 00000000 @10
Debug: 4082 650 riscv-013.c:408 scan():  hartsello=377 dmactive -> 
Debug: 4083 651 riscv-013.c:397 scan(): 41b 4i - 00000000 @10 -> + 01790001 @10
Debug: 4084 651 riscv-013.c:408 scan():  ->  hartsello=377 dmactive
Debug: 4085 651 riscv-013.c:397 scan(): 41b 4i r 00000000 @11 -> + 00000000 @10
Debug: 4086 651 riscv-013.c:397 scan(): 41b 4i - 00000000 @11 -> + 00003082 @11
Debug: 4087 651 riscv-013.c:408 scan():  ->  allunavail anyunavail authenticated version=2
Debug: 4088 652 riscv-013.c:397 scan(): 41b 4i r 00000000 @10 -> + 00000000 @11
Debug: 4089 652 riscv-013.c:397 scan(): 41b 4i - 00000000 @10 -> + 01790001 @10
Debug: 4090 652 riscv-013.c:408 scan():  ->  hartsello=377 dmactive
Debug: 4091 653 riscv-013.c:397 scan(): 41b 4i w 017a0001 @10 -> + 00000000 @10
Debug: 4092 653 riscv-013.c:408 scan():  hartsello=378 dmactive -> 
Debug: 4093 653 riscv-013.c:397 scan(): 41b 4i - 00000000 @10 -> + 017a0001 @10
Debug: 4094 653 riscv-013.c:408 scan():  ->  hartsello=378 dmactive
Debug: 4095 653 riscv-013.c:397 scan(): 41b 4i r 00000000 @11 -> + 00000000 @10
Debug: 4096 653 riscv-013.c:397 scan(): 41b 4i - 00000000 @11 -> + 00003082 @11
Debug: 4097 654 riscv-013.c:408 scan():  ->  allunavail anyunavail authenticated version=2
Debug: 4098 654 riscv-013.c:397 scan(): 41b 4i r 00000000 @10 -> + 00000000 @11
Debug: 4099 654 riscv-013.c:397 scan(): 41b 4i - 00000000 @10 -> + 017a0001 @10
Debug: 4100 654 riscv-013.c:408 scan():  ->  hartsello=378 dmactive
Debug: 4101 654 riscv-013.c:397 scan(): 41b 4i w 017b0001 @10 -> + 00000000 @10
Debug: 4102 654 riscv-013.c:408 scan():  hartsello=379 dmactive -> 
Debug: 4103 655 riscv-013.c:397 scan(): 41b 4i - 00000000 @10 -> + 017b0001 @10
Debug: 4104 655 riscv-013.c:408 scan():  ->  hartsello=379 dmactive
Debug: 4105 655 riscv-013.c:397 scan(): 41b 4i r 00000000 @11 -> + 00000000 @10
Debug: 4106 655 riscv-013.c:397 scan(): 41b 4i - 00000000 @11 -> + 00003082 @11
Debug: 4107 655 riscv-013.c:408 scan():  ->  allunavail anyunavail authenticated version=2
Debug: 4108 656 riscv-013.c:397 scan(): 41b 4i r 00000000 @10 -> + 00000000 @11
Debug: 4109 656 riscv-013.c:397 scan(): 41b 4i - 00000000 @10 -> + 017b0001 @10
Debug: 4110 656 riscv-013.c:408 scan():  ->  hartsello=379 dmactive
Debug: 4111 656 riscv-013.c:397 scan(): 41b 4i w 017c0001 @10 -> + 00000000 @10
Debug: 4112 656 riscv-013.c:408 scan():  hartsello=380 dmactive -> 
Debug: 4113 656 riscv-013.c:397 scan(): 41b 4i - 00000000 @10 -> + 017c0001 @10
Debug: 4114 656 riscv-013.c:408 scan():  ->  hartsello=380 dmactive
Debug: 4115 657 riscv-013.c:397 scan(): 41b 4i r 00000000 @11 -> + 00000000 @10
Debug: 4116 657 riscv-013.c:397 scan(): 41b 4i - 00000000 @11 -> + 00003082 @11
Debug: 4117 657 riscv-013.c:408 scan():  ->  allunavail anyunavail authenticated version=2
Debug: 4118 657 riscv-013.c:397 scan(): 41b 4i r 00000000 @10 -> + 00000000 @11
Debug: 4119 657 riscv-013.c:397 scan(): 41b 4i - 00000000 @10 -> + 017c0001 @10
Debug: 4120 657 riscv-013.c:408 scan():  ->  hartsello=380 dmactive
Debug: 4121 658 riscv-013.c:397 scan(): 41b 4i w 017d0001 @10 -> + 00000000 @10
Debug: 4122 658 riscv-013.c:408 scan():  hartsello=381 dmactive -> 
Debug: 4123 658 riscv-013.c:397 scan(): 41b 4i - 00000000 @10 -> + 017d0001 @10
Debug: 4124 658 riscv-013.c:408 scan():  ->  hartsello=381 dmactive
Debug: 4125 658 riscv-013.c:397 scan(): 41b 4i r 00000000 @11 -> + 00000000 @10
Debug: 4126 659 riscv-013.c:397 scan(): 41b 4i - 00000000 @11 -> + 00003082 @11
Debug: 4127 659 riscv-013.c:408 scan():  ->  allunavail anyunavail authenticated version=2
Debug: 4128 659 riscv-013.c:397 scan(): 41b 4i r 00000000 @10 -> + 00000000 @11
Debug: 4129 659 riscv-013.c:397 scan(): 41b 4i - 00000000 @10 -> + 017d0001 @10
Debug: 4130 659 riscv-013.c:408 scan():  ->  hartsello=381 dmactive
Debug: 4131 659 riscv-013.c:397 scan(): 41b 4i w 017e0001 @10 -> + 00000000 @10
Debug: 4132 659 riscv-013.c:408 scan():  hartsello=382 dmactive -> 
Debug: 4133 660 riscv-013.c:397 scan(): 41b 4i - 00000000 @10 -> + 017e0001 @10
Debug: 4134 660 riscv-013.c:408 scan():  ->  hartsello=382 dmactive
Debug: 4135 660 riscv-013.c:397 scan(): 41b 4i r 00000000 @11 -> + 00000000 @10
Debug: 4136 660 riscv-013.c:397 scan(): 41b 4i - 00000000 @11 -> + 00003082 @11
Debug: 4137 660 riscv-013.c:408 scan():  ->  allunavail anyunavail authenticated version=2
Debug: 4138 661 riscv-013.c:397 scan(): 41b 4i r 00000000 @10 -> + 00000000 @11
Debug: 4139 661 riscv-013.c:397 scan(): 41b 4i - 00000000 @10 -> + 017e0001 @10
Debug: 4140 661 riscv-013.c:408 scan():  ->  hartsello=382 dmactive
Debug: 4141 661 riscv-013.c:397 scan(): 41b 4i w 017f0001 @10 -> + 00000000 @10
Debug: 4142 661 riscv-013.c:408 scan():  hartsello=383 dmactive -> 
Debug: 4143 661 riscv-013.c:397 scan(): 41b 4i - 00000000 @10 -> + 017f0001 @10
Debug: 4144 661 riscv-013.c:408 scan():  ->  hartsello=383 dmactive
Debug: 4145 662 riscv-013.c:397 scan(): 41b 4i r 00000000 @11 -> + 00000000 @10
Debug: 4146 662 riscv-013.c:397 scan(): 41b 4i - 00000000 @11 -> + 00003082 @11
Debug: 4147 662 riscv-013.c:408 scan():  ->  allunavail anyunavail authenticated version=2
Debug: 4148 662 riscv-013.c:397 scan(): 41b 4i r 00000000 @10 -> + 00000000 @11
Debug: 4149 663 riscv-013.c:397 scan(): 41b 4i - 00000000 @10 -> + 017f0001 @10
Debug: 4150 663 riscv-013.c:408 scan():  ->  hartsello=383 dmactive
Debug: 4151 663 riscv-013.c:397 scan(): 41b 4i w 01800001 @10 -> + 00000000 @10
Debug: 4152 663 riscv-013.c:408 scan():  hartsello=384 dmactive -> 
Debug: 4153 663 riscv-013.c:397 scan(): 41b 4i - 00000000 @10 -> + 01800001 @10
Debug: 4154 663 riscv-013.c:408 scan():  ->  hartsello=384 dmactive
Debug: 4155 664 riscv-013.c:397 scan(): 41b 4i r 00000000 @11 -> + 00000000 @10
Debug: 4156 664 riscv-013.c:397 scan(): 41b 4i - 00000000 @11 -> + 00003082 @11
Debug: 4157 664 riscv-013.c:408 scan():  ->  allunavail anyunavail authenticated version=2
Debug: 4158 664 riscv-013.c:397 scan(): 41b 4i r 00000000 @10 -> + 00000000 @11
Debug: 4159 664 riscv-013.c:397 scan(): 41b 4i - 00000000 @10 -> + 01800001 @10
Debug: 4160 664 riscv-013.c:408 scan():  ->  hartsello=384 dmactive
Debug: 4161 665 riscv-013.c:397 scan(): 41b 4i w 01810001 @10 -> + 00000000 @10
Debug: 4162 665 riscv-013.c:408 scan():  hartsello=385 dmactive -> 
Debug: 4163 665 riscv-013.c:397 scan(): 41b 4i - 00000000 @10 -> + 01810001 @10
Debug: 4164 665 riscv-013.c:408 scan():  ->  hartsello=385 dmactive
Debug: 4165 665 riscv-013.c:397 scan(): 41b 4i r 00000000 @11 -> + 00000000 @10
Debug: 4166 666 riscv-013.c:397 scan(): 41b 4i - 00000000 @11 -> + 00003082 @11
Debug: 4167 666 riscv-013.c:408 scan():  ->  allunavail anyunavail authenticated version=2
Debug: 4168 666 riscv-013.c:397 scan(): 41b 4i r 00000000 @10 -> + 00000000 @11
Debug: 4169 666 riscv-013.c:397 scan(): 41b 4i - 00000000 @10 -> + 01810001 @10
Debug: 4170 666 riscv-013.c:408 scan():  ->  hartsello=385 dmactive
Debug: 4171 667 riscv-013.c:397 scan(): 41b 4i w 01820001 @10 -> + 00000000 @10
Debug: 4172 667 riscv-013.c:408 scan():  hartsello=386 dmactive -> 
Debug: 4173 667 riscv-013.c:397 scan(): 41b 4i - 00000000 @10 -> + 01820001 @10
Debug: 4174 667 riscv-013.c:408 scan():  ->  hartsello=386 dmactive
Debug: 4175 667 riscv-013.c:397 scan(): 41b 4i r 00000000 @11 -> + 00000000 @10
Debug: 4176 667 riscv-013.c:397 scan(): 41b 4i - 00000000 @11 -> + 00003082 @11
Debug: 4177 667 riscv-013.c:408 scan():  ->  allunavail anyunavail authenticated version=2
Debug: 4178 668 riscv-013.c:397 scan(): 41b 4i r 00000000 @10 -> + 00000000 @11
Debug: 4179 668 riscv-013.c:397 scan(): 41b 4i - 00000000 @10 -> + 01820001 @10
Debug: 4180 668 riscv-013.c:408 scan():  ->  hartsello=386 dmactive
Debug: 4181 668 riscv-013.c:397 scan(): 41b 4i w 01830001 @10 -> + 00000000 @10
Debug: 4182 668 riscv-013.c:408 scan():  hartsello=387 dmactive -> 
Debug: 4183 669 riscv-013.c:397 scan(): 41b 4i - 00000000 @10 -> + 01830001 @10
Debug: 4184 669 riscv-013.c:408 scan():  ->  hartsello=387 dmactive
Debug: 4185 669 riscv-013.c:397 scan(): 41b 4i r 00000000 @11 -> + 00000000 @10
Debug: 4186 669 riscv-013.c:397 scan(): 41b 4i - 00000000 @11 -> + 00003082 @11
Debug: 4187 669 riscv-013.c:408 scan():  ->  allunavail anyunavail authenticated version=2
Debug: 4188 669 riscv-013.c:397 scan(): 41b 4i r 00000000 @10 -> + 00000000 @11
Debug: 4189 670 riscv-013.c:397 scan(): 41b 4i - 00000000 @10 -> + 01830001 @10
Debug: 4190 670 riscv-013.c:408 scan():  ->  hartsello=387 dmactive
Debug: 4191 670 riscv-013.c:397 scan(): 41b 4i w 01840001 @10 -> + 00000000 @10
Debug: 4192 670 riscv-013.c:408 scan():  hartsello=388 dmactive -> 
Debug: 4193 670 riscv-013.c:397 scan(): 41b 4i - 00000000 @10 -> + 01840001 @10
Debug: 4194 670 riscv-013.c:408 scan():  ->  hartsello=388 dmactive
Debug: 4195 671 riscv-013.c:397 scan(): 41b 4i r 00000000 @11 -> + 00000000 @10
Debug: 4196 671 riscv-013.c:397 scan(): 41b 4i - 00000000 @11 -> + 00003082 @11
Debug: 4197 671 riscv-013.c:408 scan():  ->  allunavail anyunavail authenticated version=2
Debug: 4198 671 riscv-013.c:397 scan(): 41b 4i r 00000000 @10 -> + 00000000 @11
Debug: 4199 672 riscv-013.c:397 scan(): 41b 4i - 00000000 @10 -> + 01840001 @10
Debug: 4200 672 riscv-013.c:408 scan():  ->  hartsello=388 dmactive
Debug: 4201 672 riscv-013.c:397 scan(): 41b 4i w 01850001 @10 -> + 00000000 @10
Debug: 4202 672 riscv-013.c:408 scan():  hartsello=389 dmactive -> 
Debug: 4203 672 riscv-013.c:397 scan(): 41b 4i - 00000000 @10 -> + 01850001 @10
Debug: 4204 672 riscv-013.c:408 scan():  ->  hartsello=389 dmactive
Debug: 4205 673 riscv-013.c:397 scan(): 41b 4i r 00000000 @11 -> + 00000000 @10
Debug: 4206 673 riscv-013.c:397 scan(): 41b 4i - 00000000 @11 -> + 00003082 @11
Debug: 4207 673 riscv-013.c:408 scan():  ->  allunavail anyunavail authenticated version=2
Debug: 4208 673 riscv-013.c:397 scan(): 41b 4i r 00000000 @10 -> + 00000000 @11
Debug: 4209 673 riscv-013.c:397 scan(): 41b 4i - 00000000 @10 -> + 01850001 @10
Debug: 4210 673 riscv-013.c:408 scan():  ->  hartsello=389 dmactive
Debug: 4211 674 riscv-013.c:397 scan(): 41b 4i w 01860001 @10 -> + 00000000 @10
Debug: 4212 674 riscv-013.c:408 scan():  hartsello=390 dmactive -> 
Debug: 4213 674 riscv-013.c:397 scan(): 41b 4i - 00000000 @10 -> + 01860001 @10
Debug: 4214 674 riscv-013.c:408 scan():  ->  hartsello=390 dmactive
Debug: 4215 674 riscv-013.c:397 scan(): 41b 4i r 00000000 @11 -> + 00000000 @10
Debug: 4216 675 riscv-013.c:397 scan(): 41b 4i - 00000000 @11 -> + 00003082 @11
Debug: 4217 675 riscv-013.c:408 scan():  ->  allunavail anyunavail authenticated version=2
Debug: 4218 675 riscv-013.c:397 scan(): 41b 4i r 00000000 @10 -> + 00000000 @11
Debug: 4219 675 riscv-013.c:397 scan(): 41b 4i - 00000000 @10 -> + 01860001 @10
Debug: 4220 675 riscv-013.c:408 scan():  ->  hartsello=390 dmactive
Debug: 4221 676 riscv-013.c:397 scan(): 41b 4i w 01870001 @10 -> + 00000000 @10
Debug: 4222 676 riscv-013.c:408 scan():  hartsello=391 dmactive -> 
Debug: 4223 676 riscv-013.c:397 scan(): 41b 4i - 00000000 @10 -> + 01870001 @10
Debug: 4224 676 riscv-013.c:408 scan():  ->  hartsello=391 dmactive
Debug: 4225 676 riscv-013.c:397 scan(): 41b 4i r 00000000 @11 -> + 00000000 @10
Debug: 4226 676 riscv-013.c:397 scan(): 41b 4i - 00000000 @11 -> + 00003082 @11
Debug: 4227 676 riscv-013.c:408 scan():  ->  allunavail anyunavail authenticated version=2
Debug: 4228 677 riscv-013.c:397 scan(): 41b 4i r 00000000 @10 -> + 00000000 @11
Debug: 4229 677 riscv-013.c:397 scan(): 41b 4i - 00000000 @10 -> + 01870001 @10
Debug: 4230 677 riscv-013.c:408 scan():  ->  hartsello=391 dmactive
Debug: 4231 677 riscv-013.c:397 scan(): 41b 4i w 01880001 @10 -> + 00000000 @10
Debug: 4232 677 riscv-013.c:408 scan():  hartsello=392 dmactive -> 
Debug: 4233 677 riscv-013.c:397 scan(): 41b 4i - 00000000 @10 -> + 01880001 @10
Debug: 4234 677 riscv-013.c:408 scan():  ->  hartsello=392 dmactive
Debug: 4235 678 riscv-013.c:397 scan(): 41b 4i r 00000000 @11 -> + 00000000 @10
Debug: 4236 678 riscv-013.c:397 scan(): 41b 4i - 00000000 @11 -> + 00003082 @11
Debug: 4237 678 riscv-013.c:408 scan():  ->  allunavail anyunavail authenticated version=2
Debug: 4238 678 riscv-013.c:397 scan(): 41b 4i r 00000000 @10 -> + 00000000 @11
Debug: 4239 678 riscv-013.c:397 scan(): 41b 4i - 00000000 @10 -> + 01880001 @10
Debug: 4240 679 riscv-013.c:408 scan():  ->  hartsello=392 dmactive
Debug: 4241 679 riscv-013.c:397 scan(): 41b 4i w 01890001 @10 -> + 00000000 @10
Debug: 4242 679 riscv-013.c:408 scan():  hartsello=393 dmactive -> 
Debug: 4243 679 riscv-013.c:397 scan(): 41b 4i - 00000000 @10 -> + 01890001 @10
Debug: 4244 679 riscv-013.c:408 scan():  ->  hartsello=393 dmactive
Debug: 4245 679 riscv-013.c:397 scan(): 41b 4i r 00000000 @11 -> + 00000000 @10
Debug: 4246 680 riscv-013.c:397 scan(): 41b 4i - 00000000 @11 -> + 00003082 @11
Debug: 4247 680 riscv-013.c:408 scan():  ->  allunavail anyunavail authenticated version=2
Debug: 4248 680 riscv-013.c:397 scan(): 41b 4i r 00000000 @10 -> + 00000000 @11
Debug: 4249 680 riscv-013.c:397 scan(): 41b 4i - 00000000 @10 -> + 01890001 @10
Debug: 4250 680 riscv-013.c:408 scan():  ->  hartsello=393 dmactive
Debug: 4251 680 riscv-013.c:397 scan(): 41b 4i w 018a0001 @10 -> + 00000000 @10
Debug: 4252 680 riscv-013.c:408 scan():  hartsello=394 dmactive -> 
Debug: 4253 681 riscv-013.c:397 scan(): 41b 4i - 00000000 @10 -> + 018a0001 @10
Debug: 4254 681 riscv-013.c:408 scan():  ->  hartsello=394 dmactive
Debug: 4255 681 riscv-013.c:397 scan(): 41b 4i r 00000000 @11 -> + 00000000 @10
Debug: 4256 681 riscv-013.c:397 scan(): 41b 4i - 00000000 @11 -> + 00003082 @11
Debug: 4257 681 riscv-013.c:408 scan():  ->  allunavail anyunavail authenticated version=2
Debug: 4258 681 riscv-013.c:397 scan(): 41b 4i r 00000000 @10 -> + 00000000 @11
Debug: 4259 682 riscv-013.c:397 scan(): 41b 4i - 00000000 @10 -> + 018a0001 @10
Debug: 4260 682 riscv-013.c:408 scan():  ->  hartsello=394 dmactive
Debug: 4261 682 riscv-013.c:397 scan(): 41b 4i w 018b0001 @10 -> + 00000000 @10
Debug: 4262 682 riscv-013.c:408 scan():  hartsello=395 dmactive -> 
Debug: 4263 682 riscv-013.c:397 scan(): 41b 4i - 00000000 @10 -> + 018b0001 @10
Debug: 4264 682 riscv-013.c:408 scan():  ->  hartsello=395 dmactive
Debug: 4265 682 riscv-013.c:397 scan(): 41b 4i r 00000000 @11 -> + 00000000 @10
Debug: 4266 683 riscv-013.c:397 scan(): 41b 4i - 00000000 @11 -> + 00003082 @11
Debug: 4267 683 riscv-013.c:408 scan():  ->  allunavail anyunavail authenticated version=2
Debug: 4268 683 riscv-013.c:397 scan(): 41b 4i r 00000000 @10 -> + 00000000 @11
Debug: 4269 683 riscv-013.c:397 scan(): 41b 4i - 00000000 @10 -> + 018b0001 @10
Debug: 4270 683 riscv-013.c:408 scan():  ->  hartsello=395 dmactive
Debug: 4271 683 riscv-013.c:397 scan(): 41b 4i w 018c0001 @10 -> + 00000000 @10
Debug: 4272 683 riscv-013.c:408 scan():  hartsello=396 dmactive -> 
Debug: 4273 684 riscv-013.c:397 scan(): 41b 4i - 00000000 @10 -> + 018c0001 @10
Debug: 4274 684 riscv-013.c:408 scan():  ->  hartsello=396 dmactive
Debug: 4275 684 riscv-013.c:397 scan(): 41b 4i r 00000000 @11 -> + 00000000 @10
Debug: 4276 684 riscv-013.c:397 scan(): 41b 4i - 00000000 @11 -> + 00003082 @11
Debug: 4277 684 riscv-013.c:408 scan():  ->  allunavail anyunavail authenticated version=2
Debug: 4278 684 riscv-013.c:397 scan(): 41b 4i r 00000000 @10 -> + 00000000 @11
Debug: 4279 685 riscv-013.c:397 scan(): 41b 4i - 00000000 @10 -> + 018c0001 @10
Debug: 4280 685 riscv-013.c:408 scan():  ->  hartsello=396 dmactive
Debug: 4281 685 riscv-013.c:397 scan(): 41b 4i w 018d0001 @10 -> + 00000000 @10
Debug: 4282 685 riscv-013.c:408 scan():  hartsello=397 dmactive -> 
Debug: 4283 685 riscv-013.c:397 scan(): 41b 4i - 00000000 @10 -> + 018d0001 @10
Debug: 4284 685 riscv-013.c:408 scan():  ->  hartsello=397 dmactive
Debug: 4285 686 riscv-013.c:397 scan(): 41b 4i r 00000000 @11 -> + 00000000 @10
Debug: 4286 686 riscv-013.c:397 scan(): 41b 4i - 00000000 @11 -> + 00003082 @11
Debug: 4287 686 riscv-013.c:408 scan():  ->  allunavail anyunavail authenticated version=2
Debug: 4288 686 riscv-013.c:397 scan(): 41b 4i r 00000000 @10 -> + 00000000 @11
Debug: 4289 686 riscv-013.c:397 scan(): 41b 4i - 00000000 @10 -> + 018d0001 @10
Debug: 4290 686 riscv-013.c:408 scan():  ->  hartsello=397 dmactive
Debug: 4291 687 riscv-013.c:397 scan(): 41b 4i w 018e0001 @10 -> + 00000000 @10
Debug: 4292 687 riscv-013.c:408 scan():  hartsello=398 dmactive -> 
Debug: 4293 687 riscv-013.c:397 scan(): 41b 4i - 00000000 @10 -> + 018e0001 @10
Debug: 4294 687 riscv-013.c:408 scan():  ->  hartsello=398 dmactive
Debug: 4295 687 riscv-013.c:397 scan(): 41b 4i r 00000000 @11 -> + 00000000 @10
Debug: 4296 687 riscv-013.c:397 scan(): 41b 4i - 00000000 @11 -> + 00003082 @11
Debug: 4297 687 riscv-013.c:408 scan():  ->  allunavail anyunavail authenticated version=2
Debug: 4298 688 riscv-013.c:397 scan(): 41b 4i r 00000000 @10 -> + 00000000 @11
Debug: 4299 688 riscv-013.c:397 scan(): 41b 4i - 00000000 @10 -> + 018e0001 @10
Debug: 4300 688 riscv-013.c:408 scan():  ->  hartsello=398 dmactive
Debug: 4301 688 riscv-013.c:397 scan(): 41b 4i w 018f0001 @10 -> + 00000000 @10
Debug: 4302 688 riscv-013.c:408 scan():  hartsello=399 dmactive -> 
Debug: 4303 688 riscv-013.c:397 scan(): 41b 4i - 00000000 @10 -> + 018f0001 @10
Debug: 4304 688 riscv-013.c:408 scan():  ->  hartsello=399 dmactive
Debug: 4305 689 riscv-013.c:397 scan(): 41b 4i r 00000000 @11 -> + 00000000 @10
Debug: 4306 689 riscv-013.c:397 scan(): 41b 4i - 00000000 @11 -> + 00003082 @11
Debug: 4307 689 riscv-013.c:408 scan():  ->  allunavail anyunavail authenticated version=2
Debug: 4308 689 riscv-013.c:397 scan(): 41b 4i r 00000000 @10 -> + 00000000 @11
Debug: 4309 689 riscv-013.c:397 scan(): 41b 4i - 00000000 @10 -> + 018f0001 @10
Debug: 4310 689 riscv-013.c:408 scan():  ->  hartsello=399 dmactive
Debug: 4311 690 riscv-013.c:397 scan(): 41b 4i w 01900001 @10 -> + 00000000 @10
Debug: 4312 690 riscv-013.c:408 scan():  hartsello=400 dmactive -> 
Debug: 4313 690 riscv-013.c:397 scan(): 41b 4i - 00000000 @10 -> + 01900001 @10
Debug: 4314 690 riscv-013.c:408 scan():  ->  hartsello=400 dmactive
Debug: 4315 690 riscv-013.c:397 scan(): 41b 4i r 00000000 @11 -> + 00000000 @10
Debug: 4316 690 riscv-013.c:397 scan(): 41b 4i - 00000000 @11 -> + 00003082 @11
Debug: 4317 690 riscv-013.c:408 scan():  ->  allunavail anyunavail authenticated version=2
Debug: 4318 691 riscv-013.c:397 scan(): 41b 4i r 00000000 @10 -> + 00000000 @11
Debug: 4319 691 riscv-013.c:397 scan(): 41b 4i - 00000000 @10 -> + 01900001 @10
Debug: 4320 691 riscv-013.c:408 scan():  ->  hartsello=400 dmactive
Debug: 4321 691 riscv-013.c:397 scan(): 41b 4i w 01910001 @10 -> + 00000000 @10
Debug: 4322 691 riscv-013.c:408 scan():  hartsello=401 dmactive -> 
Debug: 4323 691 riscv-013.c:397 scan(): 41b 4i - 00000000 @10 -> + 01910001 @10
Debug: 4324 692 riscv-013.c:408 scan():  ->  hartsello=401 dmactive
Debug: 4325 692 riscv-013.c:397 scan(): 41b 4i r 00000000 @11 -> + 00000000 @10
Debug: 4326 692 riscv-013.c:397 scan(): 41b 4i - 00000000 @11 -> + 00003082 @11
Debug: 4327 692 riscv-013.c:408 scan():  ->  allunavail anyunavail authenticated version=2
Debug: 4328 692 riscv-013.c:397 scan(): 41b 4i r 00000000 @10 -> + 00000000 @11
Debug: 4329 692 riscv-013.c:397 scan(): 41b 4i - 00000000 @10 -> + 01910001 @10
Debug: 4330 693 riscv-013.c:408 scan():  ->  hartsello=401 dmactive
Debug: 4331 693 riscv-013.c:397 scan(): 41b 4i w 01920001 @10 -> + 00000000 @10
Debug: 4332 693 riscv-013.c:408 scan():  hartsello=402 dmactive -> 
Debug: 4333 693 riscv-013.c:397 scan(): 41b 4i - 00000000 @10 -> + 01920001 @10
Debug: 4334 693 riscv-013.c:408 scan():  ->  hartsello=402 dmactive
Debug: 4335 693 riscv-013.c:397 scan(): 41b 4i r 00000000 @11 -> + 00000000 @10
Debug: 4336 693 riscv-013.c:397 scan(): 41b 4i - 00000000 @11 -> + 00003082 @11
Debug: 4337 694 riscv-013.c:408 scan():  ->  allunavail anyunavail authenticated version=2
Debug: 4338 694 riscv-013.c:397 scan(): 41b 4i r 00000000 @10 -> + 00000000 @11
Debug: 4339 694 riscv-013.c:397 scan(): 41b 4i - 00000000 @10 -> + 01920001 @10
Debug: 4340 694 riscv-013.c:408 scan():  ->  hartsello=402 dmactive
Debug: 4341 694 riscv-013.c:397 scan(): 41b 4i w 01930001 @10 -> + 00000000 @10
Debug: 4342 694 riscv-013.c:408 scan():  hartsello=403 dmactive -> 
Debug: 4343 694 riscv-013.c:397 scan(): 41b 4i - 00000000 @10 -> + 01930001 @10
Debug: 4344 694 riscv-013.c:408 scan():  ->  hartsello=403 dmactive
Debug: 4345 695 riscv-013.c:397 scan(): 41b 4i r 00000000 @11 -> + 00000000 @10
Debug: 4346 695 riscv-013.c:397 scan(): 41b 4i - 00000000 @11 -> + 00003082 @11
Debug: 4347 695 riscv-013.c:408 scan():  ->  allunavail anyunavail authenticated version=2
Debug: 4348 695 riscv-013.c:397 scan(): 41b 4i r 00000000 @10 -> + 00000000 @11
Debug: 4349 696 riscv-013.c:397 scan(): 41b 4i - 00000000 @10 -> + 01930001 @10
Debug: 4350 696 riscv-013.c:408 scan():  ->  hartsello=403 dmactive
Debug: 4351 696 riscv-013.c:397 scan(): 41b 4i w 01940001 @10 -> + 00000000 @10
Debug: 4352 696 riscv-013.c:408 scan():  hartsello=404 dmactive -> 
Debug: 4353 696 riscv-013.c:397 scan(): 41b 4i - 00000000 @10 -> + 01940001 @10
Debug: 4354 696 riscv-013.c:408 scan():  ->  hartsello=404 dmactive
Debug: 4355 697 riscv-013.c:397 scan(): 41b 4i r 00000000 @11 -> + 00000000 @10
Debug: 4356 697 riscv-013.c:397 scan(): 41b 4i - 00000000 @11 -> + 00003082 @11
Debug: 4357 697 riscv-013.c:408 scan():  ->  allunavail anyunavail authenticated version=2
Debug: 4358 697 riscv-013.c:397 scan(): 41b 4i r 00000000 @10 -> + 00000000 @11
Debug: 4359 698 riscv-013.c:397 scan(): 41b 4i - 00000000 @10 -> + 01940001 @10
Debug: 4360 698 riscv-013.c:408 scan():  ->  hartsello=404 dmactive
Debug: 4361 698 riscv-013.c:397 scan(): 41b 4i w 01950001 @10 -> + 00000000 @10
Debug: 4362 698 riscv-013.c:408 scan():  hartsello=405 dmactive -> 
Debug: 4363 698 riscv-013.c:397 scan(): 41b 4i - 00000000 @10 -> + 01950001 @10
Debug: 4364 698 riscv-013.c:408 scan():  ->  hartsello=405 dmactive
Debug: 4365 699 riscv-013.c:397 scan(): 41b 4i r 00000000 @11 -> + 00000000 @10
Debug: 4366 699 riscv-013.c:397 scan(): 41b 4i - 00000000 @11 -> + 00003082 @11
Debug: 4367 699 riscv-013.c:408 scan():  ->  allunavail anyunavail authenticated version=2
Debug: 4368 699 riscv-013.c:397 scan(): 41b 4i r 00000000 @10 -> + 00000000 @11
Debug: 4369 699 riscv-013.c:397 scan(): 41b 4i - 00000000 @10 -> + 01950001 @10
Debug: 4370 699 riscv-013.c:408 scan():  ->  hartsello=405 dmactive
Debug: 4371 700 riscv-013.c:397 scan(): 41b 4i w 01960001 @10 -> + 00000000 @10
Debug: 4372 700 riscv-013.c:408 scan():  hartsello=406 dmactive -> 
Debug: 4373 700 riscv-013.c:397 scan(): 41b 4i - 00000000 @10 -> + 01960001 @10
Debug: 4374 700 riscv-013.c:408 scan():  ->  hartsello=406 dmactive
Debug: 4375 701 riscv-013.c:397 scan(): 41b 4i r 00000000 @11 -> + 00000000 @10
Debug: 4376 701 riscv-013.c:397 scan(): 41b 4i - 00000000 @11 -> + 00003082 @11
Debug: 4377 701 riscv-013.c:408 scan():  ->  allunavail anyunavail authenticated version=2
Debug: 4378 701 riscv-013.c:397 scan(): 41b 4i r 00000000 @10 -> + 00000000 @11
Debug: 4379 701 riscv-013.c:397 scan(): 41b 4i - 00000000 @10 -> + 01960001 @10
Debug: 4380 702 riscv-013.c:408 scan():  ->  hartsello=406 dmactive
Debug: 4381 702 riscv-013.c:397 scan(): 41b 4i w 01970001 @10 -> + 00000000 @10
Debug: 4382 702 riscv-013.c:408 scan():  hartsello=407 dmactive -> 
Debug: 4383 702 riscv-013.c:397 scan(): 41b 4i - 00000000 @10 -> + 01970001 @10
Debug: 4384 702 riscv-013.c:408 scan():  ->  hartsello=407 dmactive
Debug: 4385 702 riscv-013.c:397 scan(): 41b 4i r 00000000 @11 -> + 00000000 @10
Debug: 4386 703 riscv-013.c:397 scan(): 41b 4i - 00000000 @11 -> + 00003082 @11
Debug: 4387 703 riscv-013.c:408 scan():  ->  allunavail anyunavail authenticated version=2
Debug: 4388 703 riscv-013.c:397 scan(): 41b 4i r 00000000 @10 -> + 00000000 @11
Debug: 4389 703 riscv-013.c:397 scan(): 41b 4i - 00000000 @10 -> + 01970001 @10
Debug: 4390 703 riscv-013.c:408 scan():  ->  hartsello=407 dmactive
Debug: 4391 703 riscv-013.c:397 scan(): 41b 4i w 01980001 @10 -> + 00000000 @10
Debug: 4392 703 riscv-013.c:408 scan():  hartsello=408 dmactive -> 
Debug: 4393 704 riscv-013.c:397 scan(): 41b 4i - 00000000 @10 -> + 01980001 @10
Debug: 4394 704 riscv-013.c:408 scan():  ->  hartsello=408 dmactive
Debug: 4395 704 riscv-013.c:397 scan(): 41b 4i r 00000000 @11 -> + 00000000 @10
Debug: 4396 704 riscv-013.c:397 scan(): 41b 4i - 00000000 @11 -> + 00003082 @11
Debug: 4397 704 riscv-013.c:408 scan():  ->  allunavail anyunavail authenticated version=2
Debug: 4398 705 riscv-013.c:397 scan(): 41b 4i r 00000000 @10 -> + 00000000 @11
Debug: 4399 705 riscv-013.c:397 scan(): 41b 4i - 00000000 @10 -> + 01980001 @10
Debug: 4400 705 riscv-013.c:408 scan():  ->  hartsello=408 dmactive
Debug: 4401 705 riscv-013.c:397 scan(): 41b 4i w 01990001 @10 -> + 00000000 @10
Debug: 4402 705 riscv-013.c:408 scan():  hartsello=409 dmactive -> 
Debug: 4403 706 riscv-013.c:397 scan(): 41b 4i - 00000000 @10 -> + 01990001 @10
Debug: 4404 706 riscv-013.c:408 scan():  ->  hartsello=409 dmactive
Debug: 4405 706 riscv-013.c:397 scan(): 41b 4i r 00000000 @11 -> + 00000000 @10
Debug: 4406 706 riscv-013.c:397 scan(): 41b 4i - 00000000 @11 -> + 00003082 @11
Debug: 4407 706 riscv-013.c:408 scan():  ->  allunavail anyunavail authenticated version=2
Debug: 4408 707 riscv-013.c:397 scan(): 41b 4i r 00000000 @10 -> + 00000000 @11
Debug: 4409 707 riscv-013.c:397 scan(): 41b 4i - 00000000 @10 -> + 01990001 @10
Debug: 4410 707 riscv-013.c:408 scan():  ->  hartsello=409 dmactive
Debug: 4411 707 riscv-013.c:397 scan(): 41b 4i w 019a0001 @10 -> + 00000000 @10
Debug: 4412 707 riscv-013.c:408 scan():  hartsello=410 dmactive -> 
Debug: 4413 707 riscv-013.c:397 scan(): 41b 4i - 00000000 @10 -> + 019a0001 @10
Debug: 4414 707 riscv-013.c:408 scan():  ->  hartsello=410 dmactive
Debug: 4415 708 riscv-013.c:397 scan(): 41b 4i r 00000000 @11 -> + 00000000 @10
Debug: 4416 708 riscv-013.c:397 scan(): 41b 4i - 00000000 @11 -> + 00003082 @11
Debug: 4417 708 riscv-013.c:408 scan():  ->  allunavail anyunavail authenticated version=2
Debug: 4418 708 riscv-013.c:397 scan(): 41b 4i r 00000000 @10 -> + 00000000 @11
Debug: 4419 708 riscv-013.c:397 scan(): 41b 4i - 00000000 @10 -> + 019a0001 @10
Debug: 4420 708 riscv-013.c:408 scan():  ->  hartsello=410 dmactive
Debug: 4421 709 riscv-013.c:397 scan(): 41b 4i w 019b0001 @10 -> + 00000000 @10
Debug: 4422 709 riscv-013.c:408 scan():  hartsello=411 dmactive -> 
Debug: 4423 709 riscv-013.c:397 scan(): 41b 4i - 00000000 @10 -> + 019b0001 @10
Debug: 4424 709 riscv-013.c:408 scan():  ->  hartsello=411 dmactive
Debug: 4425 709 riscv-013.c:397 scan(): 41b 4i r 00000000 @11 -> + 00000000 @10
Debug: 4426 709 riscv-013.c:397 scan(): 41b 4i - 00000000 @11 -> + 00003082 @11
Debug: 4427 709 riscv-013.c:408 scan():  ->  allunavail anyunavail authenticated version=2
Debug: 4428 710 riscv-013.c:397 scan(): 41b 4i r 00000000 @10 -> + 00000000 @11
Debug: 4429 710 riscv-013.c:397 scan(): 41b 4i - 00000000 @10 -> + 019b0001 @10
Debug: 4430 710 riscv-013.c:408 scan():  ->  hartsello=411 dmactive
Debug: 4431 710 riscv-013.c:397 scan(): 41b 4i w 019c0001 @10 -> + 00000000 @10
Debug: 4432 710 riscv-013.c:408 scan():  hartsello=412 dmactive -> 
Debug: 4433 711 riscv-013.c:397 scan(): 41b 4i - 00000000 @10 -> + 019c0001 @10
Debug: 4434 711 riscv-013.c:408 scan():  ->  hartsello=412 dmactive
Debug: 4435 711 riscv-013.c:397 scan(): 41b 4i r 00000000 @11 -> + 00000000 @10
Debug: 4436 711 riscv-013.c:397 scan(): 41b 4i - 00000000 @11 -> + 00003082 @11
Debug: 4437 711 riscv-013.c:408 scan():  ->  allunavail anyunavail authenticated version=2
Debug: 4438 712 riscv-013.c:397 scan(): 41b 4i r 00000000 @10 -> + 00000000 @11
Debug: 4439 712 riscv-013.c:397 scan(): 41b 4i - 00000000 @10 -> + 019c0001 @10
Debug: 4440 712 riscv-013.c:408 scan():  ->  hartsello=412 dmactive
Debug: 4441 712 riscv-013.c:397 scan(): 41b 4i w 019d0001 @10 -> + 00000000 @10
Debug: 4442 712 riscv-013.c:408 scan():  hartsello=413 dmactive -> 
Debug: 4443 713 riscv-013.c:397 scan(): 41b 4i - 00000000 @10 -> + 019d0001 @10
Debug: 4444 713 riscv-013.c:408 scan():  ->  hartsello=413 dmactive
Debug: 4445 713 riscv-013.c:397 scan(): 41b 4i r 00000000 @11 -> + 00000000 @10
Debug: 4446 713 riscv-013.c:397 scan(): 41b 4i - 00000000 @11 -> + 00003082 @11
Debug: 4447 713 riscv-013.c:408 scan():  ->  allunavail anyunavail authenticated version=2
Debug: 4448 714 riscv-013.c:397 scan(): 41b 4i r 00000000 @10 -> + 00000000 @11
Debug: 4449 714 riscv-013.c:397 scan(): 41b 4i - 00000000 @10 -> + 019d0001 @10
Debug: 4450 714 riscv-013.c:408 scan():  ->  hartsello=413 dmactive
Debug: 4451 714 riscv-013.c:397 scan(): 41b 4i w 019e0001 @10 -> + 00000000 @10
Debug: 4452 714 riscv-013.c:408 scan():  hartsello=414 dmactive -> 
Debug: 4453 715 riscv-013.c:397 scan(): 41b 4i - 00000000 @10 -> + 019e0001 @10
Debug: 4454 715 riscv-013.c:408 scan():  ->  hartsello=414 dmactive
Debug: 4455 715 riscv-013.c:397 scan(): 41b 4i r 00000000 @11 -> + 00000000 @10
Debug: 4456 715 riscv-013.c:397 scan(): 41b 4i - 00000000 @11 -> + 00003082 @11
Debug: 4457 715 riscv-013.c:408 scan():  ->  allunavail anyunavail authenticated version=2
Debug: 4458 715 riscv-013.c:397 scan(): 41b 4i r 00000000 @10 -> + 00000000 @11
Debug: 4459 716 riscv-013.c:397 scan(): 41b 4i - 00000000 @10 -> + 019e0001 @10
Debug: 4460 716 riscv-013.c:408 scan():  ->  hartsello=414 dmactive
Debug: 4461 716 riscv-013.c:397 scan(): 41b 4i w 019f0001 @10 -> + 00000000 @10
Debug: 4462 716 riscv-013.c:408 scan():  hartsello=415 dmactive -> 
Debug: 4463 716 riscv-013.c:397 scan(): 41b 4i - 00000000 @10 -> + 019f0001 @10
Debug: 4464 716 riscv-013.c:408 scan():  ->  hartsello=415 dmactive
Debug: 4465 717 riscv-013.c:397 scan(): 41b 4i r 00000000 @11 -> + 00000000 @10
Debug: 4466 717 riscv-013.c:397 scan(): 41b 4i - 00000000 @11 -> + 00003082 @11
Debug: 4467 717 riscv-013.c:408 scan():  ->  allunavail anyunavail authenticated version=2
Debug: 4468 717 riscv-013.c:397 scan(): 41b 4i r 00000000 @10 -> + 00000000 @11
Debug: 4469 718 riscv-013.c:397 scan(): 41b 4i - 00000000 @10 -> + 019f0001 @10
Debug: 4470 718 riscv-013.c:408 scan():  ->  hartsello=415 dmactive
Debug: 4471 718 riscv-013.c:397 scan(): 41b 4i w 01a00001 @10 -> + 00000000 @10
Debug: 4472 718 riscv-013.c:408 scan():  hartsello=416 dmactive -> 
Debug: 4473 718 riscv-013.c:397 scan(): 41b 4i - 00000000 @10 -> + 01a00001 @10
Debug: 4474 718 riscv-013.c:408 scan():  ->  hartsello=416 dmactive
Debug: 4475 718 riscv-013.c:397 scan(): 41b 4i r 00000000 @11 -> + 00000000 @10
Debug: 4476 719 riscv-013.c:397 scan(): 41b 4i - 00000000 @11 -> + 00003082 @11
Debug: 4477 719 riscv-013.c:408 scan():  ->  allunavail anyunavail authenticated version=2
Debug: 4478 719 riscv-013.c:397 scan(): 41b 4i r 00000000 @10 -> + 00000000 @11
Debug: 4479 719 riscv-013.c:397 scan(): 41b 4i - 00000000 @10 -> + 01a00001 @10
Debug: 4480 719 riscv-013.c:408 scan():  ->  hartsello=416 dmactive
Debug: 4481 720 riscv-013.c:397 scan(): 41b 4i w 01a10001 @10 -> + 00000000 @10
Debug: 4482 720 riscv-013.c:408 scan():  hartsello=417 dmactive -> 
Debug: 4483 720 riscv-013.c:397 scan(): 41b 4i - 00000000 @10 -> + 01a10001 @10
Debug: 4484 720 riscv-013.c:408 scan():  ->  hartsello=417 dmactive
Debug: 4485 720 riscv-013.c:397 scan(): 41b 4i r 00000000 @11 -> + 00000000 @10
Debug: 4486 720 riscv-013.c:397 scan(): 41b 4i - 00000000 @11 -> + 00003082 @11
Debug: 4487 720 riscv-013.c:408 scan():  ->  allunavail anyunavail authenticated version=2
Debug: 4488 721 riscv-013.c:397 scan(): 41b 4i r 00000000 @10 -> + 00000000 @11
Debug: 4489 721 riscv-013.c:397 scan(): 41b 4i - 00000000 @10 -> + 01a10001 @10
Debug: 4490 721 riscv-013.c:408 scan():  ->  hartsello=417 dmactive
Debug: 4491 721 riscv-013.c:397 scan(): 41b 4i w 01a20001 @10 -> + 00000000 @10
Debug: 4492 721 riscv-013.c:408 scan():  hartsello=418 dmactive -> 
Debug: 4493 722 riscv-013.c:397 scan(): 41b 4i - 00000000 @10 -> + 01a20001 @10
Debug: 4494 722 riscv-013.c:408 scan():  ->  hartsello=418 dmactive
Debug: 4495 722 riscv-013.c:397 scan(): 41b 4i r 00000000 @11 -> + 00000000 @10
Debug: 4496 722 riscv-013.c:397 scan(): 41b 4i - 00000000 @11 -> + 00003082 @11
Debug: 4497 722 riscv-013.c:408 scan():  ->  allunavail anyunavail authenticated version=2
Debug: 4498 722 riscv-013.c:397 scan(): 41b 4i r 00000000 @10 -> + 00000000 @11
Debug: 4499 723 riscv-013.c:397 scan(): 41b 4i - 00000000 @10 -> + 01a20001 @10
Debug: 4500 723 riscv-013.c:408 scan():  ->  hartsello=418 dmactive
Debug: 4501 723 riscv-013.c:397 scan(): 41b 4i w 01a30001 @10 -> + 00000000 @10
Debug: 4502 723 riscv-013.c:408 scan():  hartsello=419 dmactive -> 
Debug: 4503 723 riscv-013.c:397 scan(): 41b 4i - 00000000 @10 -> + 01a30001 @10
Debug: 4504 723 riscv-013.c:408 scan():  ->  hartsello=419 dmactive
Debug: 4505 724 riscv-013.c:397 scan(): 41b 4i r 00000000 @11 -> + 00000000 @10
Debug: 4506 724 riscv-013.c:397 scan(): 41b 4i - 00000000 @11 -> + 00003082 @11
Debug: 4507 724 riscv-013.c:408 scan():  ->  allunavail anyunavail authenticated version=2
Debug: 4508 724 riscv-013.c:397 scan(): 41b 4i r 00000000 @10 -> + 00000000 @11
Debug: 4509 724 riscv-013.c:397 scan(): 41b 4i - 00000000 @10 -> + 01a30001 @10
Debug: 4510 724 riscv-013.c:408 scan():  ->  hartsello=419 dmactive
Debug: 4511 725 riscv-013.c:397 scan(): 41b 4i w 01a40001 @10 -> + 00000000 @10
Debug: 4512 725 riscv-013.c:408 scan():  hartsello=420 dmactive -> 
Debug: 4513 725 riscv-013.c:397 scan(): 41b 4i - 00000000 @10 -> + 01a40001 @10
Debug: 4514 725 riscv-013.c:408 scan():  ->  hartsello=420 dmactive
Debug: 4515 725 riscv-013.c:397 scan(): 41b 4i r 00000000 @11 -> + 00000000 @10
Debug: 4516 725 riscv-013.c:397 scan(): 41b 4i - 00000000 @11 -> + 00003082 @11
Debug: 4517 726 riscv-013.c:408 scan():  ->  allunavail anyunavail authenticated version=2
Debug: 4518 726 riscv-013.c:397 scan(): 41b 4i r 00000000 @10 -> + 00000000 @11
Debug: 4519 726 riscv-013.c:397 scan(): 41b 4i - 00000000 @10 -> + 01a40001 @10
Debug: 4520 726 riscv-013.c:408 scan():  ->  hartsello=420 dmactive
Debug: 4521 726 riscv-013.c:397 scan(): 41b 4i w 01a50001 @10 -> + 00000000 @10
Debug: 4522 726 riscv-013.c:408 scan():  hartsello=421 dmactive -> 
Debug: 4523 727 riscv-013.c:397 scan(): 41b 4i - 00000000 @10 -> + 01a50001 @10
Debug: 4524 727 riscv-013.c:408 scan():  ->  hartsello=421 dmactive
Debug: 4525 727 riscv-013.c:397 scan(): 41b 4i r 00000000 @11 -> + 00000000 @10
Debug: 4526 727 riscv-013.c:397 scan(): 41b 4i - 00000000 @11 -> + 00003082 @11
Debug: 4527 727 riscv-013.c:408 scan():  ->  allunavail anyunavail authenticated version=2
Debug: 4528 728 riscv-013.c:397 scan(): 41b 4i r 00000000 @10 -> + 00000000 @11
Debug: 4529 728 riscv-013.c:397 scan(): 41b 4i - 00000000 @10 -> + 01a50001 @10
Debug: 4530 728 riscv-013.c:408 scan():  ->  hartsello=421 dmactive
Debug: 4531 728 riscv-013.c:397 scan(): 41b 4i w 01a60001 @10 -> + 00000000 @10
Debug: 4532 728 riscv-013.c:408 scan():  hartsello=422 dmactive -> 
Debug: 4533 728 riscv-013.c:397 scan(): 41b 4i - 00000000 @10 -> + 01a60001 @10
Debug: 4534 728 riscv-013.c:408 scan():  ->  hartsello=422 dmactive
Debug: 4535 729 riscv-013.c:397 scan(): 41b 4i r 00000000 @11 -> + 00000000 @10
Debug: 4536 729 riscv-013.c:397 scan(): 41b 4i - 00000000 @11 -> + 00003082 @11
Debug: 4537 729 riscv-013.c:408 scan():  ->  allunavail anyunavail authenticated version=2
Debug: 4538 729 riscv-013.c:397 scan(): 41b 4i r 00000000 @10 -> + 00000000 @11
Debug: 4539 730 riscv-013.c:397 scan(): 41b 4i - 00000000 @10 -> + 01a60001 @10
Debug: 4540 730 riscv-013.c:408 scan():  ->  hartsello=422 dmactive
Debug: 4541 730 riscv-013.c:397 scan(): 41b 4i w 01a70001 @10 -> + 00000000 @10
Debug: 4542 730 riscv-013.c:408 scan():  hartsello=423 dmactive -> 
Debug: 4543 730 riscv-013.c:397 scan(): 41b 4i - 00000000 @10 -> + 01a70001 @10
Debug: 4544 730 riscv-013.c:408 scan():  ->  hartsello=423 dmactive
Debug: 4545 730 riscv-013.c:397 scan(): 41b 4i r 00000000 @11 -> + 00000000 @10
Debug: 4546 731 riscv-013.c:397 scan(): 41b 4i - 00000000 @11 -> + 00003082 @11
Debug: 4547 731 riscv-013.c:408 scan():  ->  allunavail anyunavail authenticated version=2
Debug: 4548 731 riscv-013.c:397 scan(): 41b 4i r 00000000 @10 -> + 00000000 @11
Debug: 4549 731 riscv-013.c:397 scan(): 41b 4i - 00000000 @10 -> + 01a70001 @10
Debug: 4550 731 riscv-013.c:408 scan():  ->  hartsello=423 dmactive
Debug: 4551 731 riscv-013.c:397 scan(): 41b 4i w 01a80001 @10 -> + 00000000 @10
Debug: 4552 731 riscv-013.c:408 scan():  hartsello=424 dmactive -> 
Debug: 4553 732 riscv-013.c:397 scan(): 41b 4i - 00000000 @10 -> + 01a80001 @10
Debug: 4554 732 riscv-013.c:408 scan():  ->  hartsello=424 dmactive
Debug: 4555 732 riscv-013.c:397 scan(): 41b 4i r 00000000 @11 -> + 00000000 @10
Debug: 4556 732 riscv-013.c:397 scan(): 41b 4i - 00000000 @11 -> + 00003082 @11
Debug: 4557 732 riscv-013.c:408 scan():  ->  allunavail anyunavail authenticated version=2
Debug: 4558 733 riscv-013.c:397 scan(): 41b 4i r 00000000 @10 -> + 00000000 @11
Debug: 4559 733 riscv-013.c:397 scan(): 41b 4i - 00000000 @10 -> + 01a80001 @10
Debug: 4560 733 riscv-013.c:408 scan():  ->  hartsello=424 dmactive
Debug: 4561 733 riscv-013.c:397 scan(): 41b 4i w 01a90001 @10 -> + 00000000 @10
Debug: 4562 733 riscv-013.c:408 scan():  hartsello=425 dmactive -> 
Debug: 4563 733 riscv-013.c:397 scan(): 41b 4i - 00000000 @10 -> + 01a90001 @10
Debug: 4564 733 riscv-013.c:408 scan():  ->  hartsello=425 dmactive
Debug: 4565 734 riscv-013.c:397 scan(): 41b 4i r 00000000 @11 -> + 00000000 @10
Debug: 4566 734 riscv-013.c:397 scan(): 41b 4i - 00000000 @11 -> + 00003082 @11
Debug: 4567 734 riscv-013.c:408 scan():  ->  allunavail anyunavail authenticated version=2
Debug: 4568 734 riscv-013.c:397 scan(): 41b 4i r 00000000 @10 -> + 00000000 @11
Debug: 4569 735 riscv-013.c:397 scan(): 41b 4i - 00000000 @10 -> + 01a90001 @10
Debug: 4570 735 riscv-013.c:408 scan():  ->  hartsello=425 dmactive
Debug: 4571 735 riscv-013.c:397 scan(): 41b 4i w 01aa0001 @10 -> + 00000000 @10
Debug: 4572 735 riscv-013.c:408 scan():  hartsello=426 dmactive -> 
Debug: 4573 735 riscv-013.c:397 scan(): 41b 4i - 00000000 @10 -> + 01aa0001 @10
Debug: 4574 735 riscv-013.c:408 scan():  ->  hartsello=426 dmactive
Debug: 4575 736 riscv-013.c:397 scan(): 41b 4i r 00000000 @11 -> + 00000000 @10
Debug: 4576 736 riscv-013.c:397 scan(): 41b 4i - 00000000 @11 -> + 00003082 @11
Debug: 4577 736 riscv-013.c:408 scan():  ->  allunavail anyunavail authenticated version=2
Debug: 4578 736 riscv-013.c:397 scan(): 41b 4i r 00000000 @10 -> + 00000000 @11
Debug: 4579 736 riscv-013.c:397 scan(): 41b 4i - 00000000 @10 -> + 01aa0001 @10
Debug: 4580 736 riscv-013.c:408 scan():  ->  hartsello=426 dmactive
Debug: 4581 737 riscv-013.c:397 scan(): 41b 4i w 01ab0001 @10 -> + 00000000 @10
Debug: 4582 737 riscv-013.c:408 scan():  hartsello=427 dmactive -> 
Debug: 4583 737 riscv-013.c:397 scan(): 41b 4i - 00000000 @10 -> + 01ab0001 @10
Debug: 4584 737 riscv-013.c:408 scan():  ->  hartsello=427 dmactive
Debug: 4585 737 riscv-013.c:397 scan(): 41b 4i r 00000000 @11 -> + 00000000 @10
Debug: 4586 737 riscv-013.c:397 scan(): 41b 4i - 00000000 @11 -> + 00003082 @11
Debug: 4587 737 riscv-013.c:408 scan():  ->  allunavail anyunavail authenticated version=2
Debug: 4588 738 riscv-013.c:397 scan(): 41b 4i r 00000000 @10 -> + 00000000 @11
Debug: 4589 738 riscv-013.c:397 scan(): 41b 4i - 00000000 @10 -> + 01ab0001 @10
Debug: 4590 738 riscv-013.c:408 scan():  ->  hartsello=427 dmactive
Debug: 4591 738 riscv-013.c:397 scan(): 41b 4i w 01ac0001 @10 -> + 00000000 @10
Debug: 4592 738 riscv-013.c:408 scan():  hartsello=428 dmactive -> 
Debug: 4593 738 riscv-013.c:397 scan(): 41b 4i - 00000000 @10 -> + 01ac0001 @10
Debug: 4594 738 riscv-013.c:408 scan():  ->  hartsello=428 dmactive
Debug: 4595 739 riscv-013.c:397 scan(): 41b 4i r 00000000 @11 -> + 00000000 @10
Debug: 4596 739 riscv-013.c:397 scan(): 41b 4i - 00000000 @11 -> + 00003082 @11
Debug: 4597 739 riscv-013.c:408 scan():  ->  allunavail anyunavail authenticated version=2
Debug: 4598 739 riscv-013.c:397 scan(): 41b 4i r 00000000 @10 -> + 00000000 @11
Debug: 4599 740 riscv-013.c:397 scan(): 41b 4i - 00000000 @10 -> + 01ac0001 @10
Debug: 4600 740 riscv-013.c:408 scan():  ->  hartsello=428 dmactive
Debug: 4601 740 riscv-013.c:397 scan(): 41b 4i w 01ad0001 @10 -> + 00000000 @10
Debug: 4602 740 riscv-013.c:408 scan():  hartsello=429 dmactive -> 
Debug: 4603 740 riscv-013.c:397 scan(): 41b 4i - 00000000 @10 -> + 01ad0001 @10
Debug: 4604 740 riscv-013.c:408 scan():  ->  hartsello=429 dmactive
Debug: 4605 741 riscv-013.c:397 scan(): 41b 4i r 00000000 @11 -> + 00000000 @10
Debug: 4606 741 riscv-013.c:397 scan(): 41b 4i - 00000000 @11 -> + 00003082 @11
Debug: 4607 741 riscv-013.c:408 scan():  ->  allunavail anyunavail authenticated version=2
Debug: 4608 741 riscv-013.c:397 scan(): 41b 4i r 00000000 @10 -> + 00000000 @11
Debug: 4609 741 riscv-013.c:397 scan(): 41b 4i - 00000000 @10 -> + 01ad0001 @10
Debug: 4610 741 riscv-013.c:408 scan():  ->  hartsello=429 dmactive
Debug: 4611 742 riscv-013.c:397 scan(): 41b 4i w 01ae0001 @10 -> + 00000000 @10
Debug: 4612 742 riscv-013.c:408 scan():  hartsello=430 dmactive -> 
Debug: 4613 742 riscv-013.c:397 scan(): 41b 4i - 00000000 @10 -> + 01ae0001 @10
Debug: 4614 742 riscv-013.c:408 scan():  ->  hartsello=430 dmactive
Debug: 4615 742 riscv-013.c:397 scan(): 41b 4i r 00000000 @11 -> + 00000000 @10
Debug: 4616 742 riscv-013.c:397 scan(): 41b 4i - 00000000 @11 -> + 00003082 @11
Debug: 4617 742 riscv-013.c:408 scan():  ->  allunavail anyunavail authenticated version=2
Debug: 4618 743 riscv-013.c:397 scan(): 41b 4i r 00000000 @10 -> + 00000000 @11
Debug: 4619 743 riscv-013.c:397 scan(): 41b 4i - 00000000 @10 -> + 01ae0001 @10
Debug: 4620 743 riscv-013.c:408 scan():  ->  hartsello=430 dmactive
Debug: 4621 743 riscv-013.c:397 scan(): 41b 4i w 01af0001 @10 -> + 00000000 @10
Debug: 4622 743 riscv-013.c:408 scan():  hartsello=431 dmactive -> 
Debug: 4623 744 riscv-013.c:397 scan(): 41b 4i - 00000000 @10 -> + 01af0001 @10
Debug: 4624 744 riscv-013.c:408 scan():  ->  hartsello=431 dmactive
Debug: 4625 744 riscv-013.c:397 scan(): 41b 4i r 00000000 @11 -> + 00000000 @10
Debug: 4626 744 riscv-013.c:397 scan(): 41b 4i - 00000000 @11 -> + 00003082 @11
Debug: 4627 744 riscv-013.c:408 scan():  ->  allunavail anyunavail authenticated version=2
Debug: 4628 744 riscv-013.c:397 scan(): 41b 4i r 00000000 @10 -> + 00000000 @11
Debug: 4629 745 riscv-013.c:397 scan(): 41b 4i - 00000000 @10 -> + 01af0001 @10
Debug: 4630 745 riscv-013.c:408 scan():  ->  hartsello=431 dmactive
Debug: 4631 745 riscv-013.c:397 scan(): 41b 4i w 01b00001 @10 -> + 00000000 @10
Debug: 4632 745 riscv-013.c:408 scan():  hartsello=432 dmactive -> 
Debug: 4633 745 riscv-013.c:397 scan(): 41b 4i - 00000000 @10 -> + 01b00001 @10
Debug: 4634 745 riscv-013.c:408 scan():  ->  hartsello=432 dmactive
Debug: 4635 745 riscv-013.c:397 scan(): 41b 4i r 00000000 @11 -> + 00000000 @10
Debug: 4636 746 riscv-013.c:397 scan(): 41b 4i - 00000000 @11 -> + 00003082 @11
Debug: 4637 746 riscv-013.c:408 scan():  ->  allunavail anyunavail authenticated version=2
Debug: 4638 746 riscv-013.c:397 scan(): 41b 4i r 00000000 @10 -> + 00000000 @11
Debug: 4639 746 riscv-013.c:397 scan(): 41b 4i - 00000000 @10 -> + 01b00001 @10
Debug: 4640 746 riscv-013.c:408 scan():  ->  hartsello=432 dmactive
Debug: 4641 747 riscv-013.c:397 scan(): 41b 4i w 01b10001 @10 -> + 00000000 @10
Debug: 4642 747 riscv-013.c:408 scan():  hartsello=433 dmactive -> 
Debug: 4643 747 riscv-013.c:397 scan(): 41b 4i - 00000000 @10 -> + 01b10001 @10
Debug: 4644 747 riscv-013.c:408 scan():  ->  hartsello=433 dmactive
Debug: 4645 747 riscv-013.c:397 scan(): 41b 4i r 00000000 @11 -> + 00000000 @10
Debug: 4646 747 riscv-013.c:397 scan(): 41b 4i - 00000000 @11 -> + 00003082 @11
Debug: 4647 748 riscv-013.c:408 scan():  ->  allunavail anyunavail authenticated version=2
Debug: 4648 748 riscv-013.c:397 scan(): 41b 4i r 00000000 @10 -> + 00000000 @11
Debug: 4649 748 riscv-013.c:397 scan(): 41b 4i - 00000000 @10 -> + 01b10001 @10
Debug: 4650 748 riscv-013.c:408 scan():  ->  hartsello=433 dmactive
Debug: 4651 748 riscv-013.c:397 scan(): 41b 4i w 01b20001 @10 -> + 00000000 @10
Debug: 4652 748 riscv-013.c:408 scan():  hartsello=434 dmactive -> 
Debug: 4653 749 riscv-013.c:397 scan(): 41b 4i - 00000000 @10 -> + 01b20001 @10
Debug: 4654 749 riscv-013.c:408 scan():  ->  hartsello=434 dmactive
Debug: 4655 749 riscv-013.c:397 scan(): 41b 4i r 00000000 @11 -> + 00000000 @10
Debug: 4656 749 riscv-013.c:397 scan(): 41b 4i - 00000000 @11 -> + 00003082 @11
Debug: 4657 749 riscv-013.c:408 scan():  ->  allunavail anyunavail authenticated version=2
Debug: 4658 749 riscv-013.c:397 scan(): 41b 4i r 00000000 @10 -> + 00000000 @11
Debug: 4659 750 riscv-013.c:397 scan(): 41b 4i - 00000000 @10 -> + 01b20001 @10
Debug: 4660 750 riscv-013.c:408 scan():  ->  hartsello=434 dmactive
Debug: 4661 750 riscv-013.c:397 scan(): 41b 4i w 01b30001 @10 -> + 00000000 @10
Debug: 4662 750 riscv-013.c:408 scan():  hartsello=435 dmactive -> 
Debug: 4663 750 riscv-013.c:397 scan(): 41b 4i - 00000000 @10 -> + 01b30001 @10
Debug: 4664 750 riscv-013.c:408 scan():  ->  hartsello=435 dmactive
Debug: 4665 750 riscv-013.c:397 scan(): 41b 4i r 00000000 @11 -> + 00000000 @10
Debug: 4666 751 riscv-013.c:397 scan(): 41b 4i - 00000000 @11 -> + 00003082 @11
Debug: 4667 751 riscv-013.c:408 scan():  ->  allunavail anyunavail authenticated version=2
Debug: 4668 751 riscv-013.c:397 scan(): 41b 4i r 00000000 @10 -> + 00000000 @11
Debug: 4669 751 riscv-013.c:397 scan(): 41b 4i - 00000000 @10 -> + 01b30001 @10
Debug: 4670 751 riscv-013.c:408 scan():  ->  hartsello=435 dmactive
Debug: 4671 752 riscv-013.c:397 scan(): 41b 4i w 01b40001 @10 -> + 00000000 @10
Debug: 4672 752 riscv-013.c:408 scan():  hartsello=436 dmactive -> 
Debug: 4673 752 riscv-013.c:397 scan(): 41b 4i - 00000000 @10 -> + 01b40001 @10
Debug: 4674 752 riscv-013.c:408 scan():  ->  hartsello=436 dmactive
Debug: 4675 752 riscv-013.c:397 scan(): 41b 4i r 00000000 @11 -> + 00000000 @10
Debug: 4676 752 riscv-013.c:397 scan(): 41b 4i - 00000000 @11 -> + 00003082 @11
Debug: 4677 752 riscv-013.c:408 scan():  ->  allunavail anyunavail authenticated version=2
Debug: 4678 753 riscv-013.c:397 scan(): 41b 4i r 00000000 @10 -> + 00000000 @11
Debug: 4679 753 riscv-013.c:397 scan(): 41b 4i - 00000000 @10 -> + 01b40001 @10
Debug: 4680 753 riscv-013.c:408 scan():  ->  hartsello=436 dmactive
Debug: 4681 753 riscv-013.c:397 scan(): 41b 4i w 01b50001 @10 -> + 00000000 @10
Debug: 4682 753 riscv-013.c:408 scan():  hartsello=437 dmactive -> 
Debug: 4683 753 riscv-013.c:397 scan(): 41b 4i - 00000000 @10 -> + 01b50001 @10
Debug: 4684 753 riscv-013.c:408 scan():  ->  hartsello=437 dmactive
Debug: 4685 754 riscv-013.c:397 scan(): 41b 4i r 00000000 @11 -> + 00000000 @10
Debug: 4686 754 riscv-013.c:397 scan(): 41b 4i - 00000000 @11 -> + 00003082 @11
Debug: 4687 754 riscv-013.c:408 scan():  ->  allunavail anyunavail authenticated version=2
Debug: 4688 754 riscv-013.c:397 scan(): 41b 4i r 00000000 @10 -> + 00000000 @11
Debug: 4689 755 riscv-013.c:397 scan(): 41b 4i - 00000000 @10 -> + 01b50001 @10
Debug: 4690 755 riscv-013.c:408 scan():  ->  hartsello=437 dmactive
Debug: 4691 755 riscv-013.c:397 scan(): 41b 4i w 01b60001 @10 -> + 00000000 @10
Debug: 4692 755 riscv-013.c:408 scan():  hartsello=438 dmactive -> 
Debug: 4693 755 riscv-013.c:397 scan(): 41b 4i - 00000000 @10 -> + 01b60001 @10
Debug: 4694 755 riscv-013.c:408 scan():  ->  hartsello=438 dmactive
Debug: 4695 756 riscv-013.c:397 scan(): 41b 4i r 00000000 @11 -> + 00000000 @10
Debug: 4696 756 riscv-013.c:397 scan(): 41b 4i - 00000000 @11 -> + 00003082 @11
Debug: 4697 756 riscv-013.c:408 scan():  ->  allunavail anyunavail authenticated version=2
Debug: 4698 756 riscv-013.c:397 scan(): 41b 4i r 00000000 @10 -> + 00000000 @11
Debug: 4699 757 riscv-013.c:397 scan(): 41b 4i - 00000000 @10 -> + 01b60001 @10
Debug: 4700 757 riscv-013.c:408 scan():  ->  hartsello=438 dmactive
Debug: 4701 757 riscv-013.c:397 scan(): 41b 4i w 01b70001 @10 -> + 00000000 @10
Debug: 4702 757 riscv-013.c:408 scan():  hartsello=439 dmactive -> 
Debug: 4703 757 riscv-013.c:397 scan(): 41b 4i - 00000000 @10 -> + 01b70001 @10
Debug: 4704 757 riscv-013.c:408 scan():  ->  hartsello=439 dmactive
Debug: 4705 757 riscv-013.c:397 scan(): 41b 4i r 00000000 @11 -> + 00000000 @10
Debug: 4706 758 riscv-013.c:397 scan(): 41b 4i - 00000000 @11 -> + 00003082 @11
Debug: 4707 758 riscv-013.c:408 scan():  ->  allunavail anyunavail authenticated version=2
Debug: 4708 758 riscv-013.c:397 scan(): 41b 4i r 00000000 @10 -> + 00000000 @11
Debug: 4709 758 riscv-013.c:397 scan(): 41b 4i - 00000000 @10 -> + 01b70001 @10
Debug: 4710 758 riscv-013.c:408 scan():  ->  hartsello=439 dmactive
Debug: 4711 759 riscv-013.c:397 scan(): 41b 4i w 01b80001 @10 -> + 00000000 @10
Debug: 4712 759 riscv-013.c:408 scan():  hartsello=440 dmactive -> 
Debug: 4713 759 riscv-013.c:397 scan(): 41b 4i - 00000000 @10 -> + 01b80001 @10
Debug: 4714 759 riscv-013.c:408 scan():  ->  hartsello=440 dmactive
Debug: 4715 759 riscv-013.c:397 scan(): 41b 4i r 00000000 @11 -> + 00000000 @10
Debug: 4716 760 riscv-013.c:397 scan(): 41b 4i - 00000000 @11 -> + 00003082 @11
Debug: 4717 760 riscv-013.c:408 scan():  ->  allunavail anyunavail authenticated version=2
Debug: 4718 760 riscv-013.c:397 scan(): 41b 4i r 00000000 @10 -> + 00000000 @11
Debug: 4719 760 riscv-013.c:397 scan(): 41b 4i - 00000000 @10 -> + 01b80001 @10
Debug: 4720 760 riscv-013.c:408 scan():  ->  hartsello=440 dmactive
Debug: 4721 761 riscv-013.c:397 scan(): 41b 4i w 01b90001 @10 -> + 00000000 @10
Debug: 4722 761 riscv-013.c:408 scan():  hartsello=441 dmactive -> 
Debug: 4723 761 riscv-013.c:397 scan(): 41b 4i - 00000000 @10 -> + 01b90001 @10
Debug: 4724 761 riscv-013.c:408 scan():  ->  hartsello=441 dmactive
Debug: 4725 761 riscv-013.c:397 scan(): 41b 4i r 00000000 @11 -> + 00000000 @10
Debug: 4726 761 riscv-013.c:397 scan(): 41b 4i - 00000000 @11 -> + 00003082 @11
Debug: 4727 761 riscv-013.c:408 scan():  ->  allunavail anyunavail authenticated version=2
Debug: 4728 762 riscv-013.c:397 scan(): 41b 4i r 00000000 @10 -> + 00000000 @11
Debug: 4729 762 riscv-013.c:397 scan(): 41b 4i - 00000000 @10 -> + 01b90001 @10
Debug: 4730 762 riscv-013.c:408 scan():  ->  hartsello=441 dmactive
Debug: 4731 762 riscv-013.c:397 scan(): 41b 4i w 01ba0001 @10 -> + 00000000 @10
Debug: 4732 762 riscv-013.c:408 scan():  hartsello=442 dmactive -> 
Debug: 4733 762 riscv-013.c:397 scan(): 41b 4i - 00000000 @10 -> + 01ba0001 @10
Debug: 4734 762 riscv-013.c:408 scan():  ->  hartsello=442 dmactive
Debug: 4735 763 riscv-013.c:397 scan(): 41b 4i r 00000000 @11 -> + 00000000 @10
Debug: 4736 763 riscv-013.c:397 scan(): 41b 4i - 00000000 @11 -> + 00003082 @11
Debug: 4737 763 riscv-013.c:408 scan():  ->  allunavail anyunavail authenticated version=2
Debug: 4738 763 riscv-013.c:397 scan(): 41b 4i r 00000000 @10 -> + 00000000 @11
Debug: 4739 764 riscv-013.c:397 scan(): 41b 4i - 00000000 @10 -> + 01ba0001 @10
Debug: 4740 764 riscv-013.c:408 scan():  ->  hartsello=442 dmactive
Debug: 4741 764 riscv-013.c:397 scan(): 41b 4i w 01bb0001 @10 -> + 00000000 @10
Debug: 4742 764 riscv-013.c:408 scan():  hartsello=443 dmactive -> 
Debug: 4743 764 riscv-013.c:397 scan(): 41b 4i - 00000000 @10 -> + 01bb0001 @10
Debug: 4744 764 riscv-013.c:408 scan():  ->  hartsello=443 dmactive
Debug: 4745 765 riscv-013.c:397 scan(): 41b 4i r 00000000 @11 -> + 00000000 @10
Debug: 4746 765 riscv-013.c:397 scan(): 41b 4i - 00000000 @11 -> + 00003082 @11
Debug: 4747 765 riscv-013.c:408 scan():  ->  allunavail anyunavail authenticated version=2
Debug: 4748 765 riscv-013.c:397 scan(): 41b 4i r 00000000 @10 -> + 00000000 @11
Debug: 4749 766 riscv-013.c:397 scan(): 41b 4i - 00000000 @10 -> + 01bb0001 @10
Debug: 4750 766 riscv-013.c:408 scan():  ->  hartsello=443 dmactive
Debug: 4751 766 riscv-013.c:397 scan(): 41b 4i w 01bc0001 @10 -> + 00000000 @10
Debug: 4752 766 riscv-013.c:408 scan():  hartsello=444 dmactive -> 
Debug: 4753 766 riscv-013.c:397 scan(): 41b 4i - 00000000 @10 -> + 01bc0001 @10
Debug: 4754 766 riscv-013.c:408 scan():  ->  hartsello=444 dmactive
Debug: 4755 766 riscv-013.c:397 scan(): 41b 4i r 00000000 @11 -> + 00000000 @10
Debug: 4756 767 riscv-013.c:397 scan(): 41b 4i - 00000000 @11 -> + 00003082 @11
Debug: 4757 767 riscv-013.c:408 scan():  ->  allunavail anyunavail authenticated version=2
Debug: 4758 767 riscv-013.c:397 scan(): 41b 4i r 00000000 @10 -> + 00000000 @11
Debug: 4759 767 riscv-013.c:397 scan(): 41b 4i - 00000000 @10 -> + 01bc0001 @10
Debug: 4760 767 riscv-013.c:408 scan():  ->  hartsello=444 dmactive
Debug: 4761 767 riscv-013.c:397 scan(): 41b 4i w 01bd0001 @10 -> + 00000000 @10
Debug: 4762 767 riscv-013.c:408 scan():  hartsello=445 dmactive -> 
Debug: 4763 768 riscv-013.c:397 scan(): 41b 4i - 00000000 @10 -> + 01bd0001 @10
Debug: 4764 768 riscv-013.c:408 scan():  ->  hartsello=445 dmactive
Debug: 4765 768 riscv-013.c:397 scan(): 41b 4i r 00000000 @11 -> + 00000000 @10
Debug: 4766 768 riscv-013.c:397 scan(): 41b 4i - 00000000 @11 -> + 00003082 @11
Debug: 4767 768 riscv-013.c:408 scan():  ->  allunavail anyunavail authenticated version=2
Debug: 4768 768 riscv-013.c:397 scan(): 41b 4i r 00000000 @10 -> + 00000000 @11
Debug: 4769 769 riscv-013.c:397 scan(): 41b 4i - 00000000 @10 -> + 01bd0001 @10
Debug: 4770 769 riscv-013.c:408 scan():  ->  hartsello=445 dmactive
Debug: 4771 769 riscv-013.c:397 scan(): 41b 4i w 01be0001 @10 -> + 00000000 @10
Debug: 4772 769 riscv-013.c:408 scan():  hartsello=446 dmactive -> 
Debug: 4773 769 riscv-013.c:397 scan(): 41b 4i - 00000000 @10 -> + 01be0001 @10
Debug: 4774 769 riscv-013.c:408 scan():  ->  hartsello=446 dmactive
Debug: 4775 770 riscv-013.c:397 scan(): 41b 4i r 00000000 @11 -> + 00000000 @10
Debug: 4776 770 riscv-013.c:397 scan(): 41b 4i - 00000000 @11 -> + 00003082 @11
Debug: 4777 770 riscv-013.c:408 scan():  ->  allunavail anyunavail authenticated version=2
Debug: 4778 770 riscv-013.c:397 scan(): 41b 4i r 00000000 @10 -> + 00000000 @11
Debug: 4779 771 riscv-013.c:397 scan(): 41b 4i - 00000000 @10 -> + 01be0001 @10
Debug: 4780 771 riscv-013.c:408 scan():  ->  hartsello=446 dmactive
Debug: 4781 771 riscv-013.c:397 scan(): 41b 4i w 01bf0001 @10 -> + 00000000 @10
Debug: 4782 771 riscv-013.c:408 scan():  hartsello=447 dmactive -> 
Debug: 4783 771 riscv-013.c:397 scan(): 41b 4i - 00000000 @10 -> + 01bf0001 @10
Debug: 4784 771 riscv-013.c:408 scan():  ->  hartsello=447 dmactive
Debug: 4785 772 riscv-013.c:397 scan(): 41b 4i r 00000000 @11 -> + 00000000 @10
Debug: 4786 772 riscv-013.c:397 scan(): 41b 4i - 00000000 @11 -> + 00003082 @11
Debug: 4787 772 riscv-013.c:408 scan():  ->  allunavail anyunavail authenticated version=2
Debug: 4788 772 riscv-013.c:397 scan(): 41b 4i r 00000000 @10 -> + 00000000 @11
Debug: 4789 772 riscv-013.c:397 scan(): 41b 4i - 00000000 @10 -> + 01bf0001 @10
Debug: 4790 772 riscv-013.c:408 scan():  ->  hartsello=447 dmactive
Debug: 4791 772 riscv-013.c:397 scan(): 41b 4i w 01c00001 @10 -> + 00000000 @10
Debug: 4792 772 riscv-013.c:408 scan():  hartsello=448 dmactive -> 
Debug: 4793 773 riscv-013.c:397 scan(): 41b 4i - 00000000 @10 -> + 01c00001 @10
Debug: 4794 773 riscv-013.c:408 scan():  ->  hartsello=448 dmactive
Debug: 4795 773 riscv-013.c:397 scan(): 41b 4i r 00000000 @11 -> + 00000000 @10
Debug: 4796 773 riscv-013.c:397 scan(): 41b 4i - 00000000 @11 -> + 00003082 @11
Debug: 4797 773 riscv-013.c:408 scan():  ->  allunavail anyunavail authenticated version=2
Debug: 4798 774 riscv-013.c:397 scan(): 41b 4i r 00000000 @10 -> + 00000000 @11
Debug: 4799 774 riscv-013.c:397 scan(): 41b 4i - 00000000 @10 -> + 01c00001 @10
Debug: 4800 774 riscv-013.c:408 scan():  ->  hartsello=448 dmactive
Debug: 4801 774 riscv-013.c:397 scan(): 41b 4i w 01c10001 @10 -> + 00000000 @10
Debug: 4802 774 riscv-013.c:408 scan():  hartsello=449 dmactive -> 
Debug: 4803 775 riscv-013.c:397 scan(): 41b 4i - 00000000 @10 -> + 01c10001 @10
Debug: 4804 775 riscv-013.c:408 scan():  ->  hartsello=449 dmactive
Debug: 4805 775 riscv-013.c:397 scan(): 41b 4i r 00000000 @11 -> + 00000000 @10
Debug: 4806 775 riscv-013.c:397 scan(): 41b 4i - 00000000 @11 -> + 00003082 @11
Debug: 4807 775 riscv-013.c:408 scan():  ->  allunavail anyunavail authenticated version=2
Debug: 4808 775 riscv-013.c:397 scan(): 41b 4i r 00000000 @10 -> + 00000000 @11
Debug: 4809 776 riscv-013.c:397 scan(): 41b 4i - 00000000 @10 -> + 01c10001 @10
Debug: 4810 776 riscv-013.c:408 scan():  ->  hartsello=449 dmactive
Debug: 4811 776 riscv-013.c:397 scan(): 41b 4i w 01c20001 @10 -> + 00000000 @10
Debug: 4812 776 riscv-013.c:408 scan():  hartsello=450 dmactive -> 
Debug: 4813 776 riscv-013.c:397 scan(): 41b 4i - 00000000 @10 -> + 01c20001 @10
Debug: 4814 776 riscv-013.c:408 scan():  ->  hartsello=450 dmactive
Debug: 4815 776 riscv-013.c:397 scan(): 41b 4i r 00000000 @11 -> + 00000000 @10
Debug: 4816 777 riscv-013.c:397 scan(): 41b 4i - 00000000 @11 -> + 00003082 @11
Debug: 4817 777 riscv-013.c:408 scan():  ->  allunavail anyunavail authenticated version=2
Debug: 4818 777 riscv-013.c:397 scan(): 41b 4i r 00000000 @10 -> + 00000000 @11
Debug: 4819 777 riscv-013.c:397 scan(): 41b 4i - 00000000 @10 -> + 01c20001 @10
Debug: 4820 777 riscv-013.c:408 scan():  ->  hartsello=450 dmactive
Debug: 4821 777 riscv-013.c:397 scan(): 41b 4i w 01c30001 @10 -> + 00000000 @10
Debug: 4822 777 riscv-013.c:408 scan():  hartsello=451 dmactive -> 
Debug: 4823 778 riscv-013.c:397 scan(): 41b 4i - 00000000 @10 -> + 01c30001 @10
Debug: 4824 778 riscv-013.c:408 scan():  ->  hartsello=451 dmactive
Debug: 4825 778 riscv-013.c:397 scan(): 41b 4i r 00000000 @11 -> + 00000000 @10
Debug: 4826 778 riscv-013.c:397 scan(): 41b 4i - 00000000 @11 -> + 00003082 @11
Debug: 4827 778 riscv-013.c:408 scan():  ->  allunavail anyunavail authenticated version=2
Debug: 4828 778 riscv-013.c:397 scan(): 41b 4i r 00000000 @10 -> + 00000000 @11
Debug: 4829 779 riscv-013.c:397 scan(): 41b 4i - 00000000 @10 -> + 01c30001 @10
Debug: 4830 779 riscv-013.c:408 scan():  ->  hartsello=451 dmactive
Debug: 4831 779 riscv-013.c:397 scan(): 41b 4i w 01c40001 @10 -> + 00000000 @10
Debug: 4832 779 riscv-013.c:408 scan():  hartsello=452 dmactive -> 
Debug: 4833 779 riscv-013.c:397 scan(): 41b 4i - 00000000 @10 -> + 01c40001 @10
Debug: 4834 779 riscv-013.c:408 scan():  ->  hartsello=452 dmactive
Debug: 4835 779 riscv-013.c:397 scan(): 41b 4i r 00000000 @11 -> + 00000000 @10
Debug: 4836 780 riscv-013.c:397 scan(): 41b 4i - 00000000 @11 -> + 00003082 @11
Debug: 4837 780 riscv-013.c:408 scan():  ->  allunavail anyunavail authenticated version=2
Debug: 4838 780 riscv-013.c:397 scan(): 41b 4i r 00000000 @10 -> + 00000000 @11
Debug: 4839 780 riscv-013.c:397 scan(): 41b 4i - 00000000 @10 -> + 01c40001 @10
Debug: 4840 780 riscv-013.c:408 scan():  ->  hartsello=452 dmactive
Debug: 4841 780 riscv-013.c:397 scan(): 41b 4i w 01c50001 @10 -> + 00000000 @10
Debug: 4842 780 riscv-013.c:408 scan():  hartsello=453 dmactive -> 
Debug: 4843 781 riscv-013.c:397 scan(): 41b 4i - 00000000 @10 -> + 01c50001 @10
Debug: 4844 781 riscv-013.c:408 scan():  ->  hartsello=453 dmactive
Debug: 4845 781 riscv-013.c:397 scan(): 41b 4i r 00000000 @11 -> + 00000000 @10
Debug: 4846 781 riscv-013.c:397 scan(): 41b 4i - 00000000 @11 -> + 00003082 @11
Debug: 4847 781 riscv-013.c:408 scan():  ->  allunavail anyunavail authenticated version=2
Debug: 4848 781 riscv-013.c:397 scan(): 41b 4i r 00000000 @10 -> + 00000000 @11
Debug: 4849 782 riscv-013.c:397 scan(): 41b 4i - 00000000 @10 -> + 01c50001 @10
Debug: 4850 782 riscv-013.c:408 scan():  ->  hartsello=453 dmactive
Debug: 4851 782 riscv-013.c:397 scan(): 41b 4i w 01c60001 @10 -> + 00000000 @10
Debug: 4852 782 riscv-013.c:408 scan():  hartsello=454 dmactive -> 
Debug: 4853 782 riscv-013.c:397 scan(): 41b 4i - 00000000 @10 -> + 01c60001 @10
Debug: 4854 782 riscv-013.c:408 scan():  ->  hartsello=454 dmactive
Debug: 4855 783 riscv-013.c:397 scan(): 41b 4i r 00000000 @11 -> + 00000000 @10
Debug: 4856 783 riscv-013.c:397 scan(): 41b 4i - 00000000 @11 -> + 00003082 @11
Debug: 4857 783 riscv-013.c:408 scan():  ->  allunavail anyunavail authenticated version=2
Debug: 4858 783 riscv-013.c:397 scan(): 41b 4i r 00000000 @10 -> + 00000000 @11
Debug: 4859 783 riscv-013.c:397 scan(): 41b 4i - 00000000 @10 -> + 01c60001 @10
Debug: 4860 783 riscv-013.c:408 scan():  ->  hartsello=454 dmactive
Debug: 4861 784 riscv-013.c:397 scan(): 41b 4i w 01c70001 @10 -> + 00000000 @10
Debug: 4862 784 riscv-013.c:408 scan():  hartsello=455 dmactive -> 
Debug: 4863 784 riscv-013.c:397 scan(): 41b 4i - 00000000 @10 -> + 01c70001 @10
Debug: 4864 784 riscv-013.c:408 scan():  ->  hartsello=455 dmactive
Debug: 4865 784 riscv-013.c:397 scan(): 41b 4i r 00000000 @11 -> + 00000000 @10
Debug: 4866 784 riscv-013.c:397 scan(): 41b 4i - 00000000 @11 -> + 00003082 @11
Debug: 4867 784 riscv-013.c:408 scan():  ->  allunavail anyunavail authenticated version=2
Debug: 4868 785 riscv-013.c:397 scan(): 41b 4i r 00000000 @10 -> + 00000000 @11
Debug: 4869 785 riscv-013.c:397 scan(): 41b 4i - 00000000 @10 -> + 01c70001 @10
Debug: 4870 785 riscv-013.c:408 scan():  ->  hartsello=455 dmactive
Debug: 4871 785 riscv-013.c:397 scan(): 41b 4i w 01c80001 @10 -> + 00000000 @10
Debug: 4872 785 riscv-013.c:408 scan():  hartsello=456 dmactive -> 
Debug: 4873 785 riscv-013.c:397 scan(): 41b 4i - 00000000 @10 -> + 01c80001 @10
Debug: 4874 785 riscv-013.c:408 scan():  ->  hartsello=456 dmactive
Debug: 4875 786 riscv-013.c:397 scan(): 41b 4i r 00000000 @11 -> + 00000000 @10
Debug: 4876 786 riscv-013.c:397 scan(): 41b 4i - 00000000 @11 -> + 00003082 @11
Debug: 4877 786 riscv-013.c:408 scan():  ->  allunavail anyunavail authenticated version=2
Debug: 4878 786 riscv-013.c:397 scan(): 41b 4i r 00000000 @10 -> + 00000000 @11
Debug: 4879 786 riscv-013.c:397 scan(): 41b 4i - 00000000 @10 -> + 01c80001 @10
Debug: 4880 786 riscv-013.c:408 scan():  ->  hartsello=456 dmactive
Debug: 4881 787 riscv-013.c:397 scan(): 41b 4i w 01c90001 @10 -> + 00000000 @10
Debug: 4882 787 riscv-013.c:408 scan():  hartsello=457 dmactive -> 
Debug: 4883 787 riscv-013.c:397 scan(): 41b 4i - 00000000 @10 -> + 01c90001 @10
Debug: 4884 787 riscv-013.c:408 scan():  ->  hartsello=457 dmactive
Debug: 4885 787 riscv-013.c:397 scan(): 41b 4i r 00000000 @11 -> + 00000000 @10
Debug: 4886 787 riscv-013.c:397 scan(): 41b 4i - 00000000 @11 -> + 00003082 @11
Debug: 4887 787 riscv-013.c:408 scan():  ->  allunavail anyunavail authenticated version=2
Debug: 4888 788 riscv-013.c:397 scan(): 41b 4i r 00000000 @10 -> + 00000000 @11
Debug: 4889 788 riscv-013.c:397 scan(): 41b 4i - 00000000 @10 -> + 01c90001 @10
Debug: 4890 788 riscv-013.c:408 scan():  ->  hartsello=457 dmactive
Debug: 4891 788 riscv-013.c:397 scan(): 41b 4i w 01ca0001 @10 -> + 00000000 @10
Debug: 4892 788 riscv-013.c:408 scan():  hartsello=458 dmactive -> 
Debug: 4893 788 riscv-013.c:397 scan(): 41b 4i - 00000000 @10 -> + 01ca0001 @10
Debug: 4894 788 riscv-013.c:408 scan():  ->  hartsello=458 dmactive
Debug: 4895 789 riscv-013.c:397 scan(): 41b 4i r 00000000 @11 -> + 00000000 @10
Debug: 4896 789 riscv-013.c:397 scan(): 41b 4i - 00000000 @11 -> + 00003082 @11
Debug: 4897 789 riscv-013.c:408 scan():  ->  allunavail anyunavail authenticated version=2
Debug: 4898 789 riscv-013.c:397 scan(): 41b 4i r 00000000 @10 -> + 00000000 @11
Debug: 4899 789 riscv-013.c:397 scan(): 41b 4i - 00000000 @10 -> + 01ca0001 @10
Debug: 4900 789 riscv-013.c:408 scan():  ->  hartsello=458 dmactive
Debug: 4901 790 riscv-013.c:397 scan(): 41b 4i w 01cb0001 @10 -> + 00000000 @10
Debug: 4902 790 riscv-013.c:408 scan():  hartsello=459 dmactive -> 
Debug: 4903 790 riscv-013.c:397 scan(): 41b 4i - 00000000 @10 -> + 01cb0001 @10
Debug: 4904 790 riscv-013.c:408 scan():  ->  hartsello=459 dmactive
Debug: 4905 790 riscv-013.c:397 scan(): 41b 4i r 00000000 @11 -> + 00000000 @10
Debug: 4906 791 riscv-013.c:397 scan(): 41b 4i - 00000000 @11 -> + 00003082 @11
Debug: 4907 791 riscv-013.c:408 scan():  ->  allunavail anyunavail authenticated version=2
Debug: 4908 791 riscv-013.c:397 scan(): 41b 4i r 00000000 @10 -> + 00000000 @11
Debug: 4909 791 riscv-013.c:397 scan(): 41b 4i - 00000000 @10 -> + 01cb0001 @10
Debug: 4910 791 riscv-013.c:408 scan():  ->  hartsello=459 dmactive
Debug: 4911 791 riscv-013.c:397 scan(): 41b 4i w 01cc0001 @10 -> + 00000000 @10
Debug: 4912 791 riscv-013.c:408 scan():  hartsello=460 dmactive -> 
Debug: 4913 791 riscv-013.c:397 scan(): 41b 4i - 00000000 @10 -> + 01cc0001 @10
Debug: 4914 791 riscv-013.c:408 scan():  ->  hartsello=460 dmactive
Debug: 4915 792 riscv-013.c:397 scan(): 41b 4i r 00000000 @11 -> + 00000000 @10
Debug: 4916 792 riscv-013.c:397 scan(): 41b 4i - 00000000 @11 -> + 00003082 @11
Debug: 4917 792 riscv-013.c:408 scan():  ->  allunavail anyunavail authenticated version=2
Debug: 4918 792 riscv-013.c:397 scan(): 41b 4i r 00000000 @10 -> + 00000000 @11
Debug: 4919 792 riscv-013.c:397 scan(): 41b 4i - 00000000 @10 -> + 01cc0001 @10
Debug: 4920 792 riscv-013.c:408 scan():  ->  hartsello=460 dmactive
Debug: 4921 793 riscv-013.c:397 scan(): 41b 4i w 01cd0001 @10 -> + 00000000 @10
Debug: 4922 793 riscv-013.c:408 scan():  hartsello=461 dmactive -> 
Debug: 4923 793 riscv-013.c:397 scan(): 41b 4i - 00000000 @10 -> + 01cd0001 @10
Debug: 4924 793 riscv-013.c:408 scan():  ->  hartsello=461 dmactive
Debug: 4925 793 riscv-013.c:397 scan(): 41b 4i r 00000000 @11 -> + 00000000 @10
Debug: 4926 793 riscv-013.c:397 scan(): 41b 4i - 00000000 @11 -> + 00003082 @11
Debug: 4927 793 riscv-013.c:408 scan():  ->  allunavail anyunavail authenticated version=2
Debug: 4928 794 riscv-013.c:397 scan(): 41b 4i r 00000000 @10 -> + 00000000 @11
Debug: 4929 794 riscv-013.c:397 scan(): 41b 4i - 00000000 @10 -> + 01cd0001 @10
Debug: 4930 794 riscv-013.c:408 scan():  ->  hartsello=461 dmactive
Debug: 4931 794 riscv-013.c:397 scan(): 41b 4i w 01ce0001 @10 -> + 00000000 @10
Debug: 4932 794 riscv-013.c:408 scan():  hartsello=462 dmactive -> 
Debug: 4933 794 riscv-013.c:397 scan(): 41b 4i - 00000000 @10 -> + 01ce0001 @10
Debug: 4934 794 riscv-013.c:408 scan():  ->  hartsello=462 dmactive
Debug: 4935 795 riscv-013.c:397 scan(): 41b 4i r 00000000 @11 -> + 00000000 @10
Debug: 4936 795 riscv-013.c:397 scan(): 41b 4i - 00000000 @11 -> + 00003082 @11
Debug: 4937 795 riscv-013.c:408 scan():  ->  allunavail anyunavail authenticated version=2
Debug: 4938 795 riscv-013.c:397 scan(): 41b 4i r 00000000 @10 -> + 00000000 @11
Debug: 4939 796 riscv-013.c:397 scan(): 41b 4i - 00000000 @10 -> + 01ce0001 @10
Debug: 4940 796 riscv-013.c:408 scan():  ->  hartsello=462 dmactive
Debug: 4941 796 riscv-013.c:397 scan(): 41b 4i w 01cf0001 @10 -> + 00000000 @10
Debug: 4942 796 riscv-013.c:408 scan():  hartsello=463 dmactive -> 
Debug: 4943 796 riscv-013.c:397 scan(): 41b 4i - 00000000 @10 -> + 01cf0001 @10
Debug: 4944 796 riscv-013.c:408 scan():  ->  hartsello=463 dmactive
Debug: 4945 796 riscv-013.c:397 scan(): 41b 4i r 00000000 @11 -> + 00000000 @10
Debug: 4946 797 riscv-013.c:397 scan(): 41b 4i - 00000000 @11 -> + 00003082 @11
Debug: 4947 797 riscv-013.c:408 scan():  ->  allunavail anyunavail authenticated version=2
Debug: 4948 797 riscv-013.c:397 scan(): 41b 4i r 00000000 @10 -> + 00000000 @11
Debug: 4949 797 riscv-013.c:397 scan(): 41b 4i - 00000000 @10 -> + 01cf0001 @10
Debug: 4950 797 riscv-013.c:408 scan():  ->  hartsello=463 dmactive
Debug: 4951 797 riscv-013.c:397 scan(): 41b 4i w 01d00001 @10 -> + 00000000 @10
Debug: 4952 797 riscv-013.c:408 scan():  hartsello=464 dmactive -> 
Debug: 4953 798 riscv-013.c:397 scan(): 41b 4i - 00000000 @10 -> + 01d00001 @10
Debug: 4954 798 riscv-013.c:408 scan():  ->  hartsello=464 dmactive
Debug: 4955 798 riscv-013.c:397 scan(): 41b 4i r 00000000 @11 -> + 00000000 @10
Debug: 4956 798 riscv-013.c:397 scan(): 41b 4i - 00000000 @11 -> + 00003082 @11
Debug: 4957 798 riscv-013.c:408 scan():  ->  allunavail anyunavail authenticated version=2
Debug: 4958 798 riscv-013.c:397 scan(): 41b 4i r 00000000 @10 -> + 00000000 @11
Debug: 4959 799 riscv-013.c:397 scan(): 41b 4i - 00000000 @10 -> + 01d00001 @10
Debug: 4960 799 riscv-013.c:408 scan():  ->  hartsello=464 dmactive
Debug: 4961 799 riscv-013.c:397 scan(): 41b 4i w 01d10001 @10 -> + 00000000 @10
Debug: 4962 799 riscv-013.c:408 scan():  hartsello=465 dmactive -> 
Debug: 4963 799 riscv-013.c:397 scan(): 41b 4i - 00000000 @10 -> + 01d10001 @10
Debug: 4964 799 riscv-013.c:408 scan():  ->  hartsello=465 dmactive
Debug: 4965 799 riscv-013.c:397 scan(): 41b 4i r 00000000 @11 -> + 00000000 @10
Debug: 4966 800 riscv-013.c:397 scan(): 41b 4i - 00000000 @11 -> + 00003082 @11
Debug: 4967 800 riscv-013.c:408 scan():  ->  allunavail anyunavail authenticated version=2
Debug: 4968 800 riscv-013.c:397 scan(): 41b 4i r 00000000 @10 -> + 00000000 @11
Debug: 4969 800 riscv-013.c:397 scan(): 41b 4i - 00000000 @10 -> + 01d10001 @10
Debug: 4970 800 riscv-013.c:408 scan():  ->  hartsello=465 dmactive
Debug: 4971 800 riscv-013.c:397 scan(): 41b 4i w 01d20001 @10 -> + 00000000 @10
Debug: 4972 800 riscv-013.c:408 scan():  hartsello=466 dmactive -> 
Debug: 4973 801 riscv-013.c:397 scan(): 41b 4i - 00000000 @10 -> + 01d20001 @10
Debug: 4974 801 riscv-013.c:408 scan():  ->  hartsello=466 dmactive
Debug: 4975 801 riscv-013.c:397 scan(): 41b 4i r 00000000 @11 -> + 00000000 @10
Debug: 4976 801 riscv-013.c:397 scan(): 41b 4i - 00000000 @11 -> + 00003082 @11
Debug: 4977 801 riscv-013.c:408 scan():  ->  allunavail anyunavail authenticated version=2
Debug: 4978 801 riscv-013.c:397 scan(): 41b 4i r 00000000 @10 -> + 00000000 @11
Debug: 4979 802 riscv-013.c:397 scan(): 41b 4i - 00000000 @10 -> + 01d20001 @10
Debug: 4980 802 riscv-013.c:408 scan():  ->  hartsello=466 dmactive
Debug: 4981 802 riscv-013.c:397 scan(): 41b 4i w 01d30001 @10 -> + 00000000 @10
Debug: 4982 802 riscv-013.c:408 scan():  hartsello=467 dmactive -> 
Debug: 4983 802 riscv-013.c:397 scan(): 41b 4i - 00000000 @10 -> + 01d30001 @10
Debug: 4984 802 riscv-013.c:408 scan():  ->  hartsello=467 dmactive
Debug: 4985 802 riscv-013.c:397 scan(): 41b 4i r 00000000 @11 -> + 00000000 @10
Debug: 4986 802 riscv-013.c:397 scan(): 41b 4i - 00000000 @11 -> + 00003082 @11
Debug: 4987 802 riscv-013.c:408 scan():  ->  allunavail anyunavail authenticated version=2
Debug: 4988 803 riscv-013.c:397 scan(): 41b 4i r 00000000 @10 -> + 00000000 @11
Debug: 4989 803 riscv-013.c:397 scan(): 41b 4i - 00000000 @10 -> + 01d30001 @10
Debug: 4990 803 riscv-013.c:408 scan():  ->  hartsello=467 dmactive
Debug: 4991 803 riscv-013.c:397 scan(): 41b 4i w 01d40001 @10 -> + 00000000 @10
Debug: 4992 803 riscv-013.c:408 scan():  hartsello=468 dmactive -> 
Debug: 4993 803 riscv-013.c:397 scan(): 41b 4i - 00000000 @10 -> + 01d40001 @10
Debug: 4994 803 riscv-013.c:408 scan():  ->  hartsello=468 dmactive
Debug: 4995 804 riscv-013.c:397 scan(): 41b 4i r 00000000 @11 -> + 00000000 @10
Debug: 4996 804 riscv-013.c:397 scan(): 41b 4i - 00000000 @11 -> + 00003082 @11
Debug: 4997 804 riscv-013.c:408 scan():  ->  allunavail anyunavail authenticated version=2
Debug: 4998 804 riscv-013.c:397 scan(): 41b 4i r 00000000 @10 -> + 00000000 @11
Debug: 4999 805 riscv-013.c:397 scan(): 41b 4i - 00000000 @10 -> + 01d40001 @10
Debug: 5000 805 riscv-013.c:408 scan():  ->  hartsello=468 dmactive
Debug: 5001 805 riscv-013.c:397 scan(): 41b 4i w 01d50001 @10 -> + 00000000 @10
Debug: 5002 805 riscv-013.c:408 scan():  hartsello=469 dmactive -> 
Debug: 5003 805 riscv-013.c:397 scan(): 41b 4i - 00000000 @10 -> + 01d50001 @10
Debug: 5004 805 riscv-013.c:408 scan():  ->  hartsello=469 dmactive
Debug: 5005 805 riscv-013.c:397 scan(): 41b 4i r 00000000 @11 -> + 00000000 @10
Debug: 5006 806 riscv-013.c:397 scan(): 41b 4i - 00000000 @11 -> + 00003082 @11
Debug: 5007 806 riscv-013.c:408 scan():  ->  allunavail anyunavail authenticated version=2
Debug: 5008 806 riscv-013.c:397 scan(): 41b 4i r 00000000 @10 -> + 00000000 @11
Debug: 5009 806 riscv-013.c:397 scan(): 41b 4i - 00000000 @10 -> + 01d50001 @10
Debug: 5010 806 riscv-013.c:408 scan():  ->  hartsello=469 dmactive
Debug: 5011 806 riscv-013.c:397 scan(): 41b 4i w 01d60001 @10 -> + 00000000 @10
Debug: 5012 806 riscv-013.c:408 scan():  hartsello=470 dmactive -> 
Debug: 5013 807 riscv-013.c:397 scan(): 41b 4i - 00000000 @10 -> + 01d60001 @10
Debug: 5014 807 riscv-013.c:408 scan():  ->  hartsello=470 dmactive
Debug: 5015 808 riscv-013.c:397 scan(): 41b 4i r 00000000 @11 -> + 00000000 @10
Debug: 5016 808 riscv-013.c:397 scan(): 41b 4i - 00000000 @11 -> + 00003082 @11
Debug: 5017 808 riscv-013.c:408 scan():  ->  allunavail anyunavail authenticated version=2
Debug: 5018 808 riscv-013.c:397 scan(): 41b 4i r 00000000 @10 -> + 00000000 @11
Debug: 5019 808 riscv-013.c:397 scan(): 41b 4i - 00000000 @10 -> + 01d60001 @10
Debug: 5020 808 riscv-013.c:408 scan():  ->  hartsello=470 dmactive
Debug: 5021 809 riscv-013.c:397 scan(): 41b 4i w 01d70001 @10 -> + 00000000 @10
Debug: 5022 809 riscv-013.c:408 scan():  hartsello=471 dmactive -> 
Debug: 5023 809 riscv-013.c:397 scan(): 41b 4i - 00000000 @10 -> + 01d70001 @10
Debug: 5024 809 riscv-013.c:408 scan():  ->  hartsello=471 dmactive
Debug: 5025 809 riscv-013.c:397 scan(): 41b 4i r 00000000 @11 -> + 00000000 @10
Debug: 5026 810 riscv-013.c:397 scan(): 41b 4i - 00000000 @11 -> + 00003082 @11
Debug: 5027 810 riscv-013.c:408 scan():  ->  allunavail anyunavail authenticated version=2
Debug: 5028 810 riscv-013.c:397 scan(): 41b 4i r 00000000 @10 -> + 00000000 @11
Debug: 5029 810 riscv-013.c:397 scan(): 41b 4i - 00000000 @10 -> + 01d70001 @10
Debug: 5030 810 riscv-013.c:408 scan():  ->  hartsello=471 dmactive
Debug: 5031 810 riscv-013.c:397 scan(): 41b 4i w 01d80001 @10 -> + 00000000 @10
Debug: 5032 810 riscv-013.c:408 scan():  hartsello=472 dmactive -> 
Debug: 5033 811 riscv-013.c:397 scan(): 41b 4i - 00000000 @10 -> + 01d80001 @10
Debug: 5034 811 riscv-013.c:408 scan():  ->  hartsello=472 dmactive
Debug: 5035 811 riscv-013.c:397 scan(): 41b 4i r 00000000 @11 -> + 00000000 @10
Debug: 5036 811 riscv-013.c:397 scan(): 41b 4i - 00000000 @11 -> + 00003082 @11
Debug: 5037 811 riscv-013.c:408 scan():  ->  allunavail anyunavail authenticated version=2
Debug: 5038 812 riscv-013.c:397 scan(): 41b 4i r 00000000 @10 -> + 00000000 @11
Debug: 5039 812 riscv-013.c:397 scan(): 41b 4i - 00000000 @10 -> + 01d80001 @10
Debug: 5040 812 riscv-013.c:408 scan():  ->  hartsello=472 dmactive
Debug: 5041 812 riscv-013.c:397 scan(): 41b 4i w 01d90001 @10 -> + 00000000 @10
Debug: 5042 812 riscv-013.c:408 scan():  hartsello=473 dmactive -> 
Debug: 5043 813 riscv-013.c:397 scan(): 41b 4i - 00000000 @10 -> + 01d90001 @10
Debug: 5044 813 riscv-013.c:408 scan():  ->  hartsello=473 dmactive
Debug: 5045 813 riscv-013.c:397 scan(): 41b 4i r 00000000 @11 -> + 00000000 @10
Debug: 5046 813 riscv-013.c:397 scan(): 41b 4i - 00000000 @11 -> + 00003082 @11
Debug: 5047 813 riscv-013.c:408 scan():  ->  allunavail anyunavail authenticated version=2
Debug: 5048 814 riscv-013.c:397 scan(): 41b 4i r 00000000 @10 -> + 00000000 @11
Debug: 5049 814 riscv-013.c:397 scan(): 41b 4i - 00000000 @10 -> + 01d90001 @10
Debug: 5050 814 riscv-013.c:408 scan():  ->  hartsello=473 dmactive
Debug: 5051 814 riscv-013.c:397 scan(): 41b 4i w 01da0001 @10 -> + 00000000 @10
Debug: 5052 814 riscv-013.c:408 scan():  hartsello=474 dmactive -> 
Debug: 5053 814 riscv-013.c:397 scan(): 41b 4i - 00000000 @10 -> + 01da0001 @10
Debug: 5054 814 riscv-013.c:408 scan():  ->  hartsello=474 dmactive
Debug: 5055 815 riscv-013.c:397 scan(): 41b 4i r 00000000 @11 -> + 00000000 @10
Debug: 5056 815 riscv-013.c:397 scan(): 41b 4i - 00000000 @11 -> + 00003082 @11
Debug: 5057 815 riscv-013.c:408 scan():  ->  allunavail anyunavail authenticated version=2
Debug: 5058 815 riscv-013.c:397 scan(): 41b 4i r 00000000 @10 -> + 00000000 @11
Debug: 5059 816 riscv-013.c:397 scan(): 41b 4i - 00000000 @10 -> + 01da0001 @10
Debug: 5060 816 riscv-013.c:408 scan():  ->  hartsello=474 dmactive
Debug: 5061 816 riscv-013.c:397 scan(): 41b 4i w 01db0001 @10 -> + 00000000 @10
Debug: 5062 816 riscv-013.c:408 scan():  hartsello=475 dmactive -> 
Debug: 5063 816 riscv-013.c:397 scan(): 41b 4i - 00000000 @10 -> + 01db0001 @10
Debug: 5064 816 riscv-013.c:408 scan():  ->  hartsello=475 dmactive
Debug: 5065 817 riscv-013.c:397 scan(): 41b 4i r 00000000 @11 -> + 00000000 @10
Debug: 5066 817 riscv-013.c:397 scan(): 41b 4i - 00000000 @11 -> + 00003082 @11
Debug: 5067 817 riscv-013.c:408 scan():  ->  allunavail anyunavail authenticated version=2
Debug: 5068 817 riscv-013.c:397 scan(): 41b 4i r 00000000 @10 -> + 00000000 @11
Debug: 5069 818 riscv-013.c:397 scan(): 41b 4i - 00000000 @10 -> + 01db0001 @10
Debug: 5070 818 riscv-013.c:408 scan():  ->  hartsello=475 dmactive
Debug: 5071 818 riscv-013.c:397 scan(): 41b 4i w 01dc0001 @10 -> + 00000000 @10
Debug: 5072 818 riscv-013.c:408 scan():  hartsello=476 dmactive -> 
Debug: 5073 818 riscv-013.c:397 scan(): 41b 4i - 00000000 @10 -> + 01dc0001 @10
Debug: 5074 818 riscv-013.c:408 scan():  ->  hartsello=476 dmactive
Debug: 5075 818 riscv-013.c:397 scan(): 41b 4i r 00000000 @11 -> + 00000000 @10
Debug: 5076 819 riscv-013.c:397 scan(): 41b 4i - 00000000 @11 -> + 00003082 @11
Debug: 5077 819 riscv-013.c:408 scan():  ->  allunavail anyunavail authenticated version=2
Debug: 5078 819 riscv-013.c:397 scan(): 41b 4i r 00000000 @10 -> + 00000000 @11
Debug: 5079 819 riscv-013.c:397 scan(): 41b 4i - 00000000 @10 -> + 01dc0001 @10
Debug: 5080 819 riscv-013.c:408 scan():  ->  hartsello=476 dmactive
Debug: 5081 820 riscv-013.c:397 scan(): 41b 4i w 01dd0001 @10 -> + 00000000 @10
Debug: 5082 820 riscv-013.c:408 scan():  hartsello=477 dmactive -> 
Debug: 5083 820 riscv-013.c:397 scan(): 41b 4i - 00000000 @10 -> + 01dd0001 @10
Debug: 5084 820 riscv-013.c:408 scan():  ->  hartsello=477 dmactive
Debug: 5085 820 riscv-013.c:397 scan(): 41b 4i r 00000000 @11 -> + 00000000 @10
Debug: 5086 821 riscv-013.c:397 scan(): 41b 4i - 00000000 @11 -> + 00003082 @11
Debug: 5087 821 riscv-013.c:408 scan():  ->  allunavail anyunavail authenticated version=2
Debug: 5088 821 riscv-013.c:397 scan(): 41b 4i r 00000000 @10 -> + 00000000 @11
Debug: 5089 821 riscv-013.c:397 scan(): 41b 4i - 00000000 @10 -> + 01dd0001 @10
Debug: 5090 821 riscv-013.c:408 scan():  ->  hartsello=477 dmactive
Debug: 5091 821 riscv-013.c:397 scan(): 41b 4i w 01de0001 @10 -> + 00000000 @10
Debug: 5092 821 riscv-013.c:408 scan():  hartsello=478 dmactive -> 
Debug: 5093 822 riscv-013.c:397 scan(): 41b 4i - 00000000 @10 -> + 01de0001 @10
Debug: 5094 822 riscv-013.c:408 scan():  ->  hartsello=478 dmactive
Debug: 5095 822 riscv-013.c:397 scan(): 41b 4i r 00000000 @11 -> + 00000000 @10
Debug: 5096 822 riscv-013.c:397 scan(): 41b 4i - 00000000 @11 -> + 00003082 @11
Debug: 5097 822 riscv-013.c:408 scan():  ->  allunavail anyunavail authenticated version=2
Debug: 5098 822 riscv-013.c:397 scan(): 41b 4i r 00000000 @10 -> + 00000000 @11
Debug: 5099 823 riscv-013.c:397 scan(): 41b 4i - 00000000 @10 -> + 01de0001 @10
Debug: 5100 823 riscv-013.c:408 scan():  ->  hartsello=478 dmactive
Debug: 5101 823 riscv-013.c:397 scan(): 41b 4i w 01df0001 @10 -> + 00000000 @10
Debug: 5102 823 riscv-013.c:408 scan():  hartsello=479 dmactive -> 
Debug: 5103 823 riscv-013.c:397 scan(): 41b 4i - 00000000 @10 -> + 01df0001 @10
Debug: 5104 823 riscv-013.c:408 scan():  ->  hartsello=479 dmactive
Debug: 5105 824 riscv-013.c:397 scan(): 41b 4i r 00000000 @11 -> + 00000000 @10
Debug: 5106 824 riscv-013.c:397 scan(): 41b 4i - 00000000 @11 -> + 00003082 @11
Debug: 5107 824 riscv-013.c:408 scan():  ->  allunavail anyunavail authenticated version=2
Debug: 5108 824 riscv-013.c:397 scan(): 41b 4i r 00000000 @10 -> + 00000000 @11
Debug: 5109 825 riscv-013.c:397 scan(): 41b 4i - 00000000 @10 -> + 01df0001 @10
Debug: 5110 825 riscv-013.c:408 scan():  ->  hartsello=479 dmactive
Debug: 5111 825 riscv-013.c:397 scan(): 41b 4i w 01e00001 @10 -> + 00000000 @10
Debug: 5112 825 riscv-013.c:408 scan():  hartsello=480 dmactive -> 
Debug: 5113 825 riscv-013.c:397 scan(): 41b 4i - 00000000 @10 -> + 01e00001 @10
Debug: 5114 825 riscv-013.c:408 scan():  ->  hartsello=480 dmactive
Debug: 5115 825 riscv-013.c:397 scan(): 41b 4i r 00000000 @11 -> + 00000000 @10
Debug: 5116 826 riscv-013.c:397 scan(): 41b 4i - 00000000 @11 -> + 00003082 @11
Debug: 5117 826 riscv-013.c:408 scan():  ->  allunavail anyunavail authenticated version=2
Debug: 5118 826 riscv-013.c:397 scan(): 41b 4i r 00000000 @10 -> + 00000000 @11
Debug: 5119 826 riscv-013.c:397 scan(): 41b 4i - 00000000 @10 -> + 01e00001 @10
Debug: 5120 826 riscv-013.c:408 scan():  ->  hartsello=480 dmactive
Debug: 5121 826 riscv-013.c:397 scan(): 41b 4i w 01e10001 @10 -> + 00000000 @10
Debug: 5122 826 riscv-013.c:408 scan():  hartsello=481 dmactive -> 
Debug: 5123 827 riscv-013.c:397 scan(): 41b 4i - 00000000 @10 -> + 01e10001 @10
Debug: 5124 827 riscv-013.c:408 scan():  ->  hartsello=481 dmactive
Debug: 5125 827 riscv-013.c:397 scan(): 41b 4i r 00000000 @11 -> + 00000000 @10
Debug: 5126 827 riscv-013.c:397 scan(): 41b 4i - 00000000 @11 -> + 00003082 @11
Debug: 5127 827 riscv-013.c:408 scan():  ->  allunavail anyunavail authenticated version=2
Debug: 5128 828 riscv-013.c:397 scan(): 41b 4i r 00000000 @10 -> + 00000000 @11
Debug: 5129 828 riscv-013.c:397 scan(): 41b 4i - 00000000 @10 -> + 01e10001 @10
Debug: 5130 828 riscv-013.c:408 scan():  ->  hartsello=481 dmactive
Debug: 5131 828 riscv-013.c:397 scan(): 41b 4i w 01e20001 @10 -> + 00000000 @10
Debug: 5132 828 riscv-013.c:408 scan():  hartsello=482 dmactive -> 
Debug: 5133 828 riscv-013.c:397 scan(): 41b 4i - 00000000 @10 -> + 01e20001 @10
Debug: 5134 828 riscv-013.c:408 scan():  ->  hartsello=482 dmactive
Debug: 5135 829 riscv-013.c:397 scan(): 41b 4i r 00000000 @11 -> + 00000000 @10
Debug: 5136 829 riscv-013.c:397 scan(): 41b 4i - 00000000 @11 -> + 00003082 @11
Debug: 5137 829 riscv-013.c:408 scan():  ->  allunavail anyunavail authenticated version=2
Debug: 5138 829 riscv-013.c:397 scan(): 41b 4i r 00000000 @10 -> + 00000000 @11
Debug: 5139 830 riscv-013.c:397 scan(): 41b 4i - 00000000 @10 -> + 01e20001 @10
Debug: 5140 830 riscv-013.c:408 scan():  ->  hartsello=482 dmactive
Debug: 5141 830 riscv-013.c:397 scan(): 41b 4i w 01e30001 @10 -> + 00000000 @10
Debug: 5142 830 riscv-013.c:408 scan():  hartsello=483 dmactive -> 
Debug: 5143 830 riscv-013.c:397 scan(): 41b 4i - 00000000 @10 -> + 01e30001 @10
Debug: 5144 830 riscv-013.c:408 scan():  ->  hartsello=483 dmactive
Debug: 5145 831 riscv-013.c:397 scan(): 41b 4i r 00000000 @11 -> + 00000000 @10
Debug: 5146 831 riscv-013.c:397 scan(): 41b 4i - 00000000 @11 -> + 00003082 @11
Debug: 5147 831 riscv-013.c:408 scan():  ->  allunavail anyunavail authenticated version=2
Debug: 5148 831 riscv-013.c:397 scan(): 41b 4i r 00000000 @10 -> + 00000000 @11
Debug: 5149 831 riscv-013.c:397 scan(): 41b 4i - 00000000 @10 -> + 01e30001 @10
Debug: 5150 831 riscv-013.c:408 scan():  ->  hartsello=483 dmactive
Debug: 5151 832 riscv-013.c:397 scan(): 41b 4i w 01e40001 @10 -> + 00000000 @10
Debug: 5152 832 riscv-013.c:408 scan():  hartsello=484 dmactive -> 
Debug: 5153 832 riscv-013.c:397 scan(): 41b 4i - 00000000 @10 -> + 01e40001 @10
Debug: 5154 832 riscv-013.c:408 scan():  ->  hartsello=484 dmactive
Debug: 5155 832 riscv-013.c:397 scan(): 41b 4i r 00000000 @11 -> + 00000000 @10
Debug: 5156 833 riscv-013.c:397 scan(): 41b 4i - 00000000 @11 -> + 00003082 @11
Debug: 5157 833 riscv-013.c:408 scan():  ->  allunavail anyunavail authenticated version=2
Debug: 5158 833 riscv-013.c:397 scan(): 41b 4i r 00000000 @10 -> + 00000000 @11
Debug: 5159 833 riscv-013.c:397 scan(): 41b 4i - 00000000 @10 -> + 01e40001 @10
Debug: 5160 833 riscv-013.c:408 scan():  ->  hartsello=484 dmactive
Debug: 5161 834 riscv-013.c:397 scan(): 41b 4i w 01e50001 @10 -> + 00000000 @10
Debug: 5162 834 riscv-013.c:408 scan():  hartsello=485 dmactive -> 
Debug: 5163 834 riscv-013.c:397 scan(): 41b 4i - 00000000 @10 -> + 01e50001 @10
Debug: 5164 834 riscv-013.c:408 scan():  ->  hartsello=485 dmactive
Debug: 5165 834 riscv-013.c:397 scan(): 41b 4i r 00000000 @11 -> + 00000000 @10
Debug: 5166 834 riscv-013.c:397 scan(): 41b 4i - 00000000 @11 -> + 00003082 @11
Debug: 5167 834 riscv-013.c:408 scan():  ->  allunavail anyunavail authenticated version=2
Debug: 5168 835 riscv-013.c:397 scan(): 41b 4i r 00000000 @10 -> + 00000000 @11
Debug: 5169 835 riscv-013.c:397 scan(): 41b 4i - 00000000 @10 -> + 01e50001 @10
Debug: 5170 835 riscv-013.c:408 scan():  ->  hartsello=485 dmactive
Debug: 5171 835 riscv-013.c:397 scan(): 41b 4i w 01e60001 @10 -> + 00000000 @10
Debug: 5172 835 riscv-013.c:408 scan():  hartsello=486 dmactive -> 
Debug: 5173 836 riscv-013.c:397 scan(): 41b 4i - 00000000 @10 -> + 01e60001 @10
Debug: 5174 836 riscv-013.c:408 scan():  ->  hartsello=486 dmactive
Debug: 5175 836 riscv-013.c:397 scan(): 41b 4i r 00000000 @11 -> + 00000000 @10
Debug: 5176 836 riscv-013.c:397 scan(): 41b 4i - 00000000 @11 -> + 00003082 @11
Debug: 5177 836 riscv-013.c:408 scan():  ->  allunavail anyunavail authenticated version=2
Debug: 5178 837 riscv-013.c:397 scan(): 41b 4i r 00000000 @10 -> + 00000000 @11
Debug: 5179 837 riscv-013.c:397 scan(): 41b 4i - 00000000 @10 -> + 01e60001 @10
Debug: 5180 837 riscv-013.c:408 scan():  ->  hartsello=486 dmactive
Debug: 5181 837 riscv-013.c:397 scan(): 41b 4i w 01e70001 @10 -> + 00000000 @10
Debug: 5182 837 riscv-013.c:408 scan():  hartsello=487 dmactive -> 
Debug: 5183 838 riscv-013.c:397 scan(): 41b 4i - 00000000 @10 -> + 01e70001 @10
Debug: 5184 838 riscv-013.c:408 scan():  ->  hartsello=487 dmactive
Debug: 5185 838 riscv-013.c:397 scan(): 41b 4i r 00000000 @11 -> + 00000000 @10
Debug: 5186 838 riscv-013.c:397 scan(): 41b 4i - 00000000 @11 -> + 00003082 @11
Debug: 5187 838 riscv-013.c:408 scan():  ->  allunavail anyunavail authenticated version=2
Debug: 5188 839 riscv-013.c:397 scan(): 41b 4i r 00000000 @10 -> + 00000000 @11
Debug: 5189 839 riscv-013.c:397 scan(): 41b 4i - 00000000 @10 -> + 01e70001 @10
Debug: 5190 839 riscv-013.c:408 scan():  ->  hartsello=487 dmactive
Debug: 5191 839 riscv-013.c:397 scan(): 41b 4i w 01e80001 @10 -> + 00000000 @10
Debug: 5192 839 riscv-013.c:408 scan():  hartsello=488 dmactive -> 
Debug: 5193 840 riscv-013.c:397 scan(): 41b 4i - 00000000 @10 -> + 01e80001 @10
Debug: 5194 840 riscv-013.c:408 scan():  ->  hartsello=488 dmactive
Debug: 5195 840 riscv-013.c:397 scan(): 41b 4i r 00000000 @11 -> + 00000000 @10
Debug: 5196 840 riscv-013.c:397 scan(): 41b