Open On-Chip Debugger 0.10.0+dev-00615-gb3e32e023-dirty (2024-10-03-17:04)
Licensed under GNU GPL v2
For bug reports, read
	http://openocd.org/doc/doxygen/bugs.html
User : 13 3 command.c:544 command_print(): debug_level: 3
Debug: 14 3 options.c:184 add_default_dirs(): bindir=/home/renato/Desktop/training/pulp-sdk/pkg/openocd/1.0/bin
Debug: 15 3 options.c:185 add_default_dirs(): pkgdatadir=/home/renato/Desktop/training/pulp-sdk/pkg/openocd/1.0/share/openocd
Debug: 16 3 options.c:186 add_default_dirs(): exepath=/usr/local/bin
Debug: 17 3 options.c:187 add_default_dirs(): bin2data=../share/openocd
Debug: 18 3 configuration.c:42 add_script_search_dir(): adding /root/.openocd
Debug: 19 3 configuration.c:42 add_script_search_dir(): adding /usr/local/bin/../share/openocd/site
Debug: 20 3 configuration.c:42 add_script_search_dir(): adding /usr/local/bin/../share/openocd/scripts
Debug: 21 3 configuration.c:97 find_file(): found target/fpga/pulpissimo-zcu102/openocd-zcu102-digilent-jtag-hs2.cfg
Debug: 22 3 command.c:143 script_debug(): command - ocd_command ocd_command type ocd_adapter_khz 1000
Debug: 23 3 command.c:143 script_debug(): command - adapter_khz ocd_adapter_khz 1000
Debug: 25 3 core.c:1645 jtag_config_khz(): handle jtag khz
Debug: 26 3 core.c:1612 adapter_khz_to_speed(): convert khz to interface specific speed value
Debug: 27 3 core.c:1612 adapter_khz_to_speed(): convert khz to interface specific speed value
User : 28 3 command.c:544 command_print(): adapter speed: 1000 kHz
Debug: 29 3 command.c:143 script_debug(): command - ocd_command ocd_command type ocd_interface ftdi
Debug: 30 3 command.c:143 script_debug(): command - interface ocd_interface ftdi
Debug: 32 3 command.c:364 register_command_handler(): registering 'ocd_ftdi_device_desc'...
Debug: 33 3 command.c:364 register_command_handler(): registering 'ocd_ftdi_serial'...
Debug: 34 3 command.c:364 register_command_handler(): registering 'ocd_ftdi_channel'...
Debug: 35 3 command.c:364 register_command_handler(): registering 'ocd_ftdi_layout_init'...
Debug: 36 3 command.c:364 register_command_handler(): registering 'ocd_ftdi_layout_signal'...
Debug: 37 3 command.c:364 register_command_handler(): registering 'ocd_ftdi_set_signal'...
Debug: 38 3 command.c:364 register_command_handler(): registering 'ocd_ftdi_get_signal'...
Debug: 39 3 command.c:364 register_command_handler(): registering 'ocd_ftdi_vid_pid'...
Debug: 40 3 command.c:364 register_command_handler(): registering 'ocd_ftdi_tdo_sample_edge'...
Debug: 41 3 command.c:364 register_command_handler(): registering 'ocd_ftdi_oscan1_mode'...
Debug: 42 3 command.c:143 script_debug(): command - ocd_command ocd_command type ocd_ftdi_vid_pid 0x0403 0x6014
Debug: 43 3 command.c:143 script_debug(): command - ftdi_vid_pid ocd_ftdi_vid_pid 0x0403 0x6014
Debug: 45 4 command.c:143 script_debug(): command - ocd_command ocd_command type ocd_ftdi_channel 0
Debug: 46 4 command.c:143 script_debug(): command - ftdi_channel ocd_ftdi_channel 0
Debug: 48 4 command.c:143 script_debug(): command - ocd_command ocd_command type ocd_ftdi_layout_init 0x00e8 0x60eb
Debug: 49 4 command.c:143 script_debug(): command - ftdi_layout_init ocd_ftdi_layout_init 0x00e8 0x60eb
Debug: 51 4 command.c:143 script_debug(): command - ocd_command ocd_command type ocd_transport select
Debug: 52 4 command.c:143 script_debug(): command - ocd_transport ocd_transport select
Info : 53 4 transport.c:285 jim_transport_select(): auto-selecting first available session transport "jtag". To override use 'transport select <transport>'.
Debug: 54 4 command.c:364 register_command_handler(): registering 'ocd_jtag_flush_queue_sleep'...
Debug: 55 4 command.c:364 register_command_handler(): registering 'ocd_jtag_rclk'...
Debug: 56 4 command.c:364 register_command_handler(): registering 'ocd_jtag_ntrst_delay'...
Debug: 57 4 command.c:364 register_command_handler(): registering 'ocd_jtag_ntrst_assert_width'...
Debug: 58 4 command.c:364 register_command_handler(): registering 'ocd_scan_chain'...
Debug: 59 4 command.c:364 register_command_handler(): registering 'ocd_jtag_reset'...
Debug: 60 4 command.c:364 register_command_handler(): registering 'ocd_runtest'...
Debug: 61 4 command.c:364 register_command_handler(): registering 'ocd_irscan'...
Debug: 62 4 command.c:364 register_command_handler(): registering 'ocd_verify_ircapture'...
Debug: 63 4 command.c:364 register_command_handler(): registering 'ocd_verify_jtag'...
Debug: 64 4 command.c:364 register_command_handler(): registering 'ocd_tms_sequence'...
Debug: 65 4 command.c:364 register_command_handler(): registering 'ocd_wait_srst_deassert'...
Debug: 66 4 command.c:364 register_command_handler(): registering 'ocd_jtag'...
Debug: 67 4 command.c:364 register_command_handler(): registering 'ocd_jtag'...
Debug: 68 4 command.c:364 register_command_handler(): registering 'ocd_jtag'...
Debug: 69 4 command.c:364 register_command_handler(): registering 'ocd_jtag'...
Debug: 70 4 command.c:364 register_command_handler(): registering 'ocd_jtag'...
Debug: 71 4 command.c:364 register_command_handler(): registering 'ocd_jtag'...
Debug: 72 4 command.c:364 register_command_handler(): registering 'ocd_jtag'...
Debug: 73 4 command.c:364 register_command_handler(): registering 'ocd_jtag'...
Debug: 74 4 command.c:364 register_command_handler(): registering 'ocd_jtag'...
Debug: 75 4 command.c:364 register_command_handler(): registering 'ocd_jtag'...
Debug: 76 4 command.c:364 register_command_handler(): registering 'ocd_jtag'...
Debug: 77 4 command.c:364 register_command_handler(): registering 'ocd_jtag'...
Debug: 78 4 command.c:364 register_command_handler(): registering 'ocd_jtag'...
Debug: 79 4 command.c:364 register_command_handler(): registering 'ocd_svf'...
Debug: 80 4 command.c:364 register_command_handler(): registering 'ocd_xsvf'...
Debug: 81 5 command.c:143 script_debug(): command - ocd_command ocd_command type ocd_transport select
Debug: 82 5 command.c:143 script_debug(): command - ocd_transport ocd_transport select
Debug: 83 5 command.c:143 script_debug(): command - ocd_command ocd_command type ocd_jtag newtap riscv unknown0 -irlen 5 -expected-id 0x5fffedb3
Debug: 84 5 command.c:143 script_debug(): command - ocd_jtag ocd_jtag newtap riscv unknown0 -irlen 5 -expected-id 0x5fffedb3
Debug: 85 5 tcl.c:549 jim_newtap_cmd(): Creating New Tap, Chip: riscv, Tap: unknown0, Dotted: riscv.unknown0, 4 params
Debug: 86 5 tcl.c:574 jim_newtap_cmd(): Processing option: -irlen
Debug: 87 5 tcl.c:574 jim_newtap_cmd(): Processing option: -expected-id
Debug: 88 5 core.c:1300 jtag_tap_init(): Created Tap: riscv.unknown0 @ abs position 0, irlen 5, capture: 0x1 mask: 0x3
Debug: 89 5 command.c:143 script_debug(): command - ocd_command ocd_command type ocd_jtag newtap riscv cpu -irlen 5 -expected-id 0x50001db3
Debug: 90 5 command.c:143 script_debug(): command - ocd_jtag ocd_jtag newtap riscv cpu -irlen 5 -expected-id 0x50001db3
Debug: 91 5 tcl.c:549 jim_newtap_cmd(): Creating New Tap, Chip: riscv, Tap: cpu, Dotted: riscv.cpu, 4 params
Debug: 92 5 tcl.c:574 jim_newtap_cmd(): Processing option: -irlen
Debug: 93 5 tcl.c:574 jim_newtap_cmd(): Processing option: -expected-id
Debug: 94 5 core.c:1300 jtag_tap_init(): Created Tap: riscv.cpu @ abs position 1, irlen 5, capture: 0x1 mask: 0x3
Debug: 95 5 command.c:143 script_debug(): command - ocd_command ocd_command type ocd_target create riscv.cpu riscv -chain-position riscv.cpu -coreid 0x3e0
Debug: 96 5 command.c:143 script_debug(): command - ocd_target ocd_target create riscv.cpu riscv -chain-position riscv.cpu -coreid 0x3e0
Debug: 97 5 target.c:1959 target_free_all_working_areas_restore(): freeing all working areas
Debug: 98 5 command.c:364 register_command_handler(): registering 'ocd_riscv'...
Debug: 99 5 command.c:364 register_command_handler(): registering 'ocd_riscv'...
Debug: 100 5 command.c:364 register_command_handler(): registering 'ocd_riscv'...
Debug: 101 5 command.c:364 register_command_handler(): registering 'ocd_riscv'...
Debug: 102 5 command.c:364 register_command_handler(): registering 'ocd_riscv'...
Debug: 103 5 command.c:364 register_command_handler(): registering 'ocd_riscv'...
Debug: 104 5 command.c:364 register_command_handler(): registering 'ocd_riscv'...
Debug: 105 5 command.c:364 register_command_handler(): registering 'ocd_riscv'...
Debug: 106 5 command.c:364 register_command_handler(): registering 'ocd_riscv'...
Debug: 107 5 command.c:364 register_command_handler(): registering 'ocd_riscv'...
Debug: 108 5 command.c:364 register_command_handler(): registering 'ocd_riscv'...
Debug: 109 5 command.c:364 register_command_handler(): registering 'ocd_riscv'...
Debug: 110 5 command.c:364 register_command_handler(): registering 'ocd_riscv'...
Debug: 111 5 command.c:364 register_command_handler(): registering 'ocd_riscv'...
Debug: 112 5 command.c:364 register_command_handler(): registering 'ocd_arm'...
Debug: 113 5 command.c:364 register_command_handler(): registering 'ocd_arm'...
Debug: 114 5 command.c:364 register_command_handler(): registering 'ocd_arm'...
Debug: 115 6 command.c:364 register_command_handler(): registering 'ocd_arm'...
Debug: 116 6 command.c:364 register_command_handler(): registering 'ocd_riscv.cpu'...
Debug: 117 6 command.c:364 register_command_handler(): registering 'ocd_riscv.cpu'...
Debug: 118 6 command.c:364 register_command_handler(): registering 'ocd_riscv.cpu'...
Debug: 119 6 command.c:364 register_command_handler(): registering 'ocd_riscv.cpu'...
Debug: 120 6 command.c:364 register_command_handler(): registering 'ocd_riscv.cpu'...
Debug: 121 6 command.c:364 register_command_handler(): registering 'ocd_riscv.cpu'...
Debug: 122 6 command.c:364 register_command_handler(): registering 'ocd_riscv.cpu'...
Debug: 123 6 command.c:364 register_command_handler(): registering 'ocd_riscv.cpu'...
Debug: 124 6 command.c:364 register_command_handler(): registering 'ocd_riscv.cpu'...
Debug: 125 6 command.c:364 register_command_handler(): registering 'ocd_riscv.cpu'...
Debug: 126 6 command.c:364 register_command_handler(): registering 'ocd_riscv.cpu'...
Debug: 127 6 command.c:364 register_command_handler(): registering 'ocd_riscv.cpu'...
Debug: 128 6 command.c:364 register_command_handler(): registering 'ocd_riscv.cpu'...
Debug: 129 6 command.c:364 register_command_handler(): registering 'ocd_riscv.cpu'...
Debug: 130 6 command.c:364 register_command_handler(): registering 'ocd_riscv.cpu'...
Debug: 131 6 command.c:364 register_command_handler(): registering 'ocd_riscv.cpu'...
Debug: 132 6 command.c:364 register_command_handler(): registering 'ocd_riscv.cpu'...
Debug: 133 6 command.c:364 register_command_handler(): registering 'ocd_riscv.cpu'...
Debug: 134 6 command.c:364 register_command_handler(): registering 'ocd_riscv.cpu'...
Debug: 135 6 command.c:364 register_command_handler(): registering 'ocd_riscv.cpu'...
Debug: 136 6 command.c:364 register_command_handler(): registering 'ocd_riscv.cpu'...
Debug: 137 6 command.c:364 register_command_handler(): registering 'ocd_riscv.cpu'...
Debug: 138 6 command.c:364 register_command_handler(): registering 'ocd_riscv.cpu'...
Debug: 139 6 command.c:364 register_command_handler(): registering 'ocd_riscv.cpu'...
Debug: 140 6 command.c:364 register_command_handler(): registering 'ocd_riscv.cpu'...
Debug: 141 6 command.c:364 register_command_handler(): registering 'ocd_riscv.cpu'...
Debug: 142 6 command.c:364 register_command_handler(): registering 'ocd_riscv.cpu'...
Debug: 143 6 command.c:364 register_command_handler(): registering 'ocd_riscv.cpu'...
Debug: 144 6 command.c:364 register_command_handler(): registering 'ocd_riscv.cpu'...
Debug: 145 6 command.c:364 register_command_handler(): registering 'ocd_riscv.cpu'...
Debug: 146 6 command.c:364 register_command_handler(): registering 'ocd_riscv.cpu'...
Debug: 147 6 command.c:364 register_command_handler(): registering 'ocd_riscv.cpu'...
Debug: 148 6 command.c:364 register_command_handler(): registering 'ocd_riscv.cpu'...
Debug: 149 6 command.c:364 register_command_handler(): registering 'ocd_riscv.cpu'...
Debug: 150 6 command.c:364 register_command_handler(): registering 'ocd_riscv.cpu'...
Debug: 151 6 command.c:364 register_command_handler(): registering 'ocd_riscv.cpu'...
Debug: 152 6 command.c:364 register_command_handler(): registering 'ocd_riscv.cpu'...
Debug: 153 6 command.c:364 register_command_handler(): registering 'ocd_riscv.cpu'...
Debug: 154 6 command.c:364 register_command_handler(): registering 'ocd_riscv.cpu'...
Debug: 155 6 command.c:364 register_command_handler(): registering 'ocd_riscv.cpu'...
Debug: 156 6 command.c:364 register_command_handler(): registering 'ocd_riscv.cpu'...
Debug: 157 6 command.c:143 script_debug(): command - ocd_command ocd_command type ocd_gdb_report_data_abort enable
Debug: 158 7 command.c:143 script_debug(): command - gdb_report_data_abort ocd_gdb_report_data_abort enable
Debug: 160 7 command.c:143 script_debug(): command - ocd_command ocd_command type ocd_gdb_report_register_access_error enable
Debug: 161 7 command.c:143 script_debug(): command - gdb_report_register_access_error ocd_gdb_report_register_access_error enable
Debug: 163 7 command.c:143 script_debug(): command - ocd_command ocd_command type ocd_riscv set_reset_timeout_sec 120
Debug: 164 7 command.c:143 script_debug(): command - ocd_riscv ocd_riscv set_reset_timeout_sec 120
Debug: 166 7 command.c:143 script_debug(): command - ocd_command ocd_command type ocd_riscv set_command_timeout_sec 120
Debug: 167 7 command.c:143 script_debug(): command - ocd_riscv ocd_riscv set_command_timeout_sec 120
Debug: 169 7 command.c:143 script_debug(): command - ocd_command ocd_command type ocd_riscv set_prefer_sba on
Debug: 170 7 command.c:143 script_debug(): command - ocd_riscv ocd_riscv set_prefer_sba on
Debug: 172 7 command.c:143 script_debug(): command - ocd_command ocd_command type ocd_scan_chain
Debug: 173 7 command.c:143 script_debug(): command - scan_chain ocd_scan_chain
User : 175 7 command.c:544 command_print():    TapName             Enabled  IdCode     Expected   IrLen IrCap IrMask
User : 176 7 command.c:544 command_print(): -- ------------------- -------- ---------- ---------- ----- ----- ------
User : 177 7 command.c:544 command_print():  0 riscv.unknown0         Y     0x00000000 0x5fffedb3     5 0x01  0x03
User : 178 7 command.c:544 command_print():  1 riscv.cpu              Y     0x00000000 0x50001db3     5 0x01  0x03
Debug: 179 7 command.c:143 script_debug(): command - ocd_command ocd_command type ocd_init
Debug: 180 7 command.c:143 script_debug(): command - init ocd_init
Debug: 182 7 command.c:143 script_debug(): command - ocd_command ocd_command type ocd_target init
Debug: 183 7 command.c:143 script_debug(): command - ocd_target ocd_target init
Debug: 185 7 command.c:143 script_debug(): command - ocd_command ocd_command type ocd_target names
Debug: 186 7 command.c:143 script_debug(): command - ocd_target ocd_target names
Debug: 187 7 command.c:143 script_debug(): command - ocd_command ocd_command type ocd_riscv.cpu cget -event gdb-flash-erase-start
Debug: 188 7 command.c:143 script_debug(): command - ocd_riscv.cpu ocd_riscv.cpu cget -event gdb-flash-erase-start
Debug: 189 7 command.c:143 script_debug(): command - ocd_command ocd_command type ocd_riscv.cpu configure -event gdb-flash-erase-start reset init
Debug: 190 7 command.c:143 script_debug(): command - ocd_riscv.cpu ocd_riscv.cpu configure -event gdb-flash-erase-start reset init
Debug: 191 7 command.c:143 script_debug(): command - ocd_command ocd_command type ocd_riscv.cpu cget -event gdb-flash-write-end
Debug: 192 7 command.c:143 script_debug(): command - ocd_riscv.cpu ocd_riscv.cpu cget -event gdb-flash-write-end
Debug: 193 7 command.c:143 script_debug(): command - ocd_command ocd_command type ocd_riscv.cpu configure -event gdb-flash-write-end reset halt
Debug: 194 7 command.c:143 script_debug(): command - ocd_riscv.cpu ocd_riscv.cpu configure -event gdb-flash-write-end reset halt
Debug: 195 8 command.c:143 script_debug(): command - ocd_command ocd_command type ocd_riscv.cpu cget -event gdb-attach
Debug: 196 8 command.c:143 script_debug(): command - ocd_riscv.cpu ocd_riscv.cpu cget -event gdb-attach
Debug: 197 8 command.c:143 script_debug(): command - ocd_command ocd_command type ocd_riscv.cpu configure -event gdb-attach halt
Debug: 198 8 command.c:143 script_debug(): command - ocd_riscv.cpu ocd_riscv.cpu configure -event gdb-attach halt
Debug: 199 8 target.c:1421 handle_target_init_command(): Initializing targets...
Debug: 200 8 riscv.c:384 riscv_init_target(): riscv_init_target()
Debug: 201 32 semihosting_common.c:97 semihosting_common_init():  
Debug: 202 32 command.c:364 register_command_handler(): registering 'ocd_target_request'...
Debug: 203 32 command.c:364 register_command_handler(): registering 'ocd_trace'...
Debug: 204 32 command.c:364 register_command_handler(): registering 'ocd_trace'...
Debug: 205 32 command.c:364 register_command_handler(): registering 'ocd_fast_load_image'...
Debug: 206 32 command.c:364 register_command_handler(): registering 'ocd_fast_load'...
Debug: 207 32 command.c:364 register_command_handler(): registering 'ocd_profile'...
Debug: 208 32 command.c:364 register_command_handler(): registering 'ocd_virt2phys'...
Debug: 209 32 command.c:364 register_command_handler(): registering 'ocd_reg'...
Debug: 210 32 command.c:364 register_command_handler(): registering 'ocd_poll'...
Debug: 211 32 command.c:364 register_command_handler(): registering 'ocd_wait_halt'...
Debug: 212 32 command.c:364 register_command_handler(): registering 'ocd_halt'...
Debug: 213 32 command.c:364 register_command_handler(): registering 'ocd_resume'...
Debug: 214 32 command.c:364 register_command_handler(): registering 'ocd_reset'...
Debug: 215 32 command.c:364 register_command_handler(): registering 'ocd_soft_reset_halt'...
Debug: 216 32 command.c:364 register_command_handler(): registering 'ocd_step'...
Debug: 217 32 command.c:364 register_command_handler(): registering 'ocd_mdd'...
Debug: 218 32 command.c:364 register_command_handler(): registering 'ocd_mdw'...
Debug: 219 32 command.c:364 register_command_handler(): registering 'ocd_mdh'...
Debug: 220 32 command.c:364 register_command_handler(): registering 'ocd_mdb'...
Debug: 221 32 command.c:364 register_command_handler(): registering 'ocd_mwd'...
Debug: 222 32 command.c:364 register_command_handler(): registering 'ocd_mww'...
Debug: 223 32 command.c:364 register_command_handler(): registering 'ocd_mwh'...
Debug: 224 32 command.c:364 register_command_handler(): registering 'ocd_mwb'...
Debug: 225 32 command.c:364 register_command_handler(): registering 'ocd_bp'...
Debug: 226 32 command.c:364 register_command_handler(): registering 'ocd_rbp'...
Debug: 227 32 command.c:364 register_command_handler(): registering 'ocd_wp'...
Debug: 228 32 command.c:364 register_command_handler(): registering 'ocd_rwp'...
Debug: 229 32 command.c:364 register_command_handler(): registering 'ocd_load_image'...
Debug: 230 32 command.c:364 register_command_handler(): registering 'ocd_dump_image'...
Debug: 231 32 command.c:364 register_command_handler(): registering 'ocd_verify_image_checksum'...
Debug: 232 32 command.c:364 register_command_handler(): registering 'ocd_verify_image'...
Debug: 233 32 command.c:364 register_command_handler(): registering 'ocd_test_image'...
Debug: 234 32 command.c:364 register_command_handler(): registering 'ocd_reset_nag'...
Debug: 235 32 command.c:364 register_command_handler(): registering 'ocd_ps'...
Debug: 236 32 command.c:364 register_command_handler(): registering 'ocd_test_mem_access'...
Debug: 237 32 ftdi.c:730 ftdi_initialize(): ftdi interface using shortest path jtag state transitions
Debug: 238 37 mpsse.c:429 mpsse_purge(): -
Debug: 239 38 mpsse.c:710 mpsse_loopback_config(): off
Debug: 240 38 mpsse.c:755 mpsse_set_frequency(): target 1000000 Hz
Debug: 241 38 mpsse.c:747 mpsse_rtck_config(): off
Debug: 242 38 mpsse.c:736 mpsse_divide_by_5_config(): off
Debug: 243 38 mpsse.c:716 mpsse_set_divisor(): 29
Debug: 244 38 mpsse.c:779 mpsse_set_frequency(): actually 1000000 Hz
Debug: 245 38 core.c:1612 adapter_khz_to_speed(): convert khz to interface specific speed value
Debug: 246 38 core.c:1615 adapter_khz_to_speed(): have interface set up
Debug: 247 38 mpsse.c:755 mpsse_set_frequency(): target 1000000 Hz
Debug: 248 38 mpsse.c:747 mpsse_rtck_config(): off
Debug: 249 38 mpsse.c:736 mpsse_divide_by_5_config(): off
Debug: 250 38 mpsse.c:716 mpsse_set_divisor(): 29
Debug: 251 38 mpsse.c:779 mpsse_set_frequency(): actually 1000000 Hz
Debug: 252 38 core.c:1612 adapter_khz_to_speed(): convert khz to interface specific speed value
Debug: 253 38 core.c:1615 adapter_khz_to_speed(): have interface set up
Info : 254 38 core.c:1394 adapter_init(): clock speed 1000 kHz
Debug: 255 38 openocd.c:142 handle_init_command(): Debug Adapter init complete
Debug: 256 38 command.c:143 script_debug(): command - ocd_command ocd_command type ocd_transport init
Debug: 257 38 command.c:143 script_debug(): command - ocd_transport ocd_transport init
Debug: 259 38 transport.c:239 handle_transport_init(): handle_transport_init
Debug: 260 38 core.c:729 jtag_add_reset(): SRST line released
Debug: 261 38 core.c:753 jtag_add_reset(): TRST line released
Debug: 262 38 core.c:327 jtag_call_event_callbacks(): jtag event: TAP reset
Debug: 263 38 command.c:143 script_debug(): command - ocd_command ocd_command type ocd_jtag arp_init
Debug: 264 38 command.c:143 script_debug(): command - ocd_jtag ocd_jtag arp_init
Debug: 265 38 core.c:1407 jtag_init_inner(): Init JTAG chain
Debug: 266 38 core.c:327 jtag_call_event_callbacks(): jtag event: TAP reset
Debug: 267 39 core.c:1060 jtag_examine_chain(): DR scan interrogation for IDCODE/BYPASS
Debug: 268 39 core.c:327 jtag_call_event_callbacks(): jtag event: TAP reset
Info : 269 40 core.c:959 jtag_examine_chain_display(): JTAG tap: riscv.unknown0 tap/device found: 0x5fffedb3 (mfg: 0x6d9 (<unknown>), part: 0xfffe, ver: 0x5)
Info : 270 40 core.c:959 jtag_examine_chain_display(): JTAG tap: riscv.cpu tap/device found: 0x50001db3 (mfg: 0x6d9 (<unknown>), part: 0x0001, ver: 0x5)
Debug: 271 40 core.c:1190 jtag_validate_ircapture(): IR capture validation scan
Debug: 272 40 core.c:1247 jtag_validate_ircapture(): riscv.unknown0: IR capture 0x05
Debug: 273 40 core.c:1247 jtag_validate_ircapture(): riscv.cpu: IR capture 0x05
Debug: 274 40 command.c:143 script_debug(): command - ocd_command ocd_command type ocd_dap init
Debug: 275 40 command.c:143 script_debug(): command - ocd_dap ocd_dap init
Debug: 277 40 arm_dap.c:105 dap_init_all(): Initializing all DAPs ...
Debug: 278 40 openocd.c:159 handle_init_command(): Examining targets...
Debug: 279 40 target.c:1607 target_call_event_callbacks(): target event 17 (examine-start) for core 992
Debug: 280 40 riscv.c:916 riscv_examine(): riscv_examine()
Debug: 281 40 riscv.c:356 dtmcontrol_scan(): DTMCONTROL: 0x0 -> 0x1071
Debug: 282 40 riscv.c:926 riscv_examine(): dtmcontrol=0x1071
Debug: 283 40 riscv.c:928 riscv_examine():   version=0x1
Debug: 284 40 riscv-013.c:1701 init_target(): init
Debug: 285 41 riscv-013.c:448 dtmcontrol_scan(): DTMCS: 0x0 -> 0x1071
Debug: 286 41 riscv-013.c:1447 examine(): dtmcontrol=0x1071
Debug: 287 41 riscv-013.c:1448 examine():   dmireset=0
Debug: 288 41 riscv-013.c:1449 examine():   idle=1
Debug: 289 41 riscv-013.c:1450 examine():   dmistat=0
Debug: 290 41 riscv-013.c:1451 examine():   abits=7
Debug: 291 41 riscv-013.c:1452 examine():   version=1
Debug: 292 41 riscv-013.c:259 get_dm(): [992] Allocating new DM
Debug: 293 41 riscv-013.c:393 scan(): 41b 0i w 00000000 @10 -> + 00000000 @00
Debug: 294 41 riscv-013.c:393 scan(): 41b 0i - 00000000 @10 -> + 00000000 @10
Debug: 295 41 riscv-013.c:393 scan(): 41b 0i w 00000001 @10 -> + 00000000 @10
Debug: 296 41 riscv-013.c:404 scan():  dmactive -> 
Debug: 297 41 riscv-013.c:393 scan(): 41b 0i - 00000000 @10 -> + 00000001 @10
Debug: 298 41 riscv-013.c:404 scan():  ->  dmactive
Debug: 299 42 riscv-013.c:393 scan(): 41b 0i w 07ffffc1 @10 -> + 00000000 @10
Debug: 300 42 riscv-013.c:404 scan():  hasel hartselhi=1023 hartsello=1023 dmactive -> 
Debug: 301 42 riscv-013.c:393 scan(): 41b 0i - 00000000 @10 -> + 07ffffc1 @10
Debug: 302 42 riscv-013.c:404 scan():  ->  hasel hartselhi=1023 hartsello=1023 dmactive
Debug: 303 42 riscv-013.c:393 scan(): 41b 0i r 00000000 @10 -> + 00000000 @10
Debug: 304 42 riscv-013.c:393 scan(): 41b 0i - 00000000 @10 -> b 00000000 @10
Debug: 305 42 riscv-013.c:457 increase_dmi_busy_delay(): dtmcs_idle=1, dmi_busy_delay=1, ac_busy_delay=0
Debug: 306 42 riscv-013.c:448 dtmcontrol_scan(): DTMCS: 0x10000 -> 0x1c71
Debug: 307 43 riscv-013.c:393 scan(): 41b 1i - 00000000 @10 -> + 03ffffc1 @10
Debug: 308 43 riscv-013.c:404 scan():  ->  hartselhi=1023 hartsello=1023 dmactive
Debug: 309 43 riscv-013.c:393 scan(): 41b 1i r 00000000 @11 -> + 00000000 @10
Debug: 310 43 riscv-013.c:393 scan(): 41b 1i - 00000000 @11 -> b 00000000 @11
Debug: 311 43 riscv-013.c:457 increase_dmi_busy_delay(): dtmcs_idle=1, dmi_busy_delay=2, ac_busy_delay=0
Debug: 312 43 riscv-013.c:448 dtmcontrol_scan(): DTMCS: 0x10000 -> 0x1c71
Debug: 313 44 riscv-013.c:393 scan(): 41b 2i - 00000000 @11 -> + 0000f082 @11
Debug: 314 44 riscv-013.c:404 scan():  ->  allnonexistent anynonexistent allunavail anyunavail authenticated version=2
Debug: 315 44 riscv-013.c:1495 examine(): dmstatus:  0x0000f082
Debug: 316 44 riscv-013.c:1511 examine(): hartsellen=20
Debug: 317 44 riscv-013.c:393 scan(): 41b 2i r 00000000 @12 -> + 00000000 @11
Debug: 318 44 riscv-013.c:393 scan(): 41b 2i - 00000000 @12 -> b 00000000 @12
Debug: 319 44 riscv-013.c:457 increase_dmi_busy_delay(): dtmcs_idle=1, dmi_busy_delay=3, ac_busy_delay=0
Debug: 320 44 riscv-013.c:448 dtmcontrol_scan(): DTMCS: 0x10000 -> 0x1c71
Debug: 321 45 riscv-013.c:393 scan(): 41b 3i - 00000000 @12 -> + 00212380 @12
Debug: 322 45 riscv-013.c:393 scan(): 41b 3i r 00000000 @38 -> + 00000000 @12
Debug: 323 45 riscv-013.c:393 scan(): 41b 3i - 00000000 @38 -> b 00000000 @38
Debug: 324 45 riscv-013.c:457 increase_dmi_busy_delay(): dtmcs_idle=1, dmi_busy_delay=4, ac_busy_delay=0
Debug: 325 45 riscv-013.c:448 dtmcontrol_scan(): DTMCS: 0x10000 -> 0x1c71
Debug: 326 46 riscv-013.c:393 scan(): 41b 4i - 00000000 @38 -> + 20040407 @38
Debug: 327 46 riscv-013.c:404 scan():  ->  sbversion=1 sbaccess=2 sbasize=32 sbaccess32 sbaccess16 sbaccess8
Debug: 328 46 riscv-013.c:393 scan(): 41b 4i r 00000000 @16 -> + 00000000 @38
Debug: 329 46 riscv-013.c:393 scan(): 41b 4i - 00000000 @16 -> + 08000002 @16
Debug: 330 46 riscv-013.c:404 scan():  ->  progbufsize=8 datacount=2
Info : 331 46 riscv-013.c:1542 examine(): datacount=2 progbufsize=8
Debug: 332 46 riscv-013.c:393 scan(): 41b 4i r 00000000 @10 -> + 00000000 @16
Debug: 333 47 riscv-013.c:393 scan(): 41b 4i - 00000000 @10 -> + 03ffffc1 @10
Debug: 334 47 riscv-013.c:404 scan():  ->  hartselhi=1023 hartsello=1023 dmactive
Debug: 335 47 riscv-013.c:393 scan(): 41b 4i w 00000001 @10 -> + 00000000 @10
Debug: 336 47 riscv-013.c:404 scan():  dmactive -> 
Debug: 337 47 riscv-013.c:393 scan(): 41b 4i - 00000000 @10 -> + 00000001 @10
Debug: 338 47 riscv-013.c:404 scan():  ->  dmactive
Debug: 339 48 riscv-013.c:393 scan(): 41b 4i r 00000000 @11 -> + 00000000 @10
Debug: 340 48 riscv-013.c:393 scan(): 41b 4i - 00000000 @11 -> + 00000c82 @11
Debug: 341 48 riscv-013.c:404 scan():  ->  allrunning anyrunning authenticated version=2
Debug: 342 48 riscv-013.c:393 scan(): 41b 4i r 00000000 @10 -> + 00000000 @11
Debug: 343 48 riscv-013.c:393 scan(): 41b 4i - 00000000 @10 -> + 00000001 @10
Debug: 344 48 riscv-013.c:404 scan():  ->  dmactive
Debug: 345 49 riscv-013.c:393 scan(): 41b 4i w 00010001 @10 -> + 00000000 @10
Debug: 346 49 riscv-013.c:404 scan():  hartsello=1 dmactive -> 
Debug: 347 49 riscv-013.c:393 scan(): 41b 4i - 00000000 @10 -> + 00010001 @10
Debug: 348 49 riscv-013.c:404 scan():  ->  hartsello=1 dmactive
Debug: 349 49 riscv-013.c:393 scan(): 41b 4i r 00000000 @11 -> + 00000000 @10
Debug: 350 49 riscv-013.c:393 scan(): 41b 4i - 00000000 @11 -> + 00000c82 @11
Debug: 351 49 riscv-013.c:404 scan():  ->  allrunning anyrunning authenticated version=2
Debug: 352 50 riscv-013.c:393 scan(): 41b 4i r 00000000 @10 -> + 00000000 @11
Debug: 353 50 riscv-013.c:393 scan(): 41b 4i - 00000000 @10 -> + 00010001 @10
Debug: 354 50 riscv-013.c:404 scan():  ->  hartsello=1 dmactive
Debug: 355 50 riscv-013.c:393 scan(): 41b 4i w 00020001 @10 -> + 00000000 @10
Debug: 356 50 riscv-013.c:404 scan():  hartsello=2 dmactive -> 
Debug: 357 50 riscv-013.c:393 scan(): 41b 4i - 00000000 @10 -> + 00020001 @10
Debug: 358 50 riscv-013.c:404 scan():  ->  hartsello=2 dmactive
Debug: 359 51 riscv-013.c:393 scan(): 41b 4i r 00000000 @11 -> + 00000000 @10
Debug: 360 51 riscv-013.c:393 scan(): 41b 4i - 00000000 @11 -> + 00000c82 @11
Debug: 361 51 riscv-013.c:404 scan():  ->  allrunning anyrunning authenticated version=2
Debug: 362 51 riscv-013.c:393 scan(): 41b 4i r 00000000 @10 -> + 00000000 @11
Debug: 363 52 riscv-013.c:393 scan(): 41b 4i - 00000000 @10 -> + 00020001 @10
Debug: 364 52 riscv-013.c:404 scan():  ->  hartsello=2 dmactive
Debug: 365 52 riscv-013.c:393 scan(): 41b 4i w 00030001 @10 -> + 00000000 @10
Debug: 366 52 riscv-013.c:404 scan():  hartsello=3 dmactive -> 
Debug: 367 52 riscv-013.c:393 scan(): 41b 4i - 00000000 @10 -> + 00030001 @10
Debug: 368 52 riscv-013.c:404 scan():  ->  hartsello=3 dmactive
Debug: 369 52 riscv-013.c:393 scan(): 41b 4i r 00000000 @11 -> + 00000000 @10
Debug: 370 53 riscv-013.c:393 scan(): 41b 4i - 00000000 @11 -> + 00000c82 @11
Debug: 371 53 riscv-013.c:404 scan():  ->  allrunning anyrunning authenticated version=2
Debug: 372 53 riscv-013.c:393 scan(): 41b 4i r 00000000 @10 -> + 00000000 @11
Debug: 373 53 riscv-013.c:393 scan(): 41b 4i - 00000000 @10 -> + 00030001 @10
Debug: 374 53 riscv-013.c:404 scan():  ->  hartsello=3 dmactive
Debug: 375 53 riscv-013.c:393 scan(): 41b 4i w 00040001 @10 -> + 00000000 @10
Debug: 376 54 riscv-013.c:404 scan():  hartsello=4 dmactive -> 
Debug: 377 54 riscv-013.c:393 scan(): 41b 4i - 00000000 @10 -> + 00040001 @10
Debug: 378 54 riscv-013.c:404 scan():  ->  hartsello=4 dmactive
Debug: 379 54 riscv-013.c:393 scan(): 41b 4i r 00000000 @11 -> + 00000000 @10
Debug: 380 54 riscv-013.c:393 scan(): 41b 4i - 00000000 @11 -> + 00000c82 @11
Debug: 381 54 riscv-013.c:404 scan():  ->  allrunning anyrunning authenticated version=2
Debug: 382 55 riscv-013.c:393 scan(): 41b 4i r 00000000 @10 -> + 00000000 @11
Debug: 383 55 riscv-013.c:393 scan(): 41b 4i - 00000000 @10 -> + 00040001 @10
Debug: 384 55 riscv-013.c:404 scan():  ->  hartsello=4 dmactive
Debug: 385 55 riscv-013.c:393 scan(): 41b 4i w 00050001 @10 -> + 00000000 @10
Debug: 386 55 riscv-013.c:404 scan():  hartsello=5 dmactive -> 
Debug: 387 55 riscv-013.c:393 scan(): 41b 4i - 00000000 @10 -> + 00050001 @10
Debug: 388 55 riscv-013.c:404 scan():  ->  hartsello=5 dmactive
Debug: 389 56 riscv-013.c:393 scan(): 41b 4i r 00000000 @11 -> + 00000000 @10
Debug: 390 56 riscv-013.c:393 scan(): 41b 4i - 00000000 @11 -> + 00000c82 @11
Debug: 391 56 riscv-013.c:404 scan():  ->  allrunning anyrunning authenticated version=2
Debug: 392 56 riscv-013.c:393 scan(): 41b 4i r 00000000 @10 -> + 00000000 @11
Debug: 393 56 riscv-013.c:393 scan(): 41b 4i - 00000000 @10 -> + 00050001 @10
Debug: 394 56 riscv-013.c:404 scan():  ->  hartsello=5 dmactive
Debug: 395 57 riscv-013.c:393 scan(): 41b 4i w 00060001 @10 -> + 00000000 @10
Debug: 396 57 riscv-013.c:404 scan():  hartsello=6 dmactive -> 
Debug: 397 57 riscv-013.c:393 scan(): 41b 4i - 00000000 @10 -> + 00060001 @10
Debug: 398 57 riscv-013.c:404 scan():  ->  hartsello=6 dmactive
Debug: 399 57 riscv-013.c:393 scan(): 41b 4i r 00000000 @11 -> + 00000000 @10
Debug: 400 57 riscv-013.c:393 scan(): 41b 4i - 00000000 @11 -> + 00000c82 @11
Debug: 401 57 riscv-013.c:404 scan():  ->  allrunning anyrunning authenticated version=2
Debug: 402 58 riscv-013.c:393 scan(): 41b 4i r 00000000 @10 -> + 00000000 @11
Debug: 403 58 riscv-013.c:393 scan(): 41b 4i - 00000000 @10 -> + 00060001 @10
Debug: 404 58 riscv-013.c:404 scan():  ->  hartsello=6 dmactive
Debug: 405 58 riscv-013.c:393 scan(): 41b 4i w 00070001 @10 -> + 00000000 @10
Debug: 406 58 riscv-013.c:404 scan():  hartsello=7 dmactive -> 
Debug: 407 58 riscv-013.c:393 scan(): 41b 4i - 00000000 @10 -> + 00070001 @10
Debug: 408 58 riscv-013.c:404 scan():  ->  hartsello=7 dmactive
Debug: 409 59 riscv-013.c:393 scan(): 41b 4i r 00000000 @11 -> + 00000000 @10
Debug: 410 59 riscv-013.c:393 scan(): 41b 4i - 00000000 @11 -> + 00000c82 @11
Debug: 411 59 riscv-013.c:404 scan():  ->  allrunning anyrunning authenticated version=2
Debug: 412 59 riscv-013.c:393 scan(): 41b 4i r 00000000 @10 -> + 00000000 @11
Debug: 413 60 riscv-013.c:393 scan(): 41b 4i - 00000000 @10 -> + 00070001 @10
Debug: 414 60 riscv-013.c:404 scan():  ->  hartsello=7 dmactive
Debug: 415 60 riscv-013.c:393 scan(): 41b 4i w 00080001 @10 -> + 00000000 @10
Debug: 416 60 riscv-013.c:404 scan():  hartsello=8 dmactive -> 
Debug: 417 60 riscv-013.c:393 scan(): 41b 4i - 00000000 @10 -> + 00080001 @10
Debug: 418 60 riscv-013.c:404 scan():  ->  hartsello=8 dmactive
Debug: 419 61 riscv-013.c:393 scan(): 41b 4i r 00000000 @11 -> + 00000000 @10
Debug: 420 61 riscv-013.c:393 scan(): 41b 4i - 00000000 @11 -> + 00003082 @11
Debug: 421 61 riscv-013.c:404 scan():  ->  allunavail anyunavail authenticated version=2
Debug: 422 61 riscv-013.c:393 scan(): 41b 4i r 00000000 @10 -> + 00000000 @11
Debug: 423 61 riscv-013.c:393 scan(): 41b 4i - 00000000 @10 -> + 00080001 @10
Debug: 424 61 riscv-013.c:404 scan():  ->  hartsello=8 dmactive
Debug: 425 61 riscv-013.c:393 scan(): 41b 4i w 00090001 @10 -> + 00000000 @10
Debug: 426 62 riscv-013.c:404 scan():  hartsello=9 dmactive -> 
Debug: 427 62 riscv-013.c:393 scan(): 41b 4i - 00000000 @10 -> + 00090001 @10
Debug: 428 62 riscv-013.c:404 scan():  ->  hartsello=9 dmactive
Debug: 429 62 riscv-013.c:393 scan(): 41b 4i r 00000000 @11 -> + 00000000 @10
Debug: 430 62 riscv-013.c:393 scan(): 41b 4i - 00000000 @11 -> + 00003082 @11
Debug: 431 62 riscv-013.c:404 scan():  ->  allunavail anyunavail authenticated version=2
Debug: 432 63 riscv-013.c:393 scan(): 41b 4i r 00000000 @10 -> + 00000000 @11
Debug: 433 63 riscv-013.c:393 scan(): 41b 4i - 00000000 @10 -> + 00090001 @10
Debug: 434 63 riscv-013.c:404 scan():  ->  hartsello=9 dmactive
Debug: 435 63 riscv-013.c:393 scan(): 41b 4i w 000a0001 @10 -> + 00000000 @10
Debug: 436 63 riscv-013.c:404 scan():  hartsello=10 dmactive -> 
Debug: 437 64 riscv-013.c:393 scan(): 41b 4i - 00000000 @10 -> + 000a0001 @10
Debug: 438 64 riscv-013.c:404 scan():  ->  hartsello=10 dmactive
Debug: 439 64 riscv-013.c:393 scan(): 41b 4i r 00000000 @11 -> + 00000000 @10
Debug: 440 64 riscv-013.c:393 scan(): 41b 4i - 00000000 @11 -> + 00003082 @11
Debug: 441 64 riscv-013.c:404 scan():  ->  allunavail anyunavail authenticated version=2
Debug: 442 64 riscv-013.c:393 scan(): 41b 4i r 00000000 @10 -> + 00000000 @11
Debug: 443 65 riscv-013.c:393 scan(): 41b 4i - 00000000 @10 -> + 000a0001 @10
Debug: 444 65 riscv-013.c:404 scan():  ->  hartsello=10 dmactive
Debug: 445 65 riscv-013.c:393 scan(): 41b 4i w 000b0001 @10 -> + 00000000 @10
Debug: 446 65 riscv-013.c:404 scan():  hartsello=11 dmactive -> 
Debug: 447 65 riscv-013.c:393 scan(): 41b 4i - 00000000 @10 -> + 000b0001 @10
Debug: 448 65 riscv-013.c:404 scan():  ->  hartsello=11 dmactive
Debug: 449 65 riscv-013.c:393 scan(): 41b 4i r 00000000 @11 -> + 00000000 @10
Debug: 450 66 riscv-013.c:393 scan(): 41b 4i - 00000000 @11 -> + 00003082 @11
Debug: 451 66 riscv-013.c:404 scan():  ->  allunavail anyunavail authenticated version=2
Debug: 452 66 riscv-013.c:393 scan(): 41b 4i r 00000000 @10 -> + 00000000 @11
Debug: 453 66 riscv-013.c:393 scan(): 41b 4i - 00000000 @10 -> + 000b0001 @10
Debug: 454 66 riscv-013.c:404 scan():  ->  hartsello=11 dmactive
Debug: 455 67 riscv-013.c:393 scan(): 41b 4i w 000c0001 @10 -> + 00000000 @10
Debug: 456 67 riscv-013.c:404 scan():  hartsello=12 dmactive -> 
Debug: 457 67 riscv-013.c:393 scan(): 41b 4i - 00000000 @10 -> + 000c0001 @10
Debug: 458 67 riscv-013.c:404 scan():  ->  hartsello=12 dmactive
Debug: 459 67 riscv-013.c:393 scan(): 41b 4i r 00000000 @11 -> + 00000000 @10
Debug: 460 68 riscv-013.c:393 scan(): 41b 4i - 00000000 @11 -> + 00003082 @11
Debug: 461 68 riscv-013.c:404 scan():  ->  allunavail anyunavail authenticated version=2
Debug: 462 68 riscv-013.c:393 scan(): 41b 4i r 00000000 @10 -> + 00000000 @11
Debug: 463 68 riscv-013.c:393 scan(): 41b 4i - 00000000 @10 -> + 000c0001 @10
Debug: 464 68 riscv-013.c:404 scan():  ->  hartsello=12 dmactive
Debug: 465 69 riscv-013.c:393 scan(): 41b 4i w 000d0001 @10 -> + 00000000 @10
Debug: 466 69 riscv-013.c:404 scan():  hartsello=13 dmactive -> 
Debug: 467 69 riscv-013.c:393 scan(): 41b 4i - 00000000 @10 -> + 000d0001 @10
Debug: 468 69 riscv-013.c:404 scan():  ->  hartsello=13 dmactive
Debug: 469 69 riscv-013.c:393 scan(): 41b 4i r 00000000 @11 -> + 00000000 @10
Debug: 470 69 riscv-013.c:393 scan(): 41b 4i - 00000000 @11 -> + 00003082 @11
Debug: 471 69 riscv-013.c:404 scan():  ->  allunavail anyunavail authenticated version=2
Debug: 472 70 riscv-013.c:393 scan(): 41b 4i r 00000000 @10 -> + 00000000 @11
Debug: 473 70 riscv-013.c:393 scan(): 41b 4i - 00000000 @10 -> + 000d0001 @10
Debug: 474 70 riscv-013.c:404 scan():  ->  hartsello=13 dmactive
Debug: 475 70 riscv-013.c:393 scan(): 41b 4i w 000e0001 @10 -> + 00000000 @10
Debug: 476 70 riscv-013.c:404 scan():  hartsello=14 dmactive -> 
Debug: 477 71 riscv-013.c:393 scan(): 41b 4i - 00000000 @10 -> + 000e0001 @10
Debug: 478 71 riscv-013.c:404 scan():  ->  hartsello=14 dmactive
Debug: 479 71 riscv-013.c:393 scan(): 41b 4i r 00000000 @11 -> + 00000000 @10
Debug: 480 71 riscv-013.c:393 scan(): 41b 4i - 00000000 @11 -> + 00003082 @11
Debug: 481 71 riscv-013.c:404 scan():  ->  allunavail anyunavail authenticated version=2
Debug: 482 71 riscv-013.c:393 scan(): 41b 4i r 00000000 @10 -> + 00000000 @11
Debug: 483 72 riscv-013.c:393 scan(): 41b 4i - 00000000 @10 -> + 000e0001 @10
Debug: 484 72 riscv-013.c:404 scan():  ->  hartsello=14 dmactive
Debug: 485 72 riscv-013.c:393 scan(): 41b 4i w 000f0001 @10 -> + 00000000 @10
Debug: 486 72 riscv-013.c:404 scan():  hartsello=15 dmactive -> 
Debug: 487 72 riscv-013.c:393 scan(): 41b 4i - 00000000 @10 -> + 000f0001 @10
Debug: 488 72 riscv-013.c:404 scan():  ->  hartsello=15 dmactive
Debug: 489 72 riscv-013.c:393 scan(): 41b 4i r 00000000 @11 -> + 00000000 @10
Debug: 490 73 riscv-013.c:393 scan(): 41b 4i - 00000000 @11 -> + 00003082 @11
Debug: 491 73 riscv-013.c:404 scan():  ->  allunavail anyunavail authenticated version=2
Debug: 492 73 riscv-013.c:393 scan(): 41b 4i r 00000000 @10 -> + 00000000 @11
Debug: 493 73 riscv-013.c:393 scan(): 41b 4i - 00000000 @10 -> + 000f0001 @10
Debug: 494 73 riscv-013.c:404 scan():  ->  hartsello=15 dmactive
Debug: 495 74 riscv-013.c:393 scan(): 41b 4i w 00100001 @10 -> + 00000000 @10
Debug: 496 74 riscv-013.c:404 scan():  hartsello=16 dmactive -> 
Debug: 497 74 riscv-013.c:393 scan(): 41b 4i - 00000000 @10 -> + 00100001 @10
Debug: 498 74 riscv-013.c:404 scan():  ->  hartsello=16 dmactive
Debug: 499 74 riscv-013.c:393 scan(): 41b 4i r 00000000 @11 -> + 00000000 @10
Debug: 500 74 riscv-013.c:393 scan(): 41b 4i - 00000000 @11 -> + 00003082 @11
Debug: 501 74 riscv-013.c:404 scan():  ->  allunavail anyunavail authenticated version=2
Debug: 502 75 riscv-013.c:393 scan(): 41b 4i r 00000000 @10 -> + 00000000 @11
Debug: 503 75 riscv-013.c:393 scan(): 41b 4i - 00000000 @10 -> + 00100001 @10
Debug: 504 75 riscv-013.c:404 scan():  ->  hartsello=16 dmactive
Debug: 505 75 riscv-013.c:393 scan(): 41b 4i w 00110001 @10 -> + 00000000 @10
Debug: 506 75 riscv-013.c:404 scan():  hartsello=17 dmactive -> 
Debug: 507 76 riscv-013.c:393 scan(): 41b 4i - 00000000 @10 -> + 00110001 @10
Debug: 508 76 riscv-013.c:404 scan():  ->  hartsello=17 dmactive
Debug: 509 76 riscv-013.c:393 scan(): 41b 4i r 00000000 @11 -> + 00000000 @10
Debug: 510 76 riscv-013.c:393 scan(): 41b 4i - 00000000 @11 -> + 00003082 @11
Debug: 511 76 riscv-013.c:404 scan():  ->  allunavail anyunavail authenticated version=2
Debug: 512 76 riscv-013.c:393 scan(): 41b 4i r 00000000 @10 -> + 00000000 @11
Debug: 513 77 riscv-013.c:393 scan(): 41b 4i - 00000000 @10 -> + 00110001 @10
Debug: 514 77 riscv-013.c:404 scan():  ->  hartsello=17 dmactive
Debug: 515 77 riscv-013.c:393 scan(): 41b 4i w 00120001 @10 -> + 00000000 @10
Debug: 516 77 riscv-013.c:404 scan():  hartsello=18 dmactive -> 
Debug: 517 77 riscv-013.c:393 scan(): 41b 4i - 00000000 @10 -> + 00120001 @10
Debug: 518 77 riscv-013.c:404 scan():  ->  hartsello=18 dmactive
Debug: 519 77 riscv-013.c:393 scan(): 41b 4i r 00000000 @11 -> + 00000000 @10
Debug: 520 78 riscv-013.c:393 scan(): 41b 4i - 00000000 @11 -> + 00003082 @11
Debug: 521 78 riscv-013.c:404 scan():  ->  allunavail anyunavail authenticated version=2
Debug: 522 78 riscv-013.c:393 scan(): 41b 4i r 00000000 @10 -> + 00000000 @11
Debug: 523 78 riscv-013.c:393 scan(): 41b 4i - 00000000 @10 -> + 00120001 @10
Debug: 524 78 riscv-013.c:404 scan():  ->  hartsello=18 dmactive
Debug: 525 79 riscv-013.c:393 scan(): 41b 4i w 00130001 @10 -> + 00000000 @10
Debug: 526 79 riscv-013.c:404 scan():  hartsello=19 dmactive -> 
Debug: 527 79 riscv-013.c:393 scan(): 41b 4i - 00000000 @10 -> + 00130001 @10
Debug: 528 79 riscv-013.c:404 scan():  ->  hartsello=19 dmactive
Debug: 529 79 riscv-013.c:393 scan(): 41b 4i r 00000000 @11 -> + 00000000 @10
Debug: 530 79 riscv-013.c:393 scan(): 41b 4i - 00000000 @11 -> + 00003082 @11
Debug: 531 79 riscv-013.c:404 scan():  ->  allunavail anyunavail authenticated version=2
Debug: 532 79 riscv-013.c:393 scan(): 41b 4i r 00000000 @10 -> + 00000000 @11
Debug: 533 80 riscv-013.c:393 scan(): 41b 4i - 00000000 @10 -> + 00130001 @10
Debug: 534 80 riscv-013.c:404 scan():  ->  hartsello=19 dmactive
Debug: 535 80 riscv-013.c:393 scan(): 41b 4i w 00140001 @10 -> + 00000000 @10
Debug: 536 80 riscv-013.c:404 scan():  hartsello=20 dmactive -> 
Debug: 537 80 riscv-013.c:393 scan(): 41b 4i - 00000000 @10 -> + 00140001 @10
Debug: 538 80 riscv-013.c:404 scan():  ->  hartsello=20 dmactive
Debug: 539 80 riscv-013.c:393 scan(): 41b 4i r 00000000 @11 -> + 00000000 @10
Debug: 540 81 riscv-013.c:393 scan(): 41b 4i - 00000000 @11 -> + 00003082 @11
Debug: 541 81 riscv-013.c:404 scan():  ->  allunavail anyunavail authenticated version=2
Debug: 542 81 riscv-013.c:393 scan(): 41b 4i r 00000000 @10 -> + 00000000 @11
Debug: 543 81 riscv-013.c:393 scan(): 41b 4i - 00000000 @10 -> + 00140001 @10
Debug: 544 81 riscv-013.c:404 scan():  ->  hartsello=20 dmactive
Debug: 545 81 riscv-013.c:393 scan(): 41b 4i w 00150001 @10 -> + 00000000 @10
Debug: 546 82 riscv-013.c:404 scan():  hartsello=21 dmactive -> 
Debug: 547 82 riscv-013.c:393 scan(): 41b 4i - 00000000 @10 -> + 00150001 @10
Debug: 548 82 riscv-013.c:404 scan():  ->  hartsello=21 dmactive
Debug: 549 82 riscv-013.c:393 scan(): 41b 4i r 00000000 @11 -> + 00000000 @10
Debug: 550 82 riscv-013.c:393 scan(): 41b 4i - 00000000 @11 -> + 00003082 @11
Debug: 551 82 riscv-013.c:404 scan():  ->  allunavail anyunavail authenticated version=2
Debug: 552 82 riscv-013.c:393 scan(): 41b 4i r 00000000 @10 -> + 00000000 @11
Debug: 553 83 riscv-013.c:393 scan(): 41b 4i - 00000000 @10 -> + 00150001 @10
Debug: 554 83 riscv-013.c:404 scan():  ->  hartsello=21 dmactive
Debug: 555 83 riscv-013.c:393 scan(): 41b 4i w 00160001 @10 -> + 00000000 @10
Debug: 556 83 riscv-013.c:404 scan():  hartsello=22 dmactive -> 
Debug: 557 83 riscv-013.c:393 scan(): 41b 4i - 00000000 @10 -> + 00160001 @10
Debug: 558 83 riscv-013.c:404 scan():  ->  hartsello=22 dmactive
Debug: 559 84 riscv-013.c:393 scan(): 41b 4i r 00000000 @11 -> + 00000000 @10
Debug: 560 84 riscv-013.c:393 scan(): 41b 4i - 00000000 @11 -> + 00003082 @11
Debug: 561 84 riscv-013.c:404 scan():  ->  allunavail anyunavail authenticated version=2
Debug: 562 84 riscv-013.c:393 scan(): 41b 4i r 00000000 @10 -> + 00000000 @11
Debug: 563 84 riscv-013.c:393 scan(): 41b 4i - 00000000 @10 -> + 00160001 @10
Debug: 564 84 riscv-013.c:404 scan():  ->  hartsello=22 dmactive
Debug: 565 85 riscv-013.c:393 scan(): 41b 4i w 00170001 @10 -> + 00000000 @10
Debug: 566 85 riscv-013.c:404 scan():  hartsello=23 dmactive -> 
Debug: 567 85 riscv-013.c:393 scan(): 41b 4i - 00000000 @10 -> + 00170001 @10
Debug: 568 85 riscv-013.c:404 scan():  ->  hartsello=23 dmactive
Debug: 569 85 riscv-013.c:393 scan(): 41b 4i r 00000000 @11 -> + 00000000 @10
Debug: 570 85 riscv-013.c:393 scan(): 41b 4i - 00000000 @11 -> + 00003082 @11
Debug: 571 85 riscv-013.c:404 scan():  ->  allunavail anyunavail authenticated version=2
Debug: 572 86 riscv-013.c:393 scan(): 41b 4i r 00000000 @10 -> + 00000000 @11
Debug: 573 86 riscv-013.c:393 scan(): 41b 4i - 00000000 @10 -> + 00170001 @10
Debug: 574 86 riscv-013.c:404 scan():  ->  hartsello=23 dmactive
Debug: 575 86 riscv-013.c:393 scan(): 41b 4i w 00180001 @10 -> + 00000000 @10
Debug: 576 86 riscv-013.c:404 scan():  hartsello=24 dmactive -> 
Debug: 577 86 riscv-013.c:393 scan(): 41b 4i - 00000000 @10 -> + 00180001 @10
Debug: 578 86 riscv-013.c:404 scan():  ->  hartsello=24 dmactive
Debug: 579 86 riscv-013.c:393 scan(): 41b 4i r 00000000 @11 -> + 00000000 @10
Debug: 580 87 riscv-013.c:393 scan(): 41b 4i - 00000000 @11 -> + 00003082 @11
Debug: 581 87 riscv-013.c:404 scan():  ->  allunavail anyunavail authenticated version=2
Debug: 582 87 riscv-013.c:393 scan(): 41b 4i r 00000000 @10 -> + 00000000 @11
Debug: 583 87 riscv-013.c:393 scan(): 41b 4i - 00000000 @10 -> + 00180001 @10
Debug: 584 87 riscv-013.c:404 scan():  ->  hartsello=24 dmactive
Debug: 585 88 riscv-013.c:393 scan(): 41b 4i w 00190001 @10 -> + 00000000 @10
Debug: 586 88 riscv-013.c:404 scan():  hartsello=25 dmactive -> 
Debug: 587 88 riscv-013.c:393 scan(): 41b 4i - 00000000 @10 -> + 00190001 @10
Debug: 588 88 riscv-013.c:404 scan():  ->  hartsello=25 dmactive
Debug: 589 88 riscv-013.c:393 scan(): 41b 4i r 00000000 @11 -> + 00000000 @10
Debug: 590 89 riscv-013.c:393 scan(): 41b 4i - 00000000 @11 -> + 00003082 @11
Debug: 591 89 riscv-013.c:404 scan():  ->  allunavail anyunavail authenticated version=2
Debug: 592 89 riscv-013.c:393 scan(): 41b 4i r 00000000 @10 -> + 00000000 @11
Debug: 593 89 riscv-013.c:393 scan(): 41b 4i - 00000000 @10 -> + 00190001 @10
Debug: 594 89 riscv-013.c:404 scan():  ->  hartsello=25 dmactive
Debug: 595 89 riscv-013.c:393 scan(): 41b 4i w 001a0001 @10 -> + 00000000 @10
Debug: 596 89 riscv-013.c:404 scan():  hartsello=26 dmactive -> 
Debug: 597 90 riscv-013.c:393 scan(): 41b 4i - 00000000 @10 -> + 001a0001 @10
Debug: 598 90 riscv-013.c:404 scan():  ->  hartsello=26 dmactive
Debug: 599 90 riscv-013.c:393 scan(): 41b 4i r 00000000 @11 -> + 00000000 @10
Debug: 600 90 riscv-013.c:393 scan(): 41b 4i - 00000000 @11 -> + 00003082 @11
Debug: 601 90 riscv-013.c:404 scan():  ->  allunavail anyunavail authenticated version=2
Debug: 602 90 riscv-013.c:393 scan(): 41b 4i r 00000000 @10 -> + 00000000 @11
Debug: 603 91 riscv-013.c:393 scan(): 41b 4i - 00000000 @10 -> + 001a0001 @10
Debug: 604 91 riscv-013.c:404 scan():  ->  hartsello=26 dmactive
Debug: 605 91 riscv-013.c:393 scan(): 41b 4i w 001b0001 @10 -> + 00000000 @10
Debug: 606 91 riscv-013.c:404 scan():  hartsello=27 dmactive -> 
Debug: 607 91 riscv-013.c:393 scan(): 41b 4i - 00000000 @10 -> + 001b0001 @10
Debug: 608 91 riscv-013.c:404 scan():  ->  hartsello=27 dmactive
Debug: 609 92 riscv-013.c:393 scan(): 41b 4i r 00000000 @11 -> + 00000000 @10
Debug: 610 92 riscv-013.c:393 scan(): 41b 4i - 00000000 @11 -> + 00003082 @11
Debug: 611 92 riscv-013.c:404 scan():  ->  allunavail anyunavail authenticated version=2
Debug: 612 92 riscv-013.c:393 scan(): 41b 4i r 00000000 @10 -> + 00000000 @11
Debug: 613 93 riscv-013.c:393 scan(): 41b 4i - 00000000 @10 -> + 001b0001 @10
Debug: 614 93 riscv-013.c:404 scan():  ->  hartsello=27 dmactive
Debug: 615 93 riscv-013.c:393 scan(): 41b 4i w 001c0001 @10 -> + 00000000 @10
Debug: 616 93 riscv-013.c:404 scan():  hartsello=28 dmactive -> 
Debug: 617 93 riscv-013.c:393 scan(): 41b 4i - 00000000 @10 -> + 001c0001 @10
Debug: 618 93 riscv-013.c:404 scan():  ->  hartsello=28 dmactive
Debug: 619 93 riscv-013.c:393 scan(): 41b 4i r 00000000 @11 -> + 00000000 @10
Debug: 620 94 riscv-013.c:393 scan(): 41b 4i - 00000000 @11 -> + 00003082 @11
Debug: 621 94 riscv-013.c:404 scan():  ->  allunavail anyunavail authenticated version=2
Debug: 622 94 riscv-013.c:393 scan(): 41b 4i r 00000000 @10 -> + 00000000 @11
Debug: 623 94 riscv-013.c:393 scan(): 41b 4i - 00000000 @10 -> + 001c0001 @10
Debug: 624 94 riscv-013.c:404 scan():  ->  hartsello=28 dmactive
Debug: 625 94 riscv-013.c:393 scan(): 41b 4i w 001d0001 @10 -> + 00000000 @10
Debug: 626 94 riscv-013.c:404 scan():  hartsello=29 dmactive -> 
Debug: 627 95 riscv-013.c:393 scan(): 41b 4i - 00000000 @10 -> + 001d0001 @10
Debug: 628 95 riscv-013.c:404 scan():  ->  hartsello=29 dmactive
Debug: 629 95 riscv-013.c:393 scan(): 41b 4i r 00000000 @11 -> + 00000000 @10
Debug: 630 95 riscv-013.c:393 scan(): 41b 4i - 00000000 @11 -> + 00003082 @11
Debug: 631 95 riscv-013.c:404 scan():  ->  allunavail anyunavail authenticated version=2
Debug: 632 96 riscv-013.c:393 scan(): 41b 4i r 00000000 @10 -> + 00000000 @11
Debug: 633 96 riscv-013.c:393 scan(): 41b 4i - 00000000 @10 -> + 001d0001 @10
Debug: 634 96 riscv-013.c:404 scan():  ->  hartsello=29 dmactive
Debug: 635 96 riscv-013.c:393 scan(): 41b 4i w 001e0001 @10 -> + 00000000 @10
Debug: 636 96 riscv-013.c:404 scan():  hartsello=30 dmactive -> 
Debug: 637 97 riscv-013.c:393 scan(): 41b 4i - 00000000 @10 -> + 001e0001 @10
Debug: 638 97 riscv-013.c:404 scan():  ->  hartsello=30 dmactive
Debug: 639 97 riscv-013.c:393 scan(): 41b 4i r 00000000 @11 -> + 00000000 @10
Debug: 640 97 riscv-013.c:393 scan(): 41b 4i - 00000000 @11 -> + 00003082 @11
Debug: 641 97 riscv-013.c:404 scan():  ->  allunavail anyunavail authenticated version=2
Debug: 642 97 riscv-013.c:393 scan(): 41b 4i r 00000000 @10 -> + 00000000 @11
Debug: 643 98 riscv-013.c:393 scan(): 41b 4i - 00000000 @10 -> + 001e0001 @10
Debug: 644 98 riscv-013.c:404 scan():  ->  hartsello=30 dmactive
Debug: 645 98 riscv-013.c:393 scan(): 41b 4i w 001f0001 @10 -> + 00000000 @10
Debug: 646 98 riscv-013.c:404 scan():  hartsello=31 dmactive -> 
Debug: 647 98 riscv-013.c:393 scan(): 41b 4i - 00000000 @10 -> + 001f0001 @10
Debug: 648 98 riscv-013.c:404 scan():  ->  hartsello=31 dmactive
Debug: 649 99 riscv-013.c:393 scan(): 41b 4i r 00000000 @11 -> + 00000000 @10
Debug: 650 99 riscv-013.c:393 scan(): 41b 4i - 00000000 @11 -> + 00003082 @11
Debug: 651 99 riscv-013.c:404 scan():  ->  allunavail anyunavail authenticated version=2
Debug: 652 99 riscv-013.c:393 scan(): 41b 4i r 00000000 @10 -> + 00000000 @11
Debug: 653 100 riscv-013.c:393 scan(): 41b 4i - 00000000 @10 -> + 001f0001 @10
Debug: 654 100 riscv-013.c:404 scan():  ->  hartsello=31 dmactive
Debug: 655 100 riscv-013.c:393 scan(): 41b 4i w 00200001 @10 -> + 00000000 @10
Debug: 656 100 riscv-013.c:404 scan():  hartsello=32 dmactive -> 
Debug: 657 100 riscv-013.c:393 scan(): 41b 4i - 00000000 @10 -> + 00200001 @10
Debug: 658 100 riscv-013.c:404 scan():  ->  hartsello=32 dmactive
Debug: 659 101 riscv-013.c:393 scan(): 41b 4i r 00000000 @11 -> + 00000000 @10
Debug: 660 101 riscv-013.c:393 scan(): 41b 4i - 00000000 @11 -> + 00003082 @11
Debug: 661 101 riscv-013.c:404 scan():  ->  allunavail anyunavail authenticated version=2
Debug: 662 101 riscv-013.c:393 scan(): 41b 4i r 00000000 @10 -> + 00000000 @11
Debug: 663 101 riscv-013.c:393 scan(): 41b 4i - 00000000 @10 -> + 00200001 @10
Debug: 664 101 riscv-013.c:404 scan():  ->  hartsello=32 dmactive
Debug: 665 101 riscv-013.c:393 scan(): 41b 4i w 00210001 @10 -> + 00000000 @10
Debug: 666 102 riscv-013.c:404 scan():  hartsello=33 dmactive -> 
Debug: 667 102 riscv-013.c:393 scan(): 41b 4i - 00000000 @10 -> + 00210001 @10
Debug: 668 102 riscv-013.c:404 scan():  ->  hartsello=33 dmactive
Debug: 669 102 riscv-013.c:393 scan(): 41b 4i r 00000000 @11 -> + 00000000 @10
Debug: 670 102 riscv-013.c:393 scan(): 41b 4i - 00000000 @11 -> + 00003082 @11
Debug: 671 102 riscv-013.c:404 scan():  ->  allunavail anyunavail authenticated version=2
Debug: 672 103 riscv-013.c:393 scan(): 41b 4i r 00000000 @10 -> + 00000000 @11
Debug: 673 103 riscv-013.c:393 scan(): 41b 4i - 00000000 @10 -> + 00210001 @10
Debug: 674 103 riscv-013.c:404 scan():  ->  hartsello=33 dmactive
Debug: 675 103 riscv-013.c:393 scan(): 41b 4i w 00220001 @10 -> + 00000000 @10
Debug: 676 103 riscv-013.c:404 scan():  hartsello=34 dmactive -> 
Debug: 677 104 riscv-013.c:393 scan(): 41b 4i - 00000000 @10 -> + 00220001 @10
Debug: 678 104 riscv-013.c:404 scan():  ->  hartsello=34 dmactive
Debug: 679 104 riscv-013.c:393 scan(): 41b 4i r 00000000 @11 -> + 00000000 @10
Debug: 680 104 riscv-013.c:393 scan(): 41b 4i - 00000000 @11 -> + 00003082 @11
Debug: 681 104 riscv-013.c:404 scan():  ->  allunavail anyunavail authenticated version=2
Debug: 682 104 riscv-013.c:393 scan(): 41b 4i r 00000000 @10 -> + 00000000 @11
Debug: 683 105 riscv-013.c:393 scan(): 41b 4i - 00000000 @10 -> + 00220001 @10
Debug: 684 105 riscv-013.c:404 scan():  ->  hartsello=34 dmactive
Debug: 685 105 riscv-013.c:393 scan(): 41b 4i w 00230001 @10 -> + 00000000 @10
Debug: 686 105 riscv-013.c:404 scan():  hartsello=35 dmactive -> 
Debug: 687 105 riscv-013.c:393 scan(): 41b 4i - 00000000 @10 -> + 00230001 @10
Debug: 688 105 riscv-013.c:404 scan():  ->  hartsello=35 dmactive
Debug: 689 106 riscv-013.c:393 scan(): 41b 4i r 00000000 @11 -> + 00000000 @10
Debug: 690 106 riscv-013.c:393 scan(): 41b 4i - 00000000 @11 -> + 00003082 @11
Debug: 691 106 riscv-013.c:404 scan():  ->  allunavail anyunavail authenticated version=2
Debug: 692 106 riscv-013.c:393 scan(): 41b 4i r 00000000 @10 -> + 00000000 @11
Debug: 693 106 riscv-013.c:393 scan(): 41b 4i - 00000000 @10 -> + 00230001 @10
Debug: 694 106 riscv-013.c:404 scan():  ->  hartsello=35 dmactive
Debug: 695 107 riscv-013.c:393 scan(): 41b 4i w 00240001 @10 -> + 00000000 @10
Debug: 696 107 riscv-013.c:404 scan():  hartsello=36 dmactive -> 
Debug: 697 107 riscv-013.c:393 scan(): 41b 4i - 00000000 @10 -> + 00240001 @10
Debug: 698 107 riscv-013.c:404 scan():  ->  hartsello=36 dmactive
Debug: 699 107 riscv-013.c:393 scan(): 41b 4i r 00000000 @11 -> + 00000000 @10
Debug: 700 108 riscv-013.c:393 scan(): 41b 4i - 00000000 @11 -> + 00003082 @11
Debug: 701 108 riscv-013.c:404 scan():  ->  allunavail anyunavail authenticated version=2
Debug: 702 108 riscv-013.c:393 scan(): 41b 4i r 00000000 @10 -> + 00000000 @11
Debug: 703 108 riscv-013.c:393 scan(): 41b 4i - 00000000 @10 -> + 00240001 @10
Debug: 704 108 riscv-013.c:404 scan():  ->  hartsello=36 dmactive
Debug: 705 109 riscv-013.c:393 scan(): 41b 4i w 00250001 @10 -> + 00000000 @10
Debug: 706 109 riscv-013.c:404 scan():  hartsello=37 dmactive -> 
Debug: 707 109 riscv-013.c:393 scan(): 41b 4i - 00000000 @10 -> + 00250001 @10
Debug: 708 109 riscv-013.c:404 scan():  ->  hartsello=37 dmactive
Debug: 709 109 riscv-013.c:393 scan(): 41b 4i r 00000000 @11 -> + 00000000 @10
Debug: 710 109 riscv-013.c:393 scan(): 41b 4i - 00000000 @11 -> + 00003082 @11
Debug: 711 109 riscv-013.c:404 scan():  ->  allunavail anyunavail authenticated version=2
Debug: 712 110 riscv-013.c:393 scan(): 41b 4i r 00000000 @10 -> + 00000000 @11
Debug: 713 110 riscv-013.c:393 scan(): 41b 4i - 00000000 @10 -> + 00250001 @10
Debug: 714 110 riscv-013.c:404 scan():  ->  hartsello=37 dmactive
Debug: 715 110 riscv-013.c:393 scan(): 41b 4i w 00260001 @10 -> + 00000000 @10
Debug: 716 110 riscv-013.c:404 scan():  hartsello=38 dmactive -> 
Debug: 717 111 riscv-013.c:393 scan(): 41b 4i - 00000000 @10 -> + 00260001 @10
Debug: 718 111 riscv-013.c:404 scan():  ->  hartsello=38 dmactive
Debug: 719 111 riscv-013.c:393 scan(): 41b 4i r 00000000 @11 -> + 00000000 @10
Debug: 720 111 riscv-013.c:393 scan(): 41b 4i - 00000000 @11 -> + 00003082 @11
Debug: 721 111 riscv-013.c:404 scan():  ->  allunavail anyunavail authenticated version=2
Debug: 722 112 riscv-013.c:393 scan(): 41b 4i r 00000000 @10 -> + 00000000 @11
Debug: 723 112 riscv-013.c:393 scan(): 41b 4i - 00000000 @10 -> + 00260001 @10
Debug: 724 112 riscv-013.c:404 scan():  ->  hartsello=38 dmactive
Debug: 725 112 riscv-013.c:393 scan(): 41b 4i w 00270001 @10 -> + 00000000 @10
Debug: 726 112 riscv-013.c:404 scan():  hartsello=39 dmactive -> 
Debug: 727 112 riscv-013.c:393 scan(): 41b 4i - 00000000 @10 -> + 00270001 @10
Debug: 728 112 riscv-013.c:404 scan():  ->  hartsello=39 dmactive
Debug: 729 113 riscv-013.c:393 scan(): 41b 4i r 00000000 @11 -> + 00000000 @10
Debug: 730 113 riscv-013.c:393 scan(): 41b 4i - 00000000 @11 -> + 00003082 @11
Debug: 731 113 riscv-013.c:404 scan():  ->  allunavail anyunavail authenticated version=2
Debug: 732 113 riscv-013.c:393 scan(): 41b 4i r 00000000 @10 -> + 00000000 @11
Debug: 733 113 riscv-013.c:393 scan(): 41b 4i - 00000000 @10 -> + 00270001 @10
Debug: 734 113 riscv-013.c:404 scan():  ->  hartsello=39 dmactive
Debug: 735 114 riscv-013.c:393 scan(): 41b 4i w 00280001 @10 -> + 00000000 @10
Debug: 736 114 riscv-013.c:404 scan():  hartsello=40 dmactive -> 
Debug: 737 114 riscv-013.c:393 scan(): 41b 4i - 00000000 @10 -> + 00280001 @10
Debug: 738 114 riscv-013.c:404 scan():  ->  hartsello=40 dmactive
Debug: 739 114 riscv-013.c:393 scan(): 41b 4i r 00000000 @11 -> + 00000000 @10
Debug: 740 114 riscv-013.c:393 scan(): 41b 4i - 00000000 @11 -> + 00003082 @11
Debug: 741 114 riscv-013.c:404 scan():  ->  allunavail anyunavail authenticated version=2
Debug: 742 115 riscv-013.c:393 scan(): 41b 4i r 00000000 @10 -> + 00000000 @11
Debug: 743 115 riscv-013.c:393 scan(): 41b 4i - 00000000 @10 -> + 00280001 @10
Debug: 744 115 riscv-013.c:404 scan():  ->  hartsello=40 dmactive
Debug: 745 115 riscv-013.c:393 scan(): 41b 4i w 00290001 @10 -> + 00000000 @10
Debug: 746 115 riscv-013.c:404 scan():  hartsello=41 dmactive -> 
Debug: 747 116 riscv-013.c:393 scan(): 41b 4i - 00000000 @10 -> + 00290001 @10
Debug: 748 116 riscv-013.c:404 scan():  ->  hartsello=41 dmactive
Debug: 749 116 riscv-013.c:393 scan(): 41b 4i r 00000000 @11 -> + 00000000 @10
Debug: 750 116 riscv-013.c:393 scan(): 41b 4i - 00000000 @11 -> + 00003082 @11
Debug: 751 116 riscv-013.c:404 scan():  ->  allunavail anyunavail authenticated version=2
Debug: 752 116 riscv-013.c:393 scan(): 41b 4i r 00000000 @10 -> + 00000000 @11
Debug: 753 117 riscv-013.c:393 scan(): 41b 4i - 00000000 @10 -> + 00290001 @10
Debug: 754 117 riscv-013.c:404 scan():  ->  hartsello=41 dmactive
Debug: 755 117 riscv-013.c:393 scan(): 41b 4i w 002a0001 @10 -> + 00000000 @10
Debug: 756 117 riscv-013.c:404 scan():  hartsello=42 dmactive -> 
Debug: 757 117 riscv-013.c:393 scan(): 41b 4i - 00000000 @10 -> + 002a0001 @10
Debug: 758 117 riscv-013.c:404 scan():  ->  hartsello=42 dmactive
Debug: 759 118 riscv-013.c:393 scan(): 41b 4i r 00000000 @11 -> + 00000000 @10
Debug: 760 118 riscv-013.c:393 scan(): 41b 4i - 00000000 @11 -> + 00003082 @11
Debug: 761 118 riscv-013.c:404 scan():  ->  allunavail anyunavail authenticated version=2
Debug: 762 118 riscv-013.c:393 scan(): 41b 4i r 00000000 @10 -> + 00000000 @11
Debug: 763 118 riscv-013.c:393 scan(): 41b 4i - 00000000 @10 -> + 002a0001 @10
Debug: 764 118 riscv-013.c:404 scan():  ->  hartsello=42 dmactive
Debug: 765 118 riscv-013.c:393 scan(): 41b 4i w 002b0001 @10 -> + 00000000 @10
Debug: 766 118 riscv-013.c:404 scan():  hartsello=43 dmactive -> 
Debug: 767 119 riscv-013.c:393 scan(): 41b 4i - 00000000 @10 -> + 002b0001 @10
Debug: 768 119 riscv-013.c:404 scan():  ->  hartsello=43 dmactive
Debug: 769 119 riscv-013.c:393 scan(): 41b 4i r 00000000 @11 -> + 00000000 @10
Debug: 770 119 riscv-013.c:393 scan(): 41b 4i - 00000000 @11 -> + 00003082 @11
Debug: 771 119 riscv-013.c:404 scan():  ->  allunavail anyunavail authenticated version=2
Debug: 772 120 riscv-013.c:393 scan(): 41b 4i r 00000000 @10 -> + 00000000 @11
Debug: 773 120 riscv-013.c:393 scan(): 41b 4i - 00000000 @10 -> + 002b0001 @10
Debug: 774 120 riscv-013.c:404 scan():  ->  hartsello=43 dmactive
Debug: 775 120 riscv-013.c:393 scan(): 41b 4i w 002c0001 @10 -> + 00000000 @10
Debug: 776 120 riscv-013.c:404 scan():  hartsello=44 dmactive -> 
Debug: 777 121 riscv-013.c:393 scan(): 41b 4i - 00000000 @10 -> + 002c0001 @10
Debug: 778 121 riscv-013.c:404 scan():  ->  hartsello=44 dmactive
Debug: 779 121 riscv-013.c:393 scan(): 41b 4i r 00000000 @11 -> + 00000000 @10
Debug: 780 121 riscv-013.c:393 scan(): 41b 4i - 00000000 @11 -> + 00003082 @11
Debug: 781 121 riscv-013.c:404 scan():  ->  allunavail anyunavail authenticated version=2
Debug: 782 121 riscv-013.c:393 scan(): 41b 4i r 00000000 @10 -> + 00000000 @11
Debug: 783 122 riscv-013.c:393 scan(): 41b 4i - 00000000 @10 -> + 002c0001 @10
Debug: 784 122 riscv-013.c:404 scan():  ->  hartsello=44 dmactive
Debug: 785 122 riscv-013.c:393 scan(): 41b 4i w 002d0001 @10 -> + 00000000 @10
Debug: 786 122 riscv-013.c:404 scan():  hartsello=45 dmactive -> 
Debug: 787 122 riscv-013.c:393 scan(): 41b 4i - 00000000 @10 -> + 002d0001 @10
Debug: 788 122 riscv-013.c:404 scan():  ->  hartsello=45 dmactive
Debug: 789 123 riscv-013.c:393 scan(): 41b 4i r 00000000 @11 -> + 00000000 @10
Debug: 790 123 riscv-013.c:393 scan(): 41b 4i - 00000000 @11 -> + 00003082 @11
Debug: 791 123 riscv-013.c:404 scan():  ->  allunavail anyunavail authenticated version=2
Debug: 792 123 riscv-013.c:393 scan(): 41b 4i r 00000000 @10 -> + 00000000 @11
Debug: 793 124 riscv-013.c:393 scan(): 41b 4i - 00000000 @10 -> + 002d0001 @10
Debug: 794 124 riscv-013.c:404 scan():  ->  hartsello=45 dmactive
Debug: 795 124 riscv-013.c:393 scan(): 41b 4i w 002e0001 @10 -> + 00000000 @10
Debug: 796 124 riscv-013.c:404 scan():  hartsello=46 dmactive -> 
Debug: 797 124 riscv-013.c:393 scan(): 41b 4i - 00000000 @10 -> + 002e0001 @10
Debug: 798 124 riscv-013.c:404 scan():  ->  hartsello=46 dmactive
Debug: 799 125 riscv-013.c:393 scan(): 41b 4i r 00000000 @11 -> + 00000000 @10
Debug: 800 125 riscv-013.c:393 scan(): 41b 4i - 00000000 @11 -> + 00003082 @11
Debug: 801 125 riscv-013.c:404 scan():  ->  allunavail anyunavail authenticated version=2
Debug: 802 125 riscv-013.c:393 scan(): 41b 4i r 00000000 @10 -> + 00000000 @11
Debug: 803 125 riscv-013.c:393 scan(): 41b 4i - 00000000 @10 -> + 002e0001 @10
Debug: 804 125 riscv-013.c:404 scan():  ->  hartsello=46 dmactive
Debug: 805 125 riscv-013.c:393 scan(): 41b 4i w 002f0001 @10 -> + 00000000 @10
Debug: 806 126 riscv-013.c:404 scan():  hartsello=47 dmactive -> 
Debug: 807 126 riscv-013.c:393 scan(): 41b 4i - 00000000 @10 -> + 002f0001 @10
Debug: 808 126 riscv-013.c:404 scan():  ->  hartsello=47 dmactive
Debug: 809 126 riscv-013.c:393 scan(): 41b 4i r 00000000 @11 -> + 00000000 @10
Debug: 810 126 riscv-013.c:393 scan(): 41b 4i - 00000000 @11 -> + 00003082 @11
Debug: 811 126 riscv-013.c:404 scan():  ->  allunavail anyunavail authenticated version=2
Debug: 812 127 riscv-013.c:393 scan(): 41b 4i r 00000000 @10 -> + 00000000 @11
Debug: 813 127 riscv-013.c:393 scan(): 41b 4i - 00000000 @10 -> + 002f0001 @10
Debug: 814 127 riscv-013.c:404 scan():  ->  hartsello=47 dmactive
Debug: 815 127 riscv-013.c:393 scan(): 41b 4i w 00300001 @10 -> + 00000000 @10
Debug: 816 127 riscv-013.c:404 scan():  hartsello=48 dmactive -> 
Debug: 817 128 riscv-013.c:393 scan(): 41b 4i - 00000000 @10 -> + 00300001 @10
Debug: 818 128 riscv-013.c:404 scan():  ->  hartsello=48 dmactive
Debug: 819 128 riscv-013.c:393 scan(): 41b 4i r 00000000 @11 -> + 00000000 @10
Debug: 820 128 riscv-013.c:393 scan(): 41b 4i - 00000000 @11 -> + 00003082 @11
Debug: 821 128 riscv-013.c:404 scan():  ->  allunavail anyunavail authenticated version=2
Debug: 822 129 riscv-013.c:393 scan(): 41b 4i r 00000000 @10 -> + 00000000 @11
Debug: 823 129 riscv-013.c:393 scan(): 41b 4i - 00000000 @10 -> + 00300001 @10
Debug: 824 129 riscv-013.c:404 scan():  ->  hartsello=48 dmactive
Debug: 825 129 riscv-013.c:393 scan(): 41b 4i w 00310001 @10 -> + 00000000 @10
Debug: 826 129 riscv-013.c:404 scan():  hartsello=49 dmactive -> 
Debug: 827 130 riscv-013.c:393 scan(): 41b 4i - 00000000 @10 -> + 00310001 @10
Debug: 828 130 riscv-013.c:404 scan():  ->  hartsello=49 dmactive
Debug: 829 130 riscv-013.c:393 scan(): 41b 4i r 00000000 @11 -> + 00000000 @10
Debug: 830 130 riscv-013.c:393 scan(): 41b 4i - 00000000 @11 -> + 00003082 @11
Debug: 831 130 riscv-013.c:404 scan():  ->  allunavail anyunavail authenticated version=2
Debug: 832 130 riscv-013.c:393 scan(): 41b 4i r 00000000 @10 -> + 00000000 @11
Debug: 833 131 riscv-013.c:393 scan(): 41b 4i - 00000000 @10 -> + 00310001 @10
Debug: 834 131 riscv-013.c:404 scan():  ->  hartsello=49 dmactive
Debug: 835 131 riscv-013.c:393 scan(): 41b 4i w 00320001 @10 -> + 00000000 @10
Debug: 836 131 riscv-013.c:404 scan():  hartsello=50 dmactive -> 
Debug: 837 131 riscv-013.c:393 scan(): 41b 4i - 00000000 @10 -> + 00320001 @10
Debug: 838 131 riscv-013.c:404 scan():  ->  hartsello=50 dmactive
Debug: 839 132 riscv-013.c:393 scan(): 41b 4i r 00000000 @11 -> + 00000000 @10
Debug: 840 132 riscv-013.c:393 scan(): 41b 4i - 00000000 @11 -> + 00003082 @11
Debug: 841 132 riscv-013.c:404 scan():  ->  allunavail anyunavail authenticated version=2
Debug: 842 132 riscv-013.c:393 scan(): 41b 4i r 00000000 @10 -> + 00000000 @11
Debug: 843 133 riscv-013.c:393 scan(): 41b 4i - 00000000 @10 -> + 00320001 @10
Debug: 844 133 riscv-013.c:404 scan():  ->  hartsello=50 dmactive
Debug: 845 133 riscv-013.c:393 scan(): 41b 4i w 00330001 @10 -> + 00000000 @10
Debug: 846 133 riscv-013.c:404 scan():  hartsello=51 dmactive -> 
Debug: 847 133 riscv-013.c:393 scan(): 41b 4i - 00000000 @10 -> + 00330001 @10
Debug: 848 133 riscv-013.c:404 scan():  ->  hartsello=51 dmactive
Debug: 849 133 riscv-013.c:393 scan(): 41b 4i r 00000000 @11 -> + 00000000 @10
Debug: 850 133 riscv-013.c:393 scan(): 41b 4i - 00000000 @11 -> + 00003082 @11
Debug: 851 133 riscv-013.c:404 scan():  ->  allunavail anyunavail authenticated version=2
Debug: 852 134 riscv-013.c:393 scan(): 41b 4i r 00000000 @10 -> + 00000000 @11
Debug: 853 134 riscv-013.c:393 scan(): 41b 4i - 00000000 @10 -> + 00330001 @10
Debug: 854 134 riscv-013.c:404 scan():  ->  hartsello=51 dmactive
Debug: 855 134 riscv-013.c:393 scan(): 41b 4i w 00340001 @10 -> + 00000000 @10
Debug: 856 134 riscv-013.c:404 scan():  hartsello=52 dmactive -> 
Debug: 857 135 riscv-013.c:393 scan(): 41b 4i - 00000000 @10 -> + 00340001 @10
Debug: 858 135 riscv-013.c:404 scan():  ->  hartsello=52 dmactive
Debug: 859 135 riscv-013.c:393 scan(): 41b 4i r 00000000 @11 -> + 00000000 @10
Debug: 860 135 riscv-013.c:393 scan(): 41b 4i - 00000000 @11 -> + 00003082 @11
Debug: 861 135 riscv-013.c:404 scan():  ->  allunavail anyunavail authenticated version=2
Debug: 862 136 riscv-013.c:393 scan(): 41b 4i r 00000000 @10 -> + 00000000 @11
Debug: 863 136 riscv-013.c:393 scan(): 41b 4i - 00000000 @10 -> + 00340001 @10
Debug: 864 136 riscv-013.c:404 scan():  ->  hartsello=52 dmactive
Debug: 865 136 riscv-013.c:393 scan(): 41b 4i w 00350001 @10 -> + 00000000 @10
Debug: 866 136 riscv-013.c:404 scan():  hartsello=53 dmactive -> 
Debug: 867 136 riscv-013.c:393 scan(): 41b 4i - 00000000 @10 -> + 00350001 @10
Debug: 868 136 riscv-013.c:404 scan():  ->  hartsello=53 dmactive
Debug: 869 137 riscv-013.c:393 scan(): 41b 4i r 00000000 @11 -> + 00000000 @10
Debug: 870 137 riscv-013.c:393 scan(): 41b 4i - 00000000 @11 -> + 00003082 @11
Debug: 871 137 riscv-013.c:404 scan():  ->  allunavail anyunavail authenticated version=2
Debug: 872 137 riscv-013.c:393 scan(): 41b 4i r 00000000 @10 -> + 00000000 @11
Debug: 873 137 riscv-013.c:393 scan(): 41b 4i - 00000000 @10 -> + 00350001 @10
Debug: 874 137 riscv-013.c:404 scan():  ->  hartsello=53 dmactive
Debug: 875 138 riscv-013.c:393 scan(): 41b 4i w 00360001 @10 -> + 00000000 @10
Debug: 876 138 riscv-013.c:404 scan():  hartsello=54 dmactive -> 
Debug: 877 138 riscv-013.c:393 scan(): 41b 4i - 00000000 @10 -> + 00360001 @10
Debug: 878 138 riscv-013.c:404 scan():  ->  hartsello=54 dmactive
Debug: 879 138 riscv-013.c:393 scan(): 41b 4i r 00000000 @11 -> + 00000000 @10
Debug: 880 139 riscv-013.c:393 scan(): 41b 4i - 00000000 @11 -> + 00003082 @11
Debug: 881 139 riscv-013.c:404 scan():  ->  allunavail anyunavail authenticated version=2
Debug: 882 139 riscv-013.c:393 scan(): 41b 4i r 00000000 @10 -> + 00000000 @11
Debug: 883 139 riscv-013.c:393 scan(): 41b 4i - 00000000 @10 -> + 00360001 @10
Debug: 884 139 riscv-013.c:404 scan():  ->  hartsello=54 dmactive
Debug: 885 140 riscv-013.c:393 scan(): 41b 4i w 00370001 @10 -> + 00000000 @10
Debug: 886 140 riscv-013.c:404 scan():  hartsello=55 dmactive -> 
Debug: 887 140 riscv-013.c:393 scan(): 41b 4i - 00000000 @10 -> + 00370001 @10
Debug: 888 140 riscv-013.c:404 scan():  ->  hartsello=55 dmactive
Debug: 889 140 riscv-013.c:393 scan(): 41b 4i r 00000000 @11 -> + 00000000 @10
Debug: 890 140 riscv-013.c:393 scan(): 41b 4i - 00000000 @11 -> + 00003082 @11
Debug: 891 140 riscv-013.c:404 scan():  ->  allunavail anyunavail authenticated version=2
Debug: 892 141 riscv-013.c:393 scan(): 41b 4i r 00000000 @10 -> + 00000000 @11
Debug: 893 141 riscv-013.c:393 scan(): 41b 4i - 00000000 @10 -> + 00370001 @10
Debug: 894 141 riscv-013.c:404 scan():  ->  hartsello=55 dmactive
Debug: 895 141 riscv-013.c:393 scan(): 41b 4i w 00380001 @10 -> + 00000000 @10
Debug: 896 141 riscv-013.c:404 scan():  hartsello=56 dmactive -> 
Debug: 897 142 riscv-013.c:393 scan(): 41b 4i - 00000000 @10 -> + 00380001 @10
Debug: 898 142 riscv-013.c:404 scan():  ->  hartsello=56 dmactive
Debug: 899 142 riscv-013.c:393 scan(): 41b 4i r 00000000 @11 -> + 00000000 @10
Debug: 900 142 riscv-013.c:393 scan(): 41b 4i - 00000000 @11 -> + 00003082 @11
Debug: 901 142 riscv-013.c:404 scan():  ->  allunavail anyunavail authenticated version=2
Debug: 902 142 riscv-013.c:393 scan(): 41b 4i r 00000000 @10 -> + 00000000 @11
Debug: 903 143 riscv-013.c:393 scan(): 41b 4i - 00000000 @10 -> + 00380001 @10
Debug: 904 143 riscv-013.c:404 scan():  ->  hartsello=56 dmactive
Debug: 905 143 riscv-013.c:393 scan(): 41b 4i w 00390001 @10 -> + 00000000 @10
Debug: 906 143 riscv-013.c:404 scan():  hartsello=57 dmactive -> 
Debug: 907 143 riscv-013.c:393 scan(): 41b 4i - 00000000 @10 -> + 00390001 @10
Debug: 908 143 riscv-013.c:404 scan():  ->  hartsello=57 dmactive
Debug: 909 144 riscv-013.c:393 scan(): 41b 4i r 00000000 @11 -> + 00000000 @10
Debug: 910 144 riscv-013.c:393 scan(): 41b 4i - 00000000 @11 -> + 00003082 @11
Debug: 911 144 riscv-013.c:404 scan():  ->  allunavail anyunavail authenticated version=2
Debug: 912 144 riscv-013.c:393 scan(): 41b 4i r 00000000 @10 -> + 00000000 @11
Debug: 913 145 riscv-013.c:393 scan(): 41b 4i - 00000000 @10 -> + 00390001 @10
Debug: 914 145 riscv-013.c:404 scan():  ->  hartsello=57 dmactive
Debug: 915 145 riscv-013.c:393 scan(): 41b 4i w 003a0001 @10 -> + 00000000 @10
Debug: 916 145 riscv-013.c:404 scan():  hartsello=58 dmactive -> 
Debug: 917 145 riscv-013.c:393 scan(): 41b 4i - 00000000 @10 -> + 003a0001 @10
Debug: 918 145 riscv-013.c:404 scan():  ->  hartsello=58 dmactive
Debug: 919 146 riscv-013.c:393 scan(): 41b 4i r 00000000 @11 -> + 00000000 @10
Debug: 920 146 riscv-013.c:393 scan(): 41b 4i - 00000000 @11 -> + 00003082 @11
Debug: 921 146 riscv-013.c:404 scan():  ->  allunavail anyunavail authenticated version=2
Debug: 922 146 riscv-013.c:393 scan(): 41b 4i r 00000000 @10 -> + 00000000 @11
Debug: 923 146 riscv-013.c:393 scan(): 41b 4i - 00000000 @10 -> + 003a0001 @10
Debug: 924 146 riscv-013.c:404 scan():  ->  hartsello=58 dmactive
Debug: 925 147 riscv-013.c:393 scan(): 41b 4i w 003b0001 @10 -> + 00000000 @10
Debug: 926 147 riscv-013.c:404 scan():  hartsello=59 dmactive -> 
Debug: 927 147 riscv-013.c:393 scan(): 41b 4i - 00000000 @10 -> + 003b0001 @10
Debug: 928 147 riscv-013.c:404 scan():  ->  hartsello=59 dmactive
Debug: 929 147 riscv-013.c:393 scan(): 41b 4i r 00000000 @11 -> + 00000000 @10
Debug: 930 148 riscv-013.c:393 scan(): 41b 4i - 00000000 @11 -> + 00003082 @11
Debug: 931 148 riscv-013.c:404 scan():  ->  allunavail anyunavail authenticated version=2
Debug: 932 148 riscv-013.c:393 scan(): 41b 4i r 00000000 @10 -> + 00000000 @11
Debug: 933 148 riscv-013.c:393 scan(): 41b 4i - 00000000 @10 -> + 003b0001 @10
Debug: 934 148 riscv-013.c:404 scan():  ->  hartsello=59 dmactive
Debug: 935 149 riscv-013.c:393 scan(): 41b 4i w 003c0001 @10 -> + 00000000 @10
Debug: 936 149 riscv-013.c:404 scan():  hartsello=60 dmactive -> 
Debug: 937 149 riscv-013.c:393 scan(): 41b 4i - 00000000 @10 -> + 003c0001 @10
Debug: 938 149 riscv-013.c:404 scan():  ->  hartsello=60 dmactive
Debug: 939 149 riscv-013.c:393 scan(): 41b 4i r 00000000 @11 -> + 00000000 @10
Debug: 940 150 riscv-013.c:393 scan(): 41b 4i - 00000000 @11 -> + 00003082 @11
Debug: 941 150 riscv-013.c:404 scan():  ->  allunavail anyunavail authenticated version=2
Debug: 942 150 riscv-013.c:393 scan(): 41b 4i r 00000000 @10 -> + 00000000 @11
Debug: 943 150 riscv-013.c:393 scan(): 41b 4i - 00000000 @10 -> + 003c0001 @10
Debug: 944 150 riscv-013.c:404 scan():  ->  hartsello=60 dmactive
Debug: 945 150 riscv-013.c:393 scan(): 41b 4i w 003d0001 @10 -> + 00000000 @10
Debug: 946 151 riscv-013.c:404 scan():  hartsello=61 dmactive -> 
Debug: 947 151 riscv-013.c:393 scan(): 41b 4i - 00000000 @10 -> + 003d0001 @10
Debug: 948 151 riscv-013.c:404 scan():  ->  hartsello=61 dmactive
Debug: 949 151 riscv-013.c:393 scan(): 41b 4i r 00000000 @11 -> + 00000000 @10
Debug: 950 151 riscv-013.c:393 scan(): 41b 4i - 00000000 @11 -> + 00003082 @11
Debug: 951 151 riscv-013.c:404 scan():  ->  allunavail anyunavail authenticated version=2
Debug: 952 152 riscv-013.c:393 scan(): 41b 4i r 00000000 @10 -> + 00000000 @11
Debug: 953 152 riscv-013.c:393 scan(): 41b 4i - 00000000 @10 -> + 003d0001 @10
Debug: 954 152 riscv-013.c:404 scan():  ->  hartsello=61 dmactive
Debug: 955 152 riscv-013.c:393 scan(): 41b 4i w 003e0001 @10 -> + 00000000 @10
Debug: 956 152 riscv-013.c:404 scan():  hartsello=62 dmactive -> 
Debug: 957 153 riscv-013.c:393 scan(): 41b 4i - 00000000 @10 -> + 003e0001 @10
Debug: 958 153 riscv-013.c:404 scan():  ->  hartsello=62 dmactive
Debug: 959 153 riscv-013.c:393 scan(): 41b 4i r 00000000 @11 -> + 00000000 @10
Debug: 960 153 riscv-013.c:393 scan(): 41b 4i - 00000000 @11 -> + 00003082 @11
Debug: 961 153 riscv-013.c:404 scan():  ->  allunavail anyunavail authenticated version=2
Debug: 962 153 riscv-013.c:393 scan(): 41b 4i r 00000000 @10 -> + 00000000 @11
Debug: 963 153 riscv-013.c:393 scan(): 41b 4i - 00000000 @10 -> + 003e0001 @10
Debug: 964 153 riscv-013.c:404 scan():  ->  hartsello=62 dmactive
Debug: 965 154 riscv-013.c:393 scan(): 41b 4i w 003f0001 @10 -> + 00000000 @10
Debug: 966 154 riscv-013.c:404 scan():  hartsello=63 dmactive -> 
Debug: 967 154 riscv-013.c:393 scan(): 41b 4i - 00000000 @10 -> + 003f0001 @10
Debug: 968 154 riscv-013.c:404 scan():  ->  hartsello=63 dmactive
Debug: 969 154 riscv-013.c:393 scan(): 41b 4i r 00000000 @11 -> + 00000000 @10
Debug: 970 155 riscv-013.c:393 scan(): 41b 4i - 00000000 @11 -> + 00003082 @11
Debug: 971 155 riscv-013.c:404 scan():  ->  allunavail anyunavail authenticated version=2
Debug: 972 155 riscv-013.c:393 scan(): 41b 4i r 00000000 @10 -> + 00000000 @11
Debug: 973 155 riscv-013.c:393 scan(): 41b 4i - 00000000 @10 -> + 003f0001 @10
Debug: 974 155 riscv-013.c:404 scan():  ->  hartsello=63 dmactive
Debug: 975 155 riscv-013.c:393 scan(): 41b 4i w 00400001 @10 -> + 00000000 @10
Debug: 976 155 riscv-013.c:404 scan():  hartsello=64 dmactive -> 
Debug: 977 156 riscv-013.c:393 scan(): 41b 4i - 00000000 @10 -> + 00400001 @10
Debug: 978 156 riscv-013.c:404 scan():  ->  hartsello=64 dmactive
Debug: 979 156 riscv-013.c:393 scan(): 41b 4i r 00000000 @11 -> + 00000000 @10
Debug: 980 156 riscv-013.c:393 scan(): 41b 4i - 00000000 @11 -> + 00003082 @11
Debug: 981 156 riscv-013.c:404 scan():  ->  allunavail anyunavail authenticated version=2
Debug: 982 157 riscv-013.c:393 scan(): 41b 4i r 00000000 @10 -> + 00000000 @11
Debug: 983 157 riscv-013.c:393 scan(): 41b 4i - 00000000 @10 -> + 00400001 @10
Debug: 984 157 riscv-013.c:404 scan():  ->  hartsello=64 dmactive
Debug: 985 157 riscv-013.c:393 scan(): 41b 4i w 00410001 @10 -> + 00000000 @10
Debug: 986 157 riscv-013.c:404 scan():  hartsello=65 dmactive -> 
Debug: 987 157 riscv-013.c:393 scan(): 41b 4i - 00000000 @10 -> + 00410001 @10
Debug: 988 157 riscv-013.c:404 scan():  ->  hartsello=65 dmactive
Debug: 989 158 riscv-013.c:393 scan(): 41b 4i r 00000000 @11 -> + 00000000 @10
Debug: 990 158 riscv-013.c:393 scan(): 41b 4i - 00000000 @11 -> + 00003082 @11
Debug: 991 158 riscv-013.c:404 scan():  ->  allunavail anyunavail authenticated version=2
Debug: 992 158 riscv-013.c:393 scan(): 41b 4i r 00000000 @10 -> + 00000000 @11
Debug: 993 158 riscv-013.c:393 scan(): 41b 4i - 00000000 @10 -> + 00410001 @10
Debug: 994 158 riscv-013.c:404 scan():  ->  hartsello=65 dmactive
Debug: 995 159 riscv-013.c:393 scan(): 41b 4i w 00420001 @10 -> + 00000000 @10
Debug: 996 159 riscv-013.c:404 scan():  hartsello=66 dmactive -> 
Debug: 997 159 riscv-013.c:393 scan(): 41b 4i - 00000000 @10 -> + 00420001 @10
Debug: 998 159 riscv-013.c:404 scan():  ->  hartsello=66 dmactive
Debug: 999 159 riscv-013.c:393 scan(): 41b 4i r 00000000 @11 -> + 00000000 @10
Debug: 1000 159 riscv-013.c:393 scan(): 41b 4i - 00000000 @11 -> + 00003082 @11
Debug: 1001 159 riscv-013.c:404 scan():  ->  allunavail anyunavail authenticated version=2
Debug: 1002 160 riscv-013.c:393 scan(): 41b 4i r 00000000 @10 -> + 00000000 @11
Debug: 1003 160 riscv-013.c:393 scan(): 41b 4i - 00000000 @10 -> + 00420001 @10
Debug: 1004 160 riscv-013.c:404 scan():  ->  hartsello=66 dmactive
Debug: 1005 160 riscv-013.c:393 scan(): 41b 4i w 00430001 @10 -> + 00000000 @10
Debug: 1006 160 riscv-013.c:404 scan():  hartsello=67 dmactive -> 
Debug: 1007 160 riscv-013.c:393 scan(): 41b 4i - 00000000 @10 -> + 00430001 @10
Debug: 1008 161 riscv-013.c:404 scan():  ->  hartsello=67 dmactive
Debug: 1009 161 riscv-013.c:393 scan(): 41b 4i r 00000000 @11 -> + 00000000 @10
Debug: 1010 161 riscv-013.c:393 scan(): 41b 4i - 00000000 @11 -> + 00003082 @11
Debug: 1011 161 riscv-013.c:404 scan():  ->  allunavail anyunavail authenticated version=2
Debug: 1012 161 riscv-013.c:393 scan(): 41b 4i r 00000000 @10 -> + 00000000 @11
Debug: 1013 162 riscv-013.c:393 scan(): 41b 4i - 00000000 @10 -> + 00430001 @10
Debug: 1014 162 riscv-013.c:404 scan():  ->  hartsello=67 dmactive
Debug: 1015 162 riscv-013.c:393 scan(): 41b 4i w 00440001 @10 -> + 00000000 @10
Debug: 1016 162 riscv-013.c:404 scan():  hartsello=68 dmactive -> 
Debug: 1017 162 riscv-013.c:393 scan(): 41b 4i - 00000000 @10 -> + 00440001 @10
Debug: 1018 162 riscv-013.c:404 scan():  ->  hartsello=68 dmactive
Debug: 1019 162 riscv-013.c:393 scan(): 41b 4i r 00000000 @11 -> + 00000000 @10
Debug: 1020 163 riscv-013.c:393 scan(): 41b 4i - 00000000 @11 -> + 00003082 @11
Debug: 1021 163 riscv-013.c:404 scan():  ->  allunavail anyunavail authenticated version=2
Debug: 1022 163 riscv-013.c:393 scan(): 41b 4i r 00000000 @10 -> + 00000000 @11
Debug: 1023 163 riscv-013.c:393 scan(): 41b 4i - 00000000 @10 -> + 00440001 @10
Debug: 1024 163 riscv-013.c:404 scan():  ->  hartsello=68 dmactive
Debug: 1025 163 riscv-013.c:393 scan(): 41b 4i w 00450001 @10 -> + 00000000 @10
Debug: 1026 163 riscv-013.c:404 scan():  hartsello=69 dmactive -> 
Debug: 1027 164 riscv-013.c:393 scan(): 41b 4i - 00000000 @10 -> + 00450001 @10
Debug: 1028 164 riscv-013.c:404 scan():  ->  hartsello=69 dmactive
Debug: 1029 164 riscv-013.c:393 scan(): 41b 4i r 00000000 @11 -> + 00000000 @10
Debug: 1030 164 riscv-013.c:393 scan(): 41b 4i - 00000000 @11 -> + 00003082 @11
Debug: 1031 164 riscv-013.c:404 scan():  ->  allunavail anyunavail authenticated version=2
Debug: 1032 164 riscv-013.c:393 scan(): 41b 4i r 00000000 @10 -> + 00000000 @11
Debug: 1033 165 riscv-013.c:393 scan(): 41b 4i - 00000000 @10 -> + 00450001 @10
Debug: 1034 165 riscv-013.c:404 scan():  ->  hartsello=69 dmactive
Debug: 1035 165 riscv-013.c:393 scan(): 41b 4i w 00460001 @10 -> + 00000000 @10
Debug: 1036 165 riscv-013.c:404 scan():  hartsello=70 dmactive -> 
Debug: 1037 165 riscv-013.c:393 scan(): 41b 4i - 00000000 @10 -> + 00460001 @10
Debug: 1038 165 riscv-013.c:404 scan():  ->  hartsello=70 dmactive
Debug: 1039 166 riscv-013.c:393 scan(): 41b 4i r 00000000 @11 -> + 00000000 @10
Debug: 1040 166 riscv-013.c:393 scan(): 41b 4i - 00000000 @11 -> + 00003082 @11
Debug: 1041 166 riscv-013.c:404 scan():  ->  allunavail anyunavail authenticated version=2
Debug: 1042 166 riscv-013.c:393 scan(): 41b 4i r 00000000 @10 -> + 00000000 @11
Debug: 1043 166 riscv-013.c:393 scan(): 41b 4i - 00000000 @10 -> + 00460001 @10
Debug: 1044 166 riscv-013.c:404 scan():  ->  hartsello=70 dmactive
Debug: 1045 167 riscv-013.c:393 scan(): 41b 4i w 00470001 @10 -> + 00000000 @10
Debug: 1046 167 riscv-013.c:404 scan():  hartsello=71 dmactive -> 
Debug: 1047 167 riscv-013.c:393 scan(): 41b 4i - 00000000 @10 -> + 00470001 @10
Debug: 1048 167 riscv-013.c:404 scan():  ->  hartsello=71 dmactive
Debug: 1049 167 riscv-013.c:393 scan(): 41b 4i r 00000000 @11 -> + 00000000 @10
Debug: 1050 167 riscv-013.c:393 scan(): 41b 4i - 00000000 @11 -> + 00003082 @11
Debug: 1051 167 riscv-013.c:404 scan():  ->  allunavail anyunavail authenticated version=2
Debug: 1052 168 riscv-013.c:393 scan(): 41b 4i r 00000000 @10 -> + 00000000 @11
Debug: 1053 168 riscv-013.c:393 scan(): 41b 4i - 00000000 @10 -> + 00470001 @10
Debug: 1054 168 riscv-013.c:404 scan():  ->  hartsello=71 dmactive
Debug: 1055 168 riscv-013.c:393 scan(): 41b 4i w 00480001 @10 -> + 00000000 @10
Debug: 1056 168 riscv-013.c:404 scan():  hartsello=72 dmactive -> 
Debug: 1057 169 riscv-013.c:393 scan(): 41b 4i - 00000000 @10 -> + 00480001 @10
Debug: 1058 169 riscv-013.c:404 scan():  ->  hartsello=72 dmactive
Debug: 1059 169 riscv-013.c:393 scan(): 41b 4i r 00000000 @11 -> + 00000000 @10
Debug: 1060 169 riscv-013.c:393 scan(): 41b 4i - 00000000 @11 -> + 00003082 @11
Debug: 1061 169 riscv-013.c:404 scan():  ->  allunavail anyunavail authenticated version=2
Debug: 1062 170 riscv-013.c:393 scan(): 41b 4i r 00000000 @10 -> + 00000000 @11
Debug: 1063 170 riscv-013.c:393 scan(): 41b 4i - 00000000 @10 -> + 00480001 @10
Debug: 1064 170 riscv-013.c:404 scan():  ->  hartsello=72 dmactive
Debug: 1065 170 riscv-013.c:393 scan(): 41b 4i w 00490001 @10 -> + 00000000 @10
Debug: 1066 170 riscv-013.c:404 scan():  hartsello=73 dmactive -> 
Debug: 1067 170 riscv-013.c:393 scan(): 41b 4i - 00000000 @10 -> + 00490001 @10
Debug: 1068 170 riscv-013.c:404 scan():  ->  hartsello=73 dmactive
Debug: 1069 171 riscv-013.c:393 scan(): 41b 4i r 00000000 @11 -> + 00000000 @10
Debug: 1070 171 riscv-013.c:393 scan(): 41b 4i - 00000000 @11 -> + 00003082 @11
Debug: 1071 171 riscv-013.c:404 scan():  ->  allunavail anyunavail authenticated version=2
Debug: 1072 171 riscv-013.c:393 scan(): 41b 4i r 00000000 @10 -> + 00000000 @11
Debug: 1073 171 riscv-013.c:393 scan(): 41b 4i - 00000000 @10 -> + 00490001 @10
Debug: 1074 171 riscv-013.c:404 scan():  ->  hartsello=73 dmactive
Debug: 1075 172 riscv-013.c:393 scan(): 41b 4i w 004a0001 @10 -> + 00000000 @10
Debug: 1076 172 riscv-013.c:404 scan():  hartsello=74 dmactive -> 
Debug: 1077 172 riscv-013.c:393 scan(): 41b 4i - 00000000 @10 -> + 004a0001 @10
Debug: 1078 172 riscv-013.c:404 scan():  ->  hartsello=74 dmactive
Debug: 1079 172 riscv-013.c:393 scan(): 41b 4i r 00000000 @11 -> + 00000000 @10
Debug: 1080 172 riscv-013.c:393 scan(): 41b 4i - 00000000 @11 -> + 00003082 @11
Debug: 1081 172 riscv-013.c:404 scan():  ->  allunavail anyunavail authenticated version=2
Debug: 1082 173 riscv-013.c:393 scan(): 41b 4i r 00000000 @10 -> + 00000000 @11
Debug: 1083 173 riscv-013.c:393 scan(): 41b 4i - 00000000 @10 -> + 004a0001 @10
Debug: 1084 173 riscv-013.c:404 scan():  ->  hartsello=74 dmactive
Debug: 1085 173 riscv-013.c:393 scan(): 41b 4i w 004b0001 @10 -> + 00000000 @10
Debug: 1086 173 riscv-013.c:404 scan():  hartsello=75 dmactive -> 
Debug: 1087 173 riscv-013.c:393 scan(): 41b 4i - 00000000 @10 -> + 004b0001 @10
Debug: 1088 173 riscv-013.c:404 scan():  ->  hartsello=75 dmactive
Debug: 1089 174 riscv-013.c:393 scan(): 41b 4i r 00000000 @11 -> + 00000000 @10
Debug: 1090 174 riscv-013.c:393 scan(): 41b 4i - 00000000 @11 -> + 00003082 @11
Debug: 1091 174 riscv-013.c:404 scan():  ->  allunavail anyunavail authenticated version=2
Debug: 1092 174 riscv-013.c:393 scan(): 41b 4i r 00000000 @10 -> + 00000000 @11
Debug: 1093 174 riscv-013.c:393 scan(): 41b 4i - 00000000 @10 -> + 004b0001 @10
Debug: 1094 174 riscv-013.c:404 scan():  ->  hartsello=75 dmactive
Debug: 1095 175 riscv-013.c:393 scan(): 41b 4i w 004c0001 @10 -> + 00000000 @10
Debug: 1096 175 riscv-013.c:404 scan():  hartsello=76 dmactive -> 
Debug: 1097 175 riscv-013.c:393 scan(): 41b 4i - 00000000 @10 -> + 004c0001 @10
Debug: 1098 175 riscv-013.c:404 scan():  ->  hartsello=76 dmactive
Debug: 1099 175 riscv-013.c:393 scan(): 41b 4i r 00000000 @11 -> + 00000000 @10
Debug: 1100 176 riscv-013.c:393 scan(): 41b 4i - 00000000 @11 -> + 00003082 @11
Debug: 1101 176 riscv-013.c:404 scan():  ->  allunavail anyunavail authenticated version=2
Debug: 1102 176 riscv-013.c:393 scan(): 41b 4i r 00000000 @10 -> + 00000000 @11
Debug: 1103 176 riscv-013.c:393 scan(): 41b 4i - 00000000 @10 -> + 004c0001 @10
Debug: 1104 176 riscv-013.c:404 scan():  ->  hartsello=76 dmactive
Debug: 1105 176 riscv-013.c:393 scan(): 41b 4i w 004d0001 @10 -> + 00000000 @10
Debug: 1106 176 riscv-013.c:404 scan():  hartsello=77 dmactive -> 
Debug: 1107 177 riscv-013.c:393 scan(): 41b 4i - 00000000 @10 -> + 004d0001 @10
Debug: 1108 177 riscv-013.c:404 scan():  ->  hartsello=77 dmactive
Debug: 1109 177 riscv-013.c:393 scan(): 41b 4i r 00000000 @11 -> + 00000000 @10
Debug: 1110 177 riscv-013.c:393 scan(): 41b 4i - 00000000 @11 -> + 00003082 @11
Debug: 1111 177 riscv-013.c:404 scan():  ->  allunavail anyunavail authenticated version=2
Debug: 1112 178 riscv-013.c:393 scan(): 41b 4i r 00000000 @10 -> + 00000000 @11
Debug: 1113 178 riscv-013.c:393 scan(): 41b 4i - 00000000 @10 -> + 004d0001 @10
Debug: 1114 178 riscv-013.c:404 scan():  ->  hartsello=77 dmactive
Debug: 1115 178 riscv-013.c:393 scan(): 41b 4i w 004e0001 @10 -> + 00000000 @10
Debug: 1116 178 riscv-013.c:404 scan():  hartsello=78 dmactive -> 
Debug: 1117 178 riscv-013.c:393 scan(): 41b 4i - 00000000 @10 -> + 004e0001 @10
Debug: 1118 178 riscv-013.c:404 scan():  ->  hartsello=78 dmactive
Debug: 1119 179 riscv-013.c:393 scan(): 41b 4i r 00000000 @11 -> + 00000000 @10
Debug: 1120 179 riscv-013.c:393 scan(): 41b 4i - 00000000 @11 -> + 00003082 @11
Debug: 1121 179 riscv-013.c:404 scan():  ->  allunavail anyunavail authenticated version=2
Debug: 1122 179 riscv-013.c:393 scan(): 41b 4i r 00000000 @10 -> + 00000000 @11
Debug: 1123 180 riscv-013.c:393 scan(): 41b 4i - 00000000 @10 -> + 004e0001 @10
Debug: 1124 180 riscv-013.c:404 scan():  ->  hartsello=78 dmactive
Debug: 1125 180 riscv-013.c:393 scan(): 41b 4i w 004f0001 @10 -> + 00000000 @10
Debug: 1126 180 riscv-013.c:404 scan():  hartsello=79 dmactive -> 
Debug: 1127 180 riscv-013.c:393 scan(): 41b 4i - 00000000 @10 -> + 004f0001 @10
Debug: 1128 180 riscv-013.c:404 scan():  ->  hartsello=79 dmactive
Debug: 1129 180 riscv-013.c:393 scan(): 41b 4i r 00000000 @11 -> + 00000000 @10
Debug: 1130 181 riscv-013.c:393 scan(): 41b 4i - 00000000 @11 -> + 00003082 @11
Debug: 1131 181 riscv-013.c:404 scan():  ->  allunavail anyunavail authenticated version=2
Debug: 1132 181 riscv-013.c:393 scan(): 41b 4i r 00000000 @10 -> + 00000000 @11
Debug: 1133 181 riscv-013.c:393 scan(): 41b 4i - 00000000 @10 -> + 004f0001 @10
Debug: 1134 181 riscv-013.c:404 scan():  ->  hartsello=79 dmactive
Debug: 1135 182 riscv-013.c:393 scan(): 41b 4i w 00500001 @10 -> + 00000000 @10
Debug: 1136 182 riscv-013.c:404 scan():  hartsello=80 dmactive -> 
Debug: 1137 182 riscv-013.c:393 scan(): 41b 4i - 00000000 @10 -> + 00500001 @10
Debug: 1138 182 riscv-013.c:404 scan():  ->  hartsello=80 dmactive
Debug: 1139 182 riscv-013.c:393 scan(): 41b 4i r 00000000 @11 -> + 00000000 @10
Debug: 1140 182 riscv-013.c:393 scan(): 41b 4i - 00000000 @11 -> + 00003082 @11
Debug: 1141 182 riscv-013.c:404 scan():  ->  allunavail anyunavail authenticated version=2
Debug: 1142 183 riscv-013.c:393 scan(): 41b 4i r 00000000 @10 -> + 00000000 @11
Debug: 1143 183 riscv-013.c:393 scan(): 41b 4i - 00000000 @10 -> + 00500001 @10
Debug: 1144 183 riscv-013.c:404 scan():  ->  hartsello=80 dmactive
Debug: 1145 183 riscv-013.c:393 scan(): 41b 4i w 00510001 @10 -> + 00000000 @10
Debug: 1146 183 riscv-013.c:404 scan():  hartsello=81 dmactive -> 
Debug: 1147 183 riscv-013.c:393 scan(): 41b 4i - 00000000 @10 -> + 00510001 @10
Debug: 1148 183 riscv-013.c:404 scan():  ->  hartsello=81 dmactive
Debug: 1149 184 riscv-013.c:393 scan(): 41b 4i r 00000000 @11 -> + 00000000 @10
Debug: 1150 184 riscv-013.c:393 scan(): 41b 4i - 00000000 @11 -> + 00003082 @11
Debug: 1151 184 riscv-013.c:404 scan():  ->  allunavail anyunavail authenticated version=2
Debug: 1152 184 riscv-013.c:393 scan(): 41b 4i r 00000000 @10 -> + 00000000 @11
Debug: 1153 184 riscv-013.c:393 scan(): 41b 4i - 00000000 @10 -> + 00510001 @10
Debug: 1154 184 riscv-013.c:404 scan():  ->  hartsello=81 dmactive
Debug: 1155 185 riscv-013.c:393 scan(): 41b 4i w 00520001 @10 -> + 00000000 @10
Debug: 1156 185 riscv-013.c:404 scan():  hartsello=82 dmactive -> 
Debug: 1157 185 riscv-013.c:393 scan(): 41b 4i - 00000000 @10 -> + 00520001 @10
Debug: 1158 185 riscv-013.c:404 scan():  ->  hartsello=82 dmactive
Debug: 1159 185 riscv-013.c:393 scan(): 41b 4i r 00000000 @11 -> + 00000000 @10
Debug: 1160 186 riscv-013.c:393 scan(): 41b 4i - 00000000 @11 -> + 00003082 @11
Debug: 1161 186 riscv-013.c:404 scan():  ->  allunavail anyunavail authenticated version=2
Debug: 1162 186 riscv-013.c:393 scan(): 41b 4i r 00000000 @10 -> + 00000000 @11
Debug: 1163 186 riscv-013.c:393 scan(): 41b 4i - 00000000 @10 -> + 00520001 @10
Debug: 1164 186 riscv-013.c:404 scan():  ->  hartsello=82 dmactive
Debug: 1165 187 riscv-013.c:393 scan(): 41b 4i w 00530001 @10 -> + 00000000 @10
Debug: 1166 187 riscv-013.c:404 scan():  hartsello=83 dmactive -> 
Debug: 1167 187 riscv-013.c:393 scan(): 41b 4i - 00000000 @10 -> + 00530001 @10
Debug: 1168 187 riscv-013.c:404 scan():  ->  hartsello=83 dmactive
Debug: 1169 187 riscv-013.c:393 scan(): 41b 4i r 00000000 @11 -> + 00000000 @10
Debug: 1170 188 riscv-013.c:393 scan(): 41b 4i - 00000000 @11 -> + 00003082 @11
Debug: 1171 188 riscv-013.c:404 scan():  ->  allunavail anyunavail authenticated version=2
Debug: 1172 188 riscv-013.c:393 scan(): 41b 4i r 00000000 @10 -> + 00000000 @11
Debug: 1173 188 riscv-013.c:393 scan(): 41b 4i - 00000000 @10 -> + 00530001 @10
Debug: 1174 188 riscv-013.c:404 scan():  ->  hartsello=83 dmactive
Debug: 1175 189 riscv-013.c:393 scan(): 41b 4i w 00540001 @10 -> + 00000000 @10
Debug: 1176 189 riscv-013.c:404 scan():  hartsello=84 dmactive -> 
Debug: 1177 189 riscv-013.c:393 scan(): 41b 4i - 00000000 @10 -> + 00540001 @10
Debug: 1178 189 riscv-013.c:404 scan():  ->  hartsello=84 dmactive
Debug: 1179 189 riscv-013.c:393 scan(): 41b 4i r 00000000 @11 -> + 00000000 @10
Debug: 1180 189 riscv-013.c:393 scan(): 41b 4i - 00000000 @11 -> + 00003082 @11
Debug: 1181 189 riscv-013.c:404 scan():  ->  allunavail anyunavail authenticated version=2
Debug: 1182 190 riscv-013.c:393 scan(): 41b 4i r 00000000 @10 -> + 00000000 @11
Debug: 1183 190 riscv-013.c:393 scan(): 41b 4i - 00000000 @10 -> + 00540001 @10
Debug: 1184 190 riscv-013.c:404 scan():  ->  hartsello=84 dmactive
Debug: 1185 190 riscv-013.c:393 scan(): 41b 4i w 00550001 @10 -> + 00000000 @10
Debug: 1186 190 riscv-013.c:404 scan():  hartsello=85 dmactive -> 
Debug: 1187 191 riscv-013.c:393 scan(): 41b 4i - 00000000 @10 -> + 00550001 @10
Debug: 1188 191 riscv-013.c:404 scan():  ->  hartsello=85 dmactive
Debug: 1189 191 riscv-013.c:393 scan(): 41b 4i r 00000000 @11 -> + 00000000 @10
Debug: 1190 191 riscv-013.c:393 scan(): 41b 4i - 00000000 @11 -> + 00003082 @11
Debug: 1191 191 riscv-013.c:404 scan():  ->  allunavail anyunavail authenticated version=2
Debug: 1192 191 riscv-013.c:393 scan(): 41b 4i r 00000000 @10 -> + 00000000 @11
Debug: 1193 192 riscv-013.c:393 scan(): 41b 4i - 00000000 @10 -> + 00550001 @10
Debug: 1194 192 riscv-013.c:404 scan():  ->  hartsello=85 dmactive
Debug: 1195 192 riscv-013.c:393 scan(): 41b 4i w 00560001 @10 -> + 00000000 @10
Debug: 1196 192 riscv-013.c:404 scan():  hartsello=86 dmactive -> 
Debug: 1197 192 riscv-013.c:393 scan(): 41b 4i - 00000000 @10 -> + 00560001 @10
Debug: 1198 192 riscv-013.c:404 scan():  ->  hartsello=86 dmactive
Debug: 1199 193 riscv-013.c:393 scan(): 41b 4i r 00000000 @11 -> + 00000000 @10
Debug: 1200 193 riscv-013.c:393 scan(): 41b 4i - 00000000 @11 -> + 00003082 @11
Debug: 1201 193 riscv-013.c:404 scan():  ->  allunavail anyunavail authenticated version=2
Debug: 1202 193 riscv-013.c:393 scan(): 41b 4i r 00000000 @10 -> + 00000000 @11
Debug: 1203 193 riscv-013.c:393 scan(): 41b 4i - 00000000 @10 -> + 00560001 @10
Debug: 1204 193 riscv-013.c:404 scan():  ->  hartsello=86 dmactive
Debug: 1205 194 riscv-013.c:393 scan(): 41b 4i w 00570001 @10 -> + 00000000 @10
Debug: 1206 194 riscv-013.c:404 scan():  hartsello=87 dmactive -> 
Debug: 1207 194 riscv-013.c:393 scan(): 41b 4i - 00000000 @10 -> + 00570001 @10
Debug: 1208 194 riscv-013.c:404 scan():  ->  hartsello=87 dmactive
Debug: 1209 195 riscv-013.c:393 scan(): 41b 4i r 00000000 @11 -> + 00000000 @10
Debug: 1210 195 riscv-013.c:393 scan(): 41b 4i - 00000000 @11 -> + 00003082 @11
Debug: 1211 195 riscv-013.c:404 scan():  ->  allunavail anyunavail authenticated version=2
Debug: 1212 195 riscv-013.c:393 scan(): 41b 4i r 00000000 @10 -> + 00000000 @11
Debug: 1213 196 riscv-013.c:393 scan(): 41b 4i - 00000000 @10 -> + 00570001 @10
Debug: 1214 196 riscv-013.c:404 scan():  ->  hartsello=87 dmactive
Debug: 1215 196 riscv-013.c:393 scan(): 41b 4i w 00580001 @10 -> + 00000000 @10
Debug: 1216 196 riscv-013.c:404 scan():  hartsello=88 dmactive -> 
Debug: 1217 196 riscv-013.c:393 scan(): 41b 4i - 00000000 @10 -> + 00580001 @10
Debug: 1218 196 riscv-013.c:404 scan():  ->  hartsello=88 dmactive
Debug: 1219 197 riscv-013.c:393 scan(): 41b 4i r 00000000 @11 -> + 00000000 @10
Debug: 1220 197 riscv-013.c:393 scan(): 41b 4i - 00000000 @11 -> + 00003082 @11
Debug: 1221 197 riscv-013.c:404 scan():  ->  allunavail anyunavail authenticated version=2
Debug: 1222 197 riscv-013.c:393 scan(): 41b 4i r 00000000 @10 -> + 00000000 @11
Debug: 1223 198 riscv-013.c:393 scan(): 41b 4i - 00000000 @10 -> + 00580001 @10
Debug: 1224 198 riscv-013.c:404 scan():  ->  hartsello=88 dmactive
Debug: 1225 198 riscv-013.c:393 scan(): 41b 4i w 00590001 @10 -> + 00000000 @10
Debug: 1226 198 riscv-013.c:404 scan():  hartsello=89 dmactive -> 
Debug: 1227 198 riscv-013.c:393 scan(): 41b 4i - 00000000 @10 -> + 00590001 @10
Debug: 1228 198 riscv-013.c:404 scan():  ->  hartsello=89 dmactive
Debug: 1229 198 riscv-013.c:393 scan(): 41b 4i r 00000000 @11 -> + 00000000 @10
Debug: 1230 199 riscv-013.c:393 scan(): 41b 4i - 00000000 @11 -> + 00003082 @11
Debug: 1231 199 riscv-013.c:404 scan():  ->  allunavail anyunavail authenticated version=2
Debug: 1232 199 riscv-013.c:393 scan(): 41b 4i r 00000000 @10 -> + 00000000 @11
Debug: 1233 199 riscv-013.c:393 scan(): 41b 4i - 00000000 @10 -> + 00590001 @10
Debug: 1234 199 riscv-013.c:404 scan():  ->  hartsello=89 dmactive
Debug: 1235 200 riscv-013.c:393 scan(): 41b 4i w 005a0001 @10 -> + 00000000 @10
Debug: 1236 200 riscv-013.c:404 scan():  hartsello=90 dmactive -> 
Debug: 1237 200 riscv-013.c:393 scan(): 41b 4i - 00000000 @10 -> + 005a0001 @10
Debug: 1238 200 riscv-013.c:404 scan():  ->  hartsello=90 dmactive
Debug: 1239 200 riscv-013.c:393 scan(): 41b 4i r 00000000 @11 -> + 00000000 @10
Debug: 1240 201 riscv-013.c:393 scan(): 41b 4i - 00000000 @11 -> + 00003082 @11
Debug: 1241 201 riscv-013.c:404 scan():  ->  allunavail anyunavail authenticated version=2
Debug: 1242 201 riscv-013.c:393 scan(): 41b 4i r 00000000 @10 -> + 00000000 @11
Debug: 1243 201 riscv-013.c:393 scan(): 41b 4i - 00000000 @10 -> + 005a0001 @10
Debug: 1244 201 riscv-013.c:404 scan():  ->  hartsello=90 dmactive
Debug: 1245 202 riscv-013.c:393 scan(): 41b 4i w 005b0001 @10 -> + 00000000 @10
Debug: 1246 202 riscv-013.c:404 scan():  hartsello=91 dmactive -> 
Debug: 1247 202 riscv-013.c:393 scan(): 41b 4i - 00000000 @10 -> + 005b0001 @10
Debug: 1248 202 riscv-013.c:404 scan():  ->  hartsello=91 dmactive
Debug: 1249 202 riscv-013.c:393 scan(): 41b 4i r 00000000 @11 -> + 00000000 @10
Debug: 1250 202 riscv-013.c:393 scan(): 41b 4i - 00000000 @11 -> + 00003082 @11
Debug: 1251 202 riscv-013.c:404 scan():  ->  allunavail anyunavail authenticated version=2
Debug: 1252 203 riscv-013.c:393 scan(): 41b 4i r 00000000 @10 -> + 00000000 @11
Debug: 1253 203 riscv-013.c:393 scan(): 41b 4i - 00000000 @10 -> + 005b0001 @10
Debug: 1254 203 riscv-013.c:404 scan():  ->  hartsello=91 dmactive
Debug: 1255 203 riscv-013.c:393 scan(): 41b 4i w 005c0001 @10 -> + 00000000 @10
Debug: 1256 203 riscv-013.c:404 scan():  hartsello=92 dmactive -> 
Debug: 1257 204 riscv-013.c:393 scan(): 41b 4i - 00000000 @10 -> + 005c0001 @10
Debug: 1258 204 riscv-013.c:404 scan():  ->  hartsello=92 dmactive
Debug: 1259 204 riscv-013.c:393 scan(): 41b 4i r 00000000 @11 -> + 00000000 @10
Debug: 1260 204 riscv-013.c:393 scan(): 41b 4i - 00000000 @11 -> + 00003082 @11
Debug: 1261 204 riscv-013.c:404 scan():  ->  allunavail anyunavail authenticated version=2
Debug: 1262 205 riscv-013.c:393 scan(): 41b 4i r 00000000 @10 -> + 00000000 @11
Debug: 1263 205 riscv-013.c:393 scan(): 41b 4i - 00000000 @10 -> + 005c0001 @10
Debug: 1264 205 riscv-013.c:404 scan():  ->  hartsello=92 dmactive
Debug: 1265 205 riscv-013.c:393 scan(): 41b 4i w 005d0001 @10 -> + 00000000 @10
Debug: 1266 205 riscv-013.c:404 scan():  hartsello=93 dmactive -> 
Debug: 1267 205 riscv-013.c:393 scan(): 41b 4i - 00000000 @10 -> + 005d0001 @10
Debug: 1268 206 riscv-013.c:404 scan():  ->  hartsello=93 dmactive
Debug: 1269 206 riscv-013.c:393 scan(): 41b 4i r 00000000 @11 -> + 00000000 @10
Debug: 1270 206 riscv-013.c:393 scan(): 41b 4i - 00000000 @11 -> + 00003082 @11
Debug: 1271 206 riscv-013.c:404 scan():  ->  allunavail anyunavail authenticated version=2
Debug: 1272 206 riscv-013.c:393 scan(): 41b 4i r 00000000 @10 -> + 00000000 @11
Debug: 1273 207 riscv-013.c:393 scan(): 41b 4i - 00000000 @10 -> + 005d0001 @10
Debug: 1274 207 riscv-013.c:404 scan():  ->  hartsello=93 dmactive
Debug: 1275 207 riscv-013.c:393 scan(): 41b 4i w 005e0001 @10 -> + 00000000 @10
Debug: 1276 207 riscv-013.c:404 scan():  hartsello=94 dmactive -> 
Debug: 1277 207 riscv-013.c:393 scan(): 41b 4i - 00000000 @10 -> + 005e0001 @10
Debug: 1278 207 riscv-013.c:404 scan():  ->  hartsello=94 dmactive
Debug: 1279 208 riscv-013.c:393 scan(): 41b 4i r 00000000 @11 -> + 00000000 @10
Debug: 1280 208 riscv-013.c:393 scan(): 41b 4i - 00000000 @11 -> + 00003082 @11
Debug: 1281 208 riscv-013.c:404 scan():  ->  allunavail anyunavail authenticated version=2
Debug: 1282 208 riscv-013.c:393 scan(): 41b 4i r 00000000 @10 -> + 00000000 @11
Debug: 1283 208 riscv-013.c:393 scan(): 41b 4i - 00000000 @10 -> + 005e0001 @10
Debug: 1284 208 riscv-013.c:404 scan():  ->  hartsello=94 dmactive
Debug: 1285 209 riscv-013.c:393 scan(): 41b 4i w 005f0001 @10 -> + 00000000 @10
Debug: 1286 209 riscv-013.c:404 scan():  hartsello=95 dmactive -> 
Debug: 1287 209 riscv-013.c:393 scan(): 41b 4i - 00000000 @10 -> + 005f0001 @10
Debug: 1288 209 riscv-013.c:404 scan():  ->  hartsello=95 dmactive
Debug: 1289 209 riscv-013.c:393 scan(): 41b 4i r 00000000 @11 -> + 00000000 @10
Debug: 1290 210 riscv-013.c:393 scan(): 41b 4i - 00000000 @11 -> + 00003082 @11
Debug: 1291 210 riscv-013.c:404 scan():  ->  allunavail anyunavail authenticated version=2
Debug: 1292 210 riscv-013.c:393 scan(): 41b 4i r 00000000 @10 -> + 00000000 @11
Debug: 1293 210 riscv-013.c:393 scan(): 41b 4i - 00000000 @10 -> + 005f0001 @10
Debug: 1294 210 riscv-013.c:404 scan():  ->  hartsello=95 dmactive
Debug: 1295 211 riscv-013.c:393 scan(): 41b 4i w 00600001 @10 -> + 00000000 @10
Debug: 1296 211 riscv-013.c:404 scan():  hartsello=96 dmactive -> 
Debug: 1297 211 riscv-013.c:393 scan(): 41b 4i - 00000000 @10 -> + 00600001 @10
Debug: 1298 211 riscv-013.c:404 scan():  ->  hartsello=96 dmactive
Debug: 1299 211 riscv-013.c:393 scan(): 41b 4i r 00000000 @11 -> + 00000000 @10
Debug: 1300 211 riscv-013.c:393 scan(): 41b 4i - 00000000 @11 -> + 00003082 @11
Debug: 1301 211 riscv-013.c:404 scan():  ->  allunavail anyunavail authenticated version=2
Debug: 1302 212 riscv-013.c:393 scan(): 41b 4i r 00000000 @10 -> + 00000000 @11
Debug: 1303 212 riscv-013.c:393 scan(): 41b 4i - 00000000 @10 -> + 00600001 @10
Debug: 1304 212 riscv-013.c:404 scan():  ->  hartsello=96 dmactive
Debug: 1305 212 riscv-013.c:393 scan(): 41b 4i w 00610001 @10 -> + 00000000 @10
Debug: 1306 212 riscv-013.c:404 scan():  hartsello=97 dmactive -> 
Debug: 1307 212 riscv-013.c:393 scan(): 41b 4i - 00000000 @10 -> + 00610001 @10
Debug: 1308 212 riscv-013.c:404 scan():  ->  hartsello=97 dmactive
Debug: 1309 213 riscv-013.c:393 scan(): 41b 4i r 00000000 @11 -> + 00000000 @10
Debug: 1310 213 riscv-013.c:393 scan(): 41b 4i - 00000000 @11 -> + 00003082 @11
Debug: 1311 213 riscv-013.c:404 scan():  ->  allunavail anyunavail authenticated version=2
Debug: 1312 213 riscv-013.c:393 scan(): 41b 4i r 00000000 @10 -> + 00000000 @11
Debug: 1313 214 riscv-013.c:393 scan(): 41b 4i - 00000000 @10 -> + 00610001 @10
Debug: 1314 214 riscv-013.c:404 scan():  ->  hartsello=97 dmactive
Debug: 1315 214 riscv-013.c:393 scan(): 41b 4i w 00620001 @10 -> + 00000000 @10
Debug: 1316 214 riscv-013.c:404 scan():  hartsello=98 dmactive -> 
Debug: 1317 214 riscv-013.c:393 scan(): 41b 4i - 00000000 @10 -> + 00620001 @10
Debug: 1318 214 riscv-013.c:404 scan():  ->  hartsello=98 dmactive
Debug: 1319 215 riscv-013.c:393 scan(): 41b 4i r 00000000 @11 -> + 00000000 @10
Debug: 1320 215 riscv-013.c:393 scan(): 41b 4i - 00000000 @11 -> + 00003082 @11
Debug: 1321 215 riscv-013.c:404 scan():  ->  allunavail anyunavail authenticated version=2
Debug: 1322 215 riscv-013.c:393 scan(): 41b 4i r 00000000 @10 -> + 00000000 @11
Debug: 1323 215 riscv-013.c:393 scan(): 41b 4i - 00000000 @10 -> + 00620001 @10
Debug: 1324 215 riscv-013.c:404 scan():  ->  hartsello=98 dmactive
Debug: 1325 216 riscv-013.c:393 scan(): 41b 4i w 00630001 @10 -> + 00000000 @10
Debug: 1326 216 riscv-013.c:404 scan():  hartsello=99 dmactive -> 
Debug: 1327 216 riscv-013.c:393 scan(): 41b 4i - 00000000 @10 -> + 00630001 @10
Debug: 1328 216 riscv-013.c:404 scan():  ->  hartsello=99 dmactive
Debug: 1329 216 riscv-013.c:393 scan(): 41b 4i r 00000000 @11 -> + 00000000 @10
Debug: 1330 217 riscv-013.c:393 scan(): 41b 4i - 00000000 @11 -> + 00003082 @11
Debug: 1331 217 riscv-013.c:404 scan():  ->  allunavail anyunavail authenticated version=2
Debug: 1332 217 riscv-013.c:393 scan(): 41b 4i r 00000000 @10 -> + 00000000 @11
Debug: 1333 217 riscv-013.c:393 scan(): 41b 4i - 00000000 @10 -> + 00630001 @10
Debug: 1334 217 riscv-013.c:404 scan():  ->  hartsello=99 dmactive
Debug: 1335 218 riscv-013.c:393 scan(): 41b 4i w 00640001 @10 -> + 00000000 @10
Debug: 1336 218 riscv-013.c:404 scan():  hartsello=100 dmactive -> 
Debug: 1337 218 riscv-013.c:393 scan(): 41b 4i - 00000000 @10 -> + 00640001 @10
Debug: 1338 218 riscv-013.c:404 scan():  ->  hartsello=100 dmactive
Debug: 1339 218 riscv-013.c:393 scan(): 41b 4i r 00000000 @11 -> + 00000000 @10
Debug: 1340 218 riscv-013.c:393 scan(): 41b 4i - 00000000 @11 -> + 00003082 @11
Debug: 1341 218 riscv-013.c:404 scan():  ->  allunavail anyunavail authenticated version=2
Debug: 1342 219 riscv-013.c:393 scan(): 41b 4i r 00000000 @10 -> + 00000000 @11
Debug: 1343 219 riscv-013.c:393 scan(): 41b 4i - 00000000 @10 -> + 00640001 @10
Debug: 1344 219 riscv-013.c:404 scan():  ->  hartsello=100 dmactive
Debug: 1345 219 riscv-013.c:393 scan(): 41b 4i w 00650001 @10 -> + 00000000 @10
Debug: 1346 219 riscv-013.c:404 scan():  hartsello=101 dmactive -> 
Debug: 1347 220 riscv-013.c:393 scan(): 41b 4i - 00000000 @10 -> + 00650001 @10
Debug: 1348 220 riscv-013.c:404 scan():  ->  hartsello=101 dmactive
Debug: 1349 220 riscv-013.c:393 scan(): 41b 4i r 00000000 @11 -> + 00000000 @10
Debug: 1350 220 riscv-013.c:393 scan(): 41b 4i - 00000000 @11 -> + 00003082 @11
Debug: 1351 220 riscv-013.c:404 scan():  ->  allunavail anyunavail authenticated version=2
Debug: 1352 221 riscv-013.c:393 scan(): 41b 4i r 00000000 @10 -> + 00000000 @11
Debug: 1353 221 riscv-013.c:393 scan(): 41b 4i - 00000000 @10 -> + 00650001 @10
Debug: 1354 221 riscv-013.c:404 scan():  ->  hartsello=101 dmactive
Debug: 1355 221 riscv-013.c:393 scan(): 41b 4i w 00660001 @10 -> + 00000000 @10
Debug: 1356 221 riscv-013.c:404 scan():  hartsello=102 dmactive -> 
Debug: 1357 221 riscv-013.c:393 scan(): 41b 4i - 00000000 @10 -> + 00660001 @10
Debug: 1358 222 riscv-013.c:404 scan():  ->  hartsello=102 dmactive
Debug: 1359 222 riscv-013.c:393 scan(): 41b 4i r 00000000 @11 -> + 00000000 @10
Debug: 1360 222 riscv-013.c:393 scan(): 41b 4i - 00000000 @11 -> + 00003082 @11
Debug: 1361 222 riscv-013.c:404 scan():  ->  allunavail anyunavail authenticated version=2
Debug: 1362 222 riscv-013.c:393 scan(): 41b 4i r 00000000 @10 -> + 00000000 @11
Debug: 1363 223 riscv-013.c:393 scan(): 41b 4i - 00000000 @10 -> + 00660001 @10
Debug: 1364 223 riscv-013.c:404 scan():  ->  hartsello=102 dmactive
Debug: 1365 223 riscv-013.c:393 scan(): 41b 4i w 00670001 @10 -> + 00000000 @10
Debug: 1366 223 riscv-013.c:404 scan():  hartsello=103 dmactive -> 
Debug: 1367 223 riscv-013.c:393 scan(): 41b 4i - 00000000 @10 -> + 00670001 @10
Debug: 1368 223 riscv-013.c:404 scan():  ->  hartsello=103 dmactive
Debug: 1369 224 riscv-013.c:393 scan(): 41b 4i r 00000000 @11 -> + 00000000 @10
Debug: 1370 224 riscv-013.c:393 scan(): 41b 4i - 00000000 @11 -> + 00003082 @11
Debug: 1371 224 riscv-013.c:404 scan():  ->  allunavail anyunavail authenticated version=2
Debug: 1372 224 riscv-013.c:393 scan(): 41b 4i r 00000000 @10 -> + 00000000 @11
Debug: 1373 225 riscv-013.c:393 scan(): 41b 4i - 00000000 @10 -> + 00670001 @10
Debug: 1374 225 riscv-013.c:404 scan():  ->  hartsello=103 dmactive
Debug: 1375 225 riscv-013.c:393 scan(): 41b 4i w 00680001 @10 -> + 00000000 @10
Debug: 1376 225 riscv-013.c:404 scan():  hartsello=104 dmactive -> 
Debug: 1377 225 riscv-013.c:393 scan(): 41b 4i - 00000000 @10 -> + 00680001 @10
Debug: 1378 225 riscv-013.c:404 scan():  ->  hartsello=104 dmactive
Debug: 1379 225 riscv-013.c:393 scan(): 41b 4i r 00000000 @11 -> + 00000000 @10
Debug: 1380 226 riscv-013.c:393 scan(): 41b 4i - 00000000 @11 -> + 00003082 @11
Debug: 1381 226 riscv-013.c:404 scan():  ->  allunavail anyunavail authenticated version=2
Debug: 1382 226 riscv-013.c:393 scan(): 41b 4i r 00000000 @10 -> + 00000000 @11
Debug: 1383 226 riscv-013.c:393 scan(): 41b 4i - 00000000 @10 -> + 00680001 @10
Debug: 1384 226 riscv-013.c:404 scan():  ->  hartsello=104 dmactive
Debug: 1385 227 riscv-013.c:393 scan(): 41b 4i w 00690001 @10 -> + 00000000 @10
Debug: 1386 227 riscv-013.c:404 scan():  hartsello=105 dmactive -> 
Debug: 1387 227 riscv-013.c:393 scan(): 41b 4i - 00000000 @10 -> + 00690001 @10
Debug: 1388 227 riscv-013.c:404 scan():  ->  hartsello=105 dmactive
Debug: 1389 227 riscv-013.c:393 scan(): 41b 4i r 00000000 @11 -> + 00000000 @10
Debug: 1390 227 riscv-013.c:393 scan(): 41b 4i - 00000000 @11 -> + 00003082 @11
Debug: 1391 227 riscv-013.c:404 scan():  ->  allunavail anyunavail authenticated version=2
Debug: 1392 228 riscv-013.c:393 scan(): 41b 4i r 00000000 @10 -> + 00000000 @11
Debug: 1393 228 riscv-013.c:393 scan(): 41b 4i - 00000000 @10 -> + 00690001 @10
Debug: 1394 228 riscv-013.c:404 scan():  ->  hartsello=105 dmactive
Debug: 1395 228 riscv-013.c:393 scan(): 41b 4i w 006a0001 @10 -> + 00000000 @10
Debug: 1396 228 riscv-013.c:404 scan():  hartsello=106 dmactive -> 
Debug: 1397 228 riscv-013.c:393 scan(): 41b 4i - 00000000 @10 -> + 006a0001 @10
Debug: 1398 228 riscv-013.c:404 scan():  ->  hartsello=106 dmactive
Debug: 1399 229 riscv-013.c:393 scan(): 41b 4i r 00000000 @11 -> + 00000000 @10
Debug: 1400 229 riscv-013.c:393 scan(): 41b 4i - 00000000 @11 -> + 00003082 @11
Debug: 1401 229 riscv-013.c:404 scan():  ->  allunavail anyunavail authenticated version=2
Debug: 1402 229 riscv-013.c:393 scan(): 41b 4i r 00000000 @10 -> + 00000000 @11
Debug: 1403 229 riscv-013.c:393 scan(): 41b 4i - 00000000 @10 -> + 006a0001 @10
Debug: 1404 229 riscv-013.c:404 scan():  ->  hartsello=106 dmactive
Debug: 1405 230 riscv-013.c:393 scan(): 41b 4i w 006b0001 @10 -> + 00000000 @10
Debug: 1406 230 riscv-013.c:404 scan():  hartsello=107 dmactive -> 
Debug: 1407 230 riscv-013.c:393 scan(): 41b 4i - 00000000 @10 -> + 006b0001 @10
Debug: 1408 230 riscv-013.c:404 scan():  ->  hartsello=107 dmactive
Debug: 1409 230 riscv-013.c:393 scan(): 41b 4i r 00000000 @11 -> + 00000000 @10
Debug: 1410 230 riscv-013.c:393 scan(): 41b 4i - 00000000 @11 -> + 00003082 @11
Debug: 1411 230 riscv-013.c:404 scan():  ->  allunavail anyunavail authenticated version=2
Debug: 1412 231 riscv-013.c:393 scan(): 41b 4i r 00000000 @10 -> + 00000000 @11
Debug: 1413 231 riscv-013.c:393 scan(): 41b 4i - 00000000 @10 -> + 006b0001 @10
Debug: 1414 231 riscv-013.c:404 scan():  ->  hartsello=107 dmactive
Debug: 1415 231 riscv-013.c:393 scan(): 41b 4i w 006c0001 @10 -> + 00000000 @10
Debug: 1416 231 riscv-013.c:404 scan():  hartsello=108 dmactive -> 
Debug: 1417 231 riscv-013.c:393 scan(): 41b 4i - 00000000 @10 -> + 006c0001 @10
Debug: 1418 232 riscv-013.c:404 scan():  ->  hartsello=108 dmactive
Debug: 1419 232 riscv-013.c:393 scan(): 41b 4i r 00000000 @11 -> + 00000000 @10
Debug: 1420 232 riscv-013.c:393 scan(): 41b 4i - 00000000 @11 -> + 00003082 @11
Debug: 1421 232 riscv-013.c:404 scan():  ->  allunavail anyunavail authenticated version=2
Debug: 1422 232 riscv-013.c:393 scan(): 41b 4i r 00000000 @10 -> + 00000000 @11
Debug: 1423 233 riscv-013.c:393 scan(): 41b 4i - 00000000 @10 -> + 006c0001 @10
Debug: 1424 233 riscv-013.c:404 scan():  ->  hartsello=108 dmactive
Debug: 1425 233 riscv-013.c:393 scan(): 41b 4i w 006d0001 @10 -> + 00000000 @10
Debug: 1426 233 riscv-013.c:404 scan():  hartsello=109 dmactive -> 
Debug: 1427 233 riscv-013.c:393 scan(): 41b 4i - 00000000 @10 -> + 006d0001 @10
Debug: 1428 233 riscv-013.c:404 scan():  ->  hartsello=109 dmactive
Debug: 1429 233 riscv-013.c:393 scan(): 41b 4i r 00000000 @11 -> + 00000000 @10
Debug: 1430 234 riscv-013.c:393 scan(): 41b 4i - 00000000 @11 -> + 00003082 @11
Debug: 1431 234 riscv-013.c:404 scan():  ->  allunavail anyunavail authenticated version=2
Debug: 1432 234 riscv-013.c:393 scan(): 41b 4i r 00000000 @10 -> + 00000000 @11
Debug: 1433 234 riscv-013.c:393 scan(): 41b 4i - 00000000 @10 -> + 006d0001 @10
Debug: 1434 234 riscv-013.c:404 scan():  ->  hartsello=109 dmactive
Debug: 1435 235 riscv-013.c:393 scan(): 41b 4i w 006e0001 @10 -> + 00000000 @10
Debug: 1436 235 riscv-013.c:404 scan():  hartsello=110 dmactive -> 
Debug: 1437 235 riscv-013.c:393 scan(): 41b 4i - 00000000 @10 -> + 006e0001 @10
Debug: 1438 235 riscv-013.c:404 scan():  ->  hartsello=110 dmactive
Debug: 1439 235 riscv-013.c:393 scan(): 41b 4i r 00000000 @11 -> + 00000000 @10
Debug: 1440 236 riscv-013.c:393 scan(): 41b 4i - 00000000 @11 -> + 00003082 @11
Debug: 1441 236 riscv-013.c:404 scan():  ->  allunavail anyunavail authenticated version=2
Debug: 1442 236 riscv-013.c:393 scan(): 41b 4i r 00000000 @10 -> + 00000000 @11
Debug: 1443 236 riscv-013.c:393 scan(): 41b 4i - 00000000 @10 -> + 006e0001 @10
Debug: 1444 236 riscv-013.c:404 scan():  ->  hartsello=110 dmactive
Debug: 1445 236 riscv-013.c:393 scan(): 41b 4i w 006f0001 @10 -> + 00000000 @10
Debug: 1446 236 riscv-013.c:404 scan():  hartsello=111 dmactive -> 
Debug: 1447 237 riscv-013.c:393 scan(): 41b 4i - 00000000 @10 -> + 006f0001 @10
Debug: 1448 237 riscv-013.c:404 scan():  ->  hartsello=111 dmactive
Debug: 1449 237 riscv-013.c:393 scan(): 41b 4i r 00000000 @11 -> + 00000000 @10
Debug: 1450 237 riscv-013.c:393 scan(): 41b 4i - 00000000 @11 -> + 00003082 @11
Debug: 1451 237 riscv-013.c:404 scan():  ->  allunavail anyunavail authenticated version=2
Debug: 1452 237 riscv-013.c:393 scan(): 41b 4i r 00000000 @10 -> + 00000000 @11
Debug: 1453 238 riscv-013.c:393 scan(): 41b 4i - 00000000 @10 -> + 006f0001 @10
Debug: 1454 238 riscv-013.c:404 scan():  ->  hartsello=111 dmactive
Debug: 1455 238 riscv-013.c:393 scan(): 41b 4i w 00700001 @10 -> + 00000000 @10
Debug: 1456 238 riscv-013.c:404 scan():  hartsello=112 dmactive -> 
Debug: 1457 238 riscv-013.c:393 scan(): 41b 4i - 00000000 @10 -> + 00700001 @10
Debug: 1458 238 riscv-013.c:404 scan():  ->  hartsello=112 dmactive
Debug: 1459 238 riscv-013.c:393 scan(): 41b 4i r 00000000 @11 -> + 00000000 @10
Debug: 1460 239 riscv-013.c:393 scan(): 41b 4i - 00000000 @11 -> + 00003082 @11
Debug: 1461 239 riscv-013.c:404 scan():  ->  allunavail anyunavail authenticated version=2
Debug: 1462 239 riscv-013.c:393 scan(): 41b 4i r 00000000 @10 -> + 00000000 @11
Debug: 1463 239 riscv-013.c:393 scan(): 41b 4i - 00000000 @10 -> + 00700001 @10
Debug: 1464 239 riscv-013.c:404 scan():  ->  hartsello=112 dmactive
Debug: 1465 239 riscv-013.c:393 scan(): 41b 4i w 00710001 @10 -> + 00000000 @10
Debug: 1466 239 riscv-013.c:404 scan():  hartsello=113 dmactive -> 
Debug: 1467 240 riscv-013.c:393 scan(): 41b 4i - 00000000 @10 -> + 00710001 @10
Debug: 1468 240 riscv-013.c:404 scan():  ->  hartsello=113 dmactive
Debug: 1469 240 riscv-013.c:393 scan(): 41b 4i r 00000000 @11 -> + 00000000 @10
Debug: 1470 240 riscv-013.c:393 scan(): 41b 4i - 00000000 @11 -> + 00003082 @11
Debug: 1471 240 riscv-013.c:404 scan():  ->  allunavail anyunavail authenticated version=2
Debug: 1472 240 riscv-013.c:393 scan(): 41b 4i r 00000000 @10 -> + 00000000 @11
Debug: 1473 240 riscv-013.c:393 scan(): 41b 4i - 00000000 @10 -> + 00710001 @10
Debug: 1474 241 riscv-013.c:404 scan():  ->  hartsello=113 dmactive
Debug: 1475 241 riscv-013.c:393 scan(): 41b 4i w 00720001 @10 -> + 00000000 @10
Debug: 1476 241 riscv-013.c:404 scan():  hartsello=114 dmactive -> 
Debug: 1477 241 riscv-013.c:393 scan(): 41b 4i - 00000000 @10 -> + 00720001 @10
Debug: 1478 241 riscv-013.c:404 scan():  ->  hartsello=114 dmactive
Debug: 1479 241 riscv-013.c:393 scan(): 41b 4i r 00000000 @11 -> + 00000000 @10
Debug: 1480 242 riscv-013.c:393 scan(): 41b 4i - 00000000 @11 -> + 00003082 @11
Debug: 1481 242 riscv-013.c:404 scan():  ->  allunavail anyunavail authenticated version=2
Debug: 1482 242 riscv-013.c:393 scan(): 41b 4i r 00000000 @10 -> + 00000000 @11
Debug: 1483 242 riscv-013.c:393 scan(): 41b 4i - 00000000 @10 -> + 00720001 @10
Debug: 1484 242 riscv-013.c:404 scan():  ->  hartsello=114 dmactive
Debug: 1485 242 riscv-013.c:393 scan(): 41b 4i w 00730001 @10 -> + 00000000 @10
Debug: 1486 242 riscv-013.c:404 scan():  hartsello=115 dmactive -> 
Debug: 1487 243 riscv-013.c:393 scan(): 41b 4i - 00000000 @10 -> + 00730001 @10
Debug: 1488 243 riscv-013.c:404 scan():  ->  hartsello=115 dmactive
Debug: 1489 243 riscv-013.c:393 scan(): 41b 4i r 00000000 @11 -> + 00000000 @10
Debug: 1490 243 riscv-013.c:393 scan(): 41b 4i - 00000000 @11 -> + 00003082 @11
Debug: 1491 243 riscv-013.c:404 scan():  ->  allunavail anyunavail authenticated version=2
Debug: 1492 243 riscv-013.c:393 scan(): 41b 4i r 00000000 @10 -> + 00000000 @11
Debug: 1493 244 riscv-013.c:393 scan(): 41b 4i - 00000000 @10 -> + 00730001 @10
Debug: 1494 244 riscv-013.c:404 scan():  ->  hartsello=115 dmactive
Debug: 1495 244 riscv-013.c:393 scan(): 41b 4i w 00740001 @10 -> + 00000000 @10
Debug: 1496 244 riscv-013.c:404 scan():  hartsello=116 dmactive -> 
Debug: 1497 244 riscv-013.c:393 scan(): 41b 4i - 00000000 @10 -> + 00740001 @10
Debug: 1498 244 riscv-013.c:404 scan():  ->  hartsello=116 dmactive
Debug: 1499 244 riscv-013.c:393 scan(): 41b 4i r 00000000 @11 -> + 00000000 @10
Debug: 1500 245 riscv-013.c:393 scan(): 41b 4i - 00000000 @11 -> + 00003082 @11
Debug: 1501 245 riscv-013.c:404 scan():  ->  allunavail anyunavail authenticated version=2
Debug: 1502 245 riscv-013.c:393 scan(): 41b 4i r 00000000 @10 -> + 00000000 @11
Debug: 1503 245 riscv-013.c:393 scan(): 41b 4i - 00000000 @10 -> + 00740001 @10
Debug: 1504 245 riscv-013.c:404 scan():  ->  hartsello=116 dmactive
Debug: 1505 245 riscv-013.c:393 scan(): 41b 4i w 00750001 @10 -> + 00000000 @10
Debug: 1506 245 riscv-013.c:404 scan():  hartsello=117 dmactive -> 
Debug: 1507 246 riscv-013.c:393 scan(): 41b 4i - 00000000 @10 -> + 00750001 @10
Debug: 1508 246 riscv-013.c:404 scan():  ->  hartsello=117 dmactive
Debug: 1509 246 riscv-013.c:393 scan(): 41b 4i r 00000000 @11 -> + 00000000 @10
Debug: 1510 246 riscv-013.c:393 scan(): 41b 4i - 00000000 @11 -> + 00003082 @11
Debug: 1511 246 riscv-013.c:404 scan():  ->  allunavail anyunavail authenticated version=2
Debug: 1512 246 riscv-013.c:393 scan(): 41b 4i r 00000000 @10 -> + 00000000 @11
Debug: 1513 247 riscv-013.c:393 scan(): 41b 4i - 00000000 @10 -> + 00750001 @10
Debug: 1514 247 riscv-013.c:404 scan():  ->  hartsello=117 dmactive
Debug: 1515 247 riscv-013.c:393 scan(): 41b 4i w 00760001 @10 -> + 00000000 @10
Debug: 1516 247 riscv-013.c:404 scan():  hartsello=118 dmactive -> 
Debug: 1517 247 riscv-013.c:393 scan(): 41b 4i - 00000000 @10 -> + 00760001 @10
Debug: 1518 247 riscv-013.c:404 scan():  ->  hartsello=118 dmactive
Debug: 1519 247 riscv-013.c:393 scan(): 41b 4i r 00000000 @11 -> + 00000000 @10
Debug: 1520 248 riscv-013.c:393 scan(): 41b 4i - 00000000 @11 -> + 00003082 @11
Debug: 1521 248 riscv-013.c:404 scan():  ->  allunavail anyunavail authenticated version=2
Debug: 1522 248 riscv-013.c:393 scan(): 41b 4i r 00000000 @10 -> + 00000000 @11
Debug: 1523 248 riscv-013.c:393 scan(): 41b 4i - 00000000 @10 -> + 00760001 @10
Debug: 1524 248 riscv-013.c:404 scan():  ->  hartsello=118 dmactive
Debug: 1525 248 riscv-013.c:393 scan(): 41b 4i w 00770001 @10 -> + 00000000 @10
Debug: 1526 248 riscv-013.c:404 scan():  hartsello=119 dmactive -> 
Debug: 1527 249 riscv-013.c:393 scan(): 41b 4i - 00000000 @10 -> + 00770001 @10
Debug: 1528 249 riscv-013.c:404 scan():  ->  hartsello=119 dmactive
Debug: 1529 249 riscv-013.c:393 scan(): 41b 4i r 00000000 @11 -> + 00000000 @10
Debug: 1530 249 riscv-013.c:393 scan(): 41b 4i - 00000000 @11 -> + 00003082 @11
Debug: 1531 249 riscv-013.c:404 scan():  ->  allunavail anyunavail authenticated version=2
Debug: 1532 249 riscv-013.c:393 scan(): 41b 4i r 00000000 @10 -> + 00000000 @11
Debug: 1533 250 riscv-013.c:393 scan(): 41b 4i - 00000000 @10 -> + 00770001 @10
Debug: 1534 250 riscv-013.c:404 scan():  ->  hartsello=119 dmactive
Debug: 1535 250 riscv-013.c:393 scan(): 41b 4i w 00780001 @10 -> + 00000000 @10
Debug: 1536 250 riscv-013.c:404 scan():  hartsello=120 dmactive -> 
Debug: 1537 250 riscv-013.c:393 scan(): 41b 4i - 00000000 @10 -> + 00780001 @10
Debug: 1538 250 riscv-013.c:404 scan():  ->  hartsello=120 dmactive
Debug: 1539 250 riscv-013.c:393 scan(): 41b 4i r 00000000 @11 -> + 00000000 @10
Debug: 1540 251 riscv-013.c:393 scan(): 41b 4i - 00000000 @11 -> + 00003082 @11
Debug: 1541 251 riscv-013.c:404 scan():  ->  allunavail anyunavail authenticated version=2
Debug: 1542 251 riscv-013.c:393 scan(): 41b 4i r 00000000 @10 -> + 00000000 @11
Debug: 1543 251 riscv-013.c:393 scan(): 41b 4i - 00000000 @10 -> + 00780001 @10
Debug: 1544 251 riscv-013.c:404 scan():  ->  hartsello=120 dmactive
Debug: 1545 251 riscv-013.c:393 scan(): 41b 4i w 00790001 @10 -> + 00000000 @10
Debug: 1546 251 riscv-013.c:404 scan():  hartsello=121 dmactive -> 
Debug: 1547 251 riscv-013.c:393 scan(): 41b 4i - 00000000 @10 -> + 00790001 @10
Debug: 1548 251 riscv-013.c:404 scan():  ->  hartsello=121 dmactive
Debug: 1549 252 riscv-013.c:393 scan(): 41b 4i r 00000000 @11 -> + 00000000 @10
Debug: 1550 252 riscv-013.c:393 scan(): 41b 4i - 00000000 @11 -> + 00003082 @11
Debug: 1551 252 riscv-013.c:404 scan():  ->  allunavail anyunavail authenticated version=2
Debug: 1552 252 riscv-013.c:393 scan(): 41b 4i r 00000000 @10 -> + 00000000 @11
Debug: 1553 252 riscv-013.c:393 scan(): 41b 4i - 00000000 @10 -> + 00790001 @10
Debug: 1554 252 riscv-013.c:404 scan():  ->  hartsello=121 dmactive
Debug: 1555 253 riscv-013.c:393 scan(): 41b 4i w 007a0001 @10 -> + 00000000 @10
Debug: 1556 253 riscv-013.c:404 scan():  hartsello=122 dmactive -> 
Debug: 1557 253 riscv-013.c:393 scan(): 41b 4i - 00000000 @10 -> + 007a0001 @10
Debug: 1558 253 riscv-013.c:404 scan():  ->  hartsello=122 dmactive
Debug: 1559 253 riscv-013.c:393 scan(): 41b 4i r 00000000 @11 -> + 00000000 @10
Debug: 1560 254 riscv-013.c:393 scan(): 41b 4i - 00000000 @11 -> + 00003082 @11
Debug: 1561 254 riscv-013.c:404 scan():  ->  allunavail anyunavail authenticated version=2
Debug: 1562 254 riscv-013.c:393 scan(): 41b 4i r 00000000 @10 -> + 00000000 @11
Debug: 1563 254 riscv-013.c:393 scan(): 41b 4i - 00000000 @10 -> + 007a0001 @10
Debug: 1564 254 riscv-013.c:404 scan():  ->  hartsello=122 dmactive
Debug: 1565 254 riscv-013.c:393 scan(): 41b 4i w 007b0001 @10 -> + 00000000 @10
Debug: 1566 254 riscv-013.c:404 scan():  hartsello=123 dmactive -> 
Debug: 1567 255 riscv-013.c:393 scan(): 41b 4i - 00000000 @10 -> + 007b0001 @10
Debug: 1568 255 riscv-013.c:404 scan():  ->  hartsello=123 dmactive
Debug: 1569 255 riscv-013.c:393 scan(): 41b 4i r 00000000 @11 -> + 00000000 @10
Debug: 1570 255 riscv-013.c:393 scan(): 41b 4i - 00000000 @11 -> + 00003082 @11
Debug: 1571 255 riscv-013.c:404 scan():  ->  allunavail anyunavail authenticated version=2
Debug: 1572 255 riscv-013.c:393 scan(): 41b 4i r 00000000 @10 -> + 00000000 @11
Debug: 1573 256 riscv-013.c:393 scan(): 41b 4i - 00000000 @10 -> + 007b0001 @10
Debug: 1574 256 riscv-013.c:404 scan():  ->  hartsello=123 dmactive
Debug: 1575 256 riscv-013.c:393 scan(): 41b 4i w 007c0001 @10 -> + 00000000 @10
Debug: 1576 256 riscv-013.c:404 scan():  hartsello=124 dmactive -> 
Debug: 1577 256 riscv-013.c:393 scan(): 41b 4i - 00000000 @10 -> + 007c0001 @10
Debug: 1578 256 riscv-013.c:404 scan():  ->  hartsello=124 dmactive
Debug: 1579 256 riscv-013.c:393 scan(): 41b 4i r 00000000 @11 -> + 00000000 @10
Debug: 1580 257 riscv-013.c:393 scan(): 41b 4i - 00000000 @11 -> + 00003082 @11
Debug: 1581 257 riscv-013.c:404 scan():  ->  allunavail anyunavail authenticated version=2
Debug: 1582 257 riscv-013.c:393 scan(): 41b 4i r 00000000 @10 -> + 00000000 @11
Debug: 1583 257 riscv-013.c:393 scan(): 41b 4i - 00000000 @10 -> + 007c0001 @10
Debug: 1584 257 riscv-013.c:404 scan():  ->  hartsello=124 dmactive
Debug: 1585 257 riscv-013.c:393 scan(): 41b 4i w 007d0001 @10 -> + 00000000 @10
Debug: 1586 257 riscv-013.c:404 scan():  hartsello=125 dmactive -> 
Debug: 1587 258 riscv-013.c:393 scan(): 41b 4i - 00000000 @10 -> + 007d0001 @10
Debug: 1588 258 riscv-013.c:404 scan():  ->  hartsello=125 dmactive
Debug: 1589 258 riscv-013.c:393 scan(): 41b 4i r 00000000 @11 -> + 00000000 @10
Debug: 1590 258 riscv-013.c:393 scan(): 41b 4i - 00000000 @11 -> + 00003082 @11
Debug: 1591 258 riscv-013.c:404 scan():  ->  allunavail anyunavail authenticated version=2
Debug: 1592 258 riscv-013.c:393 scan(): 41b 4i r 00000000 @10 -> + 00000000 @11
Debug: 1593 259 riscv-013.c:393 scan(): 41b 4i - 00000000 @10 -> + 007d0001 @10
Debug: 1594 259 riscv-013.c:404 scan():  ->  hartsello=125 dmactive
Debug: 1595 259 riscv-013.c:393 scan(): 41b 4i w 007e0001 @10 -> + 00000000 @10
Debug: 1596 259 riscv-013.c:404 scan():  hartsello=126 dmactive -> 
Debug: 1597 259 riscv-013.c:393 scan(): 41b 4i - 00000000 @10 -> + 007e0001 @10
Debug: 1598 259 riscv-013.c:404 scan():  ->  hartsello=126 dmactive
Debug: 1599 259 riscv-013.c:393 scan(): 41b 4i r 00000000 @11 -> + 00000000 @10
Debug: 1600 260 riscv-013.c:393 scan(): 41b 4i - 00000000 @11 -> + 00003082 @11
Debug: 1601 260 riscv-013.c:404 scan():  ->  allunavail anyunavail authenticated version=2
Debug: 1602 260 riscv-013.c:393 scan(): 41b 4i r 00000000 @10 -> + 00000000 @11
Debug: 1603 260 riscv-013.c:393 scan(): 41b 4i - 00000000 @10 -> + 007e0001 @10
Debug: 1604 260 riscv-013.c:404 scan():  ->  hartsello=126 dmactive
Debug: 1605 260 riscv-013.c:393 scan(): 41b 4i w 007f0001 @10 -> + 00000000 @10
Debug: 1606 260 riscv-013.c:404 scan():  hartsello=127 dmactive -> 
Debug: 1607 261 riscv-013.c:393 scan(): 41b 4i - 00000000 @10 -> + 007f0001 @10
Debug: 1608 261 riscv-013.c:404 scan():  ->  hartsello=127 dmactive
Debug: 1609 261 riscv-013.c:393 scan(): 41b 4i r 00000000 @11 -> + 00000000 @10
Debug: 1610 261 riscv-013.c:393 scan(): 41b 4i - 00000000 @11 -> + 00003082 @11
Debug: 1611 261 riscv-013.c:404 scan():  ->  allunavail anyunavail authenticated version=2
Debug: 1612 261 riscv-013.c:393 scan(): 41b 4i r 00000000 @10 -> + 00000000 @11
Debug: 1613 261 riscv-013.c:393 scan(): 41b 4i - 00000000 @10 -> + 007f0001 @10
Debug: 1614 261 riscv-013.c:404 scan():  ->  hartsello=127 dmactive
Debug: 1615 262 riscv-013.c:393 scan(): 41b 4i w 00800001 @10 -> + 00000000 @10
Debug: 1616 262 riscv-013.c:404 scan():  hartsello=128 dmactive -> 
Debug: 1617 262 riscv-013.c:393 scan(): 41b 4i - 00000000 @10 -> + 00800001 @10
Debug: 1618 262 riscv-013.c:404 scan():  ->  hartsello=128 dmactive
Debug: 1619 262 riscv-013.c:393 scan(): 41b 4i r 00000000 @11 -> + 00000000 @10
Debug: 1620 262 riscv-013.c:393 scan(): 41b 4i - 00000000 @11 -> + 00003082 @11
Debug: 1621 262 riscv-013.c:404 scan():  ->  allunavail anyunavail authenticated version=2
Debug: 1622 263 riscv-013.c:393 scan(): 41b 4i r 00000000 @10 -> + 00000000 @11
Debug: 1623 263 riscv-013.c:393 scan(): 41b 4i - 00000000 @10 -> + 00800001 @10
Debug: 1624 263 riscv-013.c:404 scan():  ->  hartsello=128 dmactive
Debug: 1625 263 riscv-013.c:393 scan(): 41b 4i w 00810001 @10 -> + 00000000 @10
Debug: 1626 263 riscv-013.c:404 scan():  hartsello=129 dmactive -> 
Debug: 1627 263 riscv-013.c:393 scan(): 41b 4i - 00000000 @10 -> + 00810001 @10
Debug: 1628 263 riscv-013.c:404 scan():  ->  hartsello=129 dmactive
Debug: 1629 264 riscv-013.c:393 scan(): 41b 4i r 00000000 @11 -> + 00000000 @10
Debug: 1630 264 riscv-013.c:393 scan(): 41b 4i - 00000000 @11 -> + 00003082 @11
Debug: 1631 264 riscv-013.c:404 scan():  ->  allunavail anyunavail authenticated version=2
Debug: 1632 264 riscv-013.c:393 scan(): 41b 4i r 00000000 @10 -> + 00000000 @11
Debug: 1633 264 riscv-013.c:393 scan(): 41b 4i - 00000000 @10 -> + 00810001 @10
Debug: 1634 264 riscv-013.c:404 scan():  ->  hartsello=129 dmactive
Debug: 1635 265 riscv-013.c:393 scan(): 41b 4i w 00820001 @10 -> + 00000000 @10
Debug: 1636 265 riscv-013.c:404 scan():  hartsello=130 dmactive -> 
Debug: 1637 265 riscv-013.c:393 scan(): 41b 4i - 00000000 @10 -> + 00820001 @10
Debug: 1638 265 riscv-013.c:404 scan():  ->  hartsello=130 dmactive
Debug: 1639 265 riscv-013.c:393 scan(): 41b 4i r 00000000 @11 -> + 00000000 @10
Debug: 1640 265 riscv-013.c:393 scan(): 41b 4i - 00000000 @11 -> + 00003082 @11
Debug: 1641 265 riscv-013.c:404 scan():  ->  allunavail anyunavail authenticated version=2
Debug: 1642 266 riscv-013.c:393 scan(): 41b 4i r 00000000 @10 -> + 00000000 @11
Debug: 1643 266 riscv-013.c:393 scan(): 41b 4i - 00000000 @10 -> + 00820001 @10
Debug: 1644 266 riscv-013.c:404 scan():  ->  hartsello=130 dmactive
Debug: 1645 266 riscv-013.c:393 scan(): 41b 4i w 00830001 @10 -> + 00000000 @10
Debug: 1646 266 riscv-013.c:404 scan():  hartsello=131 dmactive -> 
Debug: 1647 266 riscv-013.c:393 scan(): 41b 4i - 00000000 @10 -> + 00830001 @10
Debug: 1648 266 riscv-013.c:404 scan():  ->  hartsello=131 dmactive
Debug: 1649 267 riscv-013.c:393 scan(): 41b 4i r 00000000 @11 -> + 00000000 @10
Debug: 1650 267 riscv-013.c:393 scan(): 41b 4i - 00000000 @11 -> + 00003082 @11
Debug: 1651 267 riscv-013.c:404 scan():  ->  allunavail anyunavail authenticated version=2
Debug: 1652 267 riscv-013.c:393 scan(): 41b 4i r 00000000 @10 -> + 00000000 @11
Debug: 1653 267 riscv-013.c:393 scan(): 41b 4i - 00000000 @10 -> + 00830001 @10
Debug: 1654 267 riscv-013.c:404 scan():  ->  hartsello=131 dmactive
Debug: 1655 268 riscv-013.c:393 scan(): 41b 4i w 00840001 @10 -> + 00000000 @10
Debug: 1656 268 riscv-013.c:404 scan():  hartsello=132 dmactive -> 
Debug: 1657 268 riscv-013.c:393 scan(): 41b 4i - 00000000 @10 -> + 00840001 @10
Debug: 1658 268 riscv-013.c:404 scan():  ->  hartsello=132 dmactive
Debug: 1659 268 riscv-013.c:393 scan(): 41b 4i r 00000000 @11 -> + 00000000 @10
Debug: 1660 268 riscv-013.c:393 scan(): 41b 4i - 00000000 @11 -> + 00003082 @11
Debug: 1661 268 riscv-013.c:404 scan():  ->  allunavail anyunavail authenticated version=2
Debug: 1662 269 riscv-013.c:393 scan(): 41b 4i r 00000000 @10 -> + 00000000 @11
Debug: 1663 269 riscv-013.c:393 scan(): 41b 4i - 00000000 @10 -> + 00840001 @10
Debug: 1664 269 riscv-013.c:404 scan():  ->  hartsello=132 dmactive
Debug: 1665 269 riscv-013.c:393 scan(): 41b 4i w 00850001 @10 -> + 00000000 @10
Debug: 1666 269 riscv-013.c:404 scan():  hartsello=133 dmactive -> 
Debug: 1667 269 riscv-013.c:393 scan(): 41b 4i - 00000000 @10 -> + 00850001 @10
Debug: 1668 269 riscv-013.c:404 scan():  ->  hartsello=133 dmactive
Debug: 1669 270 riscv-013.c:393 scan(): 41b 4i r 00000000 @11 -> + 00000000 @10
Debug: 1670 270 riscv-013.c:393 scan(): 41b 4i - 00000000 @11 -> + 00003082 @11
Debug: 1671 270 riscv-013.c:404 scan():  ->  allunavail anyunavail authenticated version=2
Debug: 1672 270 riscv-013.c:393 scan(): 41b 4i r 00000000 @10 -> + 00000000 @11
Debug: 1673 270 riscv-013.c:393 scan(): 41b 4i - 00000000 @10 -> + 00850001 @10
Debug: 1674 270 riscv-013.c:404 scan():  ->  hartsello=133 dmactive
Debug: 1675 270 riscv-013.c:393 scan(): 41b 4i w 00860001 @10 -> + 00000000 @10
Debug: 1676 270 riscv-013.c:404 scan():  hartsello=134 dmactive -> 
Debug: 1677 271 riscv-013.c:393 scan(): 41b 4i - 00000000 @10 -> + 00860001 @10
Debug: 1678 271 riscv-013.c:404 scan():  ->  hartsello=134 dmactive
Debug: 1679 271 riscv-013.c:393 scan(): 41b 4i r 00000000 @11 -> + 00000000 @10
Debug: 1680 271 riscv-013.c:393 scan(): 41b 4i - 00000000 @11 -> + 00003082 @11
Debug: 1681 271 riscv-013.c:404 scan():  ->  allunavail anyunavail authenticated version=2
Debug: 1682 272 riscv-013.c:393 scan(): 41b 4i r 00000000 @10 -> + 00000000 @11
Debug: 1683 272 riscv-013.c:393 scan(): 41b 4i - 00000000 @10 -> + 00860001 @10
Debug: 1684 272 riscv-013.c:404 scan():  ->  hartsello=134 dmactive
Debug: 1685 272 riscv-013.c:393 scan(): 41b 4i w 00870001 @10 -> + 00000000 @10
Debug: 1686 272 riscv-013.c:404 scan():  hartsello=135 dmactive -> 
Debug: 1687 272 riscv-013.c:393 scan(): 41b 4i - 00000000 @10 -> + 00870001 @10
Debug: 1688 273 riscv-013.c:404 scan():  ->  hartsello=135 dmactive
Debug: 1689 273 riscv-013.c:393 scan(): 41b 4i r 00000000 @11 -> + 00000000 @10
Debug: 1690 273 riscv-013.c:393 scan(): 41b 4i - 00000000 @11 -> + 00003082 @11
Debug: 1691 273 riscv-013.c:404 scan():  ->  allunavail anyunavail authenticated version=2
Debug: 1692 273 riscv-013.c:393 scan(): 41b 4i r 00000000 @10 -> + 00000000 @11
Debug: 1693 274 riscv-013.c:393 scan(): 41b 4i - 00000000 @10 -> + 00870001 @10
Debug: 1694 274 riscv-013.c:404 scan():  ->  hartsello=135 dmactive
Debug: 1695 274 riscv-013.c:393 scan(): 41b 4i w 00880001 @10 -> + 00000000 @10
Debug: 1696 274 riscv-013.c:404 scan():  hartsello=136 dmactive -> 
Debug: 1697 274 riscv-013.c:393 scan(): 41b 4i - 00000000 @10 -> + 00880001 @10
Debug: 1698 274 riscv-013.c:404 scan():  ->  hartsello=136 dmactive
Debug: 1699 274 riscv-013.c:393 scan(): 41b 4i r 00000000 @11 -> + 00000000 @10
Debug: 1700 275 riscv-013.c:393 scan(): 41b 4i - 00000000 @11 -> + 00003082 @11
Debug: 1701 275 riscv-013.c:404 scan():  ->  allunavail anyunavail authenticated version=2
Debug: 1702 275 riscv-013.c:393 scan(): 41b 4i r 00000000 @10 -> + 00000000 @11
Debug: 1703 275 riscv-013.c:393 scan(): 41b 4i - 00000000 @10 -> + 00880001 @10
Debug: 1704 275 riscv-013.c:404 scan():  ->  hartsello=136 dmactive
Debug: 1705 276 riscv-013.c:393 scan(): 41b 4i w 00890001 @10 -> + 00000000 @10
Debug: 1706 276 riscv-013.c:404 scan():  hartsello=137 dmactive -> 
Debug: 1707 276 riscv-013.c:393 scan(): 41b 4i - 00000000 @10 -> + 00890001 @10
Debug: 1708 276 riscv-013.c:404 scan():  ->  hartsello=137 dmactive
Debug: 1709 276 riscv-013.c:393 scan(): 41b 4i r 00000000 @11 -> + 00000000 @10
Debug: 1710 276 riscv-013.c:393 scan(): 41b 4i - 00000000 @11 -> + 00003082 @11
Debug: 1711 277 riscv-013.c:404 scan():  ->  allunavail anyunavail authenticated version=2
Debug: 1712 277 riscv-013.c:393 scan(): 41b 4i r 00000000 @10 -> + 00000000 @11
Debug: 1713 277 riscv-013.c:393 scan(): 41b 4i - 00000000 @10 -> + 00890001 @10
Debug: 1714 277 riscv-013.c:404 scan():  ->  hartsello=137 dmactive
Debug: 1715 277 riscv-013.c:393 scan(): 41b 4i w 008a0001 @10 -> + 00000000 @10
Debug: 1716 277 riscv-013.c:404 scan():  hartsello=138 dmactive -> 
Debug: 1717 278 riscv-013.c:393 scan(): 41b 4i - 00000000 @10 -> + 008a0001 @10
Debug: 1718 278 riscv-013.c:404 scan():  ->  hartsello=138 dmactive
Debug: 1719 278 riscv-013.c:393 scan(): 41b 4i r 00000000 @11 -> + 00000000 @10
Debug: 1720 278 riscv-013.c:393 scan(): 41b 4i - 00000000 @11 -> + 00003082 @11
Debug: 1721 278 riscv-013.c:404 scan():  ->  allunavail anyunavail authenticated version=2
Debug: 1722 278 riscv-013.c:393 scan(): 41b 4i r 00000000 @10 -> + 00000000 @11
Debug: 1723 279 riscv-013.c:393 scan(): 41b 4i - 00000000 @10 -> + 008a0001 @10
Debug: 1724 279 riscv-013.c:404 scan():  ->  hartsello=138 dmactive
Debug: 1725 279 riscv-013.c:393 scan(): 41b 4i w 008b0001 @10 -> + 00000000 @10
Debug: 1726 279 riscv-013.c:404 scan():  hartsello=139 dmactive -> 
Debug: 1727 279 riscv-013.c:393 scan(): 41b 4i - 00000000 @10 -> + 008b0001 @10
Debug: 1728 279 riscv-013.c:404 scan():  ->  hartsello=139 dmactive
Debug: 1729 279 riscv-013.c:393 scan(): 41b 4i r 00000000 @11 -> + 00000000 @10
Debug: 1730 280 riscv-013.c:393 scan(): 41b 4i - 00000000 @11 -> + 00003082 @11
Debug: 1731 280 riscv-013.c:404 scan():  ->  allunavail anyunavail authenticated version=2
Debug: 1732 280 riscv-013.c:393 scan(): 41b 4i r 00000000 @10 -> + 00000000 @11
Debug: 1733 280 riscv-013.c:393 scan(): 41b 4i - 00000000 @10 -> + 008b0001 @10
Debug: 1734 280 riscv-013.c:404 scan():  ->  hartsello=139 dmactive
Debug: 1735 280 riscv-013.c:393 scan(): 41b 4i w 008c0001 @10 -> + 00000000 @10
Debug: 1736 280 riscv-013.c:404 scan():  hartsello=140 dmactive -> 
Debug: 1737 281 riscv-013.c:393 scan(): 41b 4i - 00000000 @10 -> + 008c0001 @10
Debug: 1738 281 riscv-013.c:404 scan():  ->  hartsello=140 dmactive
Debug: 1739 281 riscv-013.c:393 scan(): 41b 4i r 00000000 @11 -> + 00000000 @10
Debug: 1740 281 riscv-013.c:393 scan(): 41b 4i - 00000000 @11 -> + 00003082 @11
Debug: 1741 281 riscv-013.c:404 scan():  ->  allunavail anyunavail authenticated version=2
Debug: 1742 282 riscv-013.c:393 scan(): 41b 4i r 00000000 @10 -> + 00000000 @11
Debug: 1743 282 riscv-013.c:393 scan(): 41b 4i - 00000000 @10 -> + 008c0001 @10
Debug: 1744 282 riscv-013.c:404 scan():  ->  hartsello=140 dmactive
Debug: 1745 282 riscv-013.c:393 scan(): 41b 4i w 008d0001 @10 -> + 00000000 @10
Debug: 1746 282 riscv-013.c:404 scan():  hartsello=141 dmactive -> 
Debug: 1747 282 riscv-013.c:393 scan(): 41b 4i - 00000000 @10 -> + 008d0001 @10
Debug: 1748 282 riscv-013.c:404 scan():  ->  hartsello=141 dmactive
Debug: 1749 282 riscv-013.c:393 scan(): 41b 4i r 00000000 @11 -> + 00000000 @10
Debug: 1750 283 riscv-013.c:393 scan(): 41b 4i - 00000000 @11 -> + 00003082 @11
Debug: 1751 283 riscv-013.c:404 scan():  ->  allunavail anyunavail authenticated version=2
Debug: 1752 283 riscv-013.c:393 scan(): 41b 4i r 00000000 @10 -> + 00000000 @11
Debug: 1753 283 riscv-013.c:393 scan(): 41b 4i - 00000000 @10 -> + 008d0001 @10
Debug: 1754 284 riscv-013.c:404 scan():  ->  hartsello=141 dmactive
Debug: 1755 284 riscv-013.c:393 scan(): 41b 4i w 008e0001 @10 -> + 00000000 @10
Debug: 1756 284 riscv-013.c:404 scan():  hartsello=142 dmactive -> 
Debug: 1757 284 riscv-013.c:393 scan(): 41b 4i - 00000000 @10 -> + 008e0001 @10
Debug: 1758 284 riscv-013.c:404 scan():  ->  hartsello=142 dmactive
Debug: 1759 284 riscv-013.c:393 scan(): 41b 4i r 00000000 @11 -> + 00000000 @10
Debug: 1760 285 riscv-013.c:393 scan(): 41b 4i - 00000000 @11 -> + 00003082 @11
Debug: 1761 285 riscv-013.c:404 scan():  ->  allunavail anyunavail authenticated version=2
Debug: 1762 285 riscv-013.c:393 scan(): 41b 4i r 00000000 @10 -> + 00000000 @11
Debug: 1763 285 riscv-013.c:393 scan(): 41b 4i - 00000000 @10 -> + 008e0001 @10
Debug: 1764 285 riscv-013.c:404 scan():  ->  hartsello=142 dmactive
Debug: 1765 285 riscv-013.c:393 scan(): 41b 4i w 008f0001 @10 -> + 00000000 @10
Debug: 1766 285 riscv-013.c:404 scan():  hartsello=143 dmactive -> 
Debug: 1767 286 riscv-013.c:393 scan(): 41b 4i - 00000000 @10 -> + 008f0001 @10
Debug: 1768 286 riscv-013.c:404 scan():  ->  hartsello=143 dmactive
Debug: 1769 286 riscv-013.c:393 scan(): 41b 4i r 00000000 @11 -> + 00000000 @10
Debug: 1770 286 riscv-013.c:393 scan(): 41b 4i - 00000000 @11 -> + 00003082 @11
Debug: 1771 286 riscv-013.c:404 scan():  ->  allunavail anyunavail authenticated version=2
Debug: 1772 287 riscv-013.c:393 scan(): 41b 4i r 00000000 @10 -> + 00000000 @11
Debug: 1773 287 riscv-013.c:393 scan(): 41b 4i - 00000000 @10 -> + 008f0001 @10
Debug: 1774 287 riscv-013.c:404 scan():  ->  hartsello=143 dmactive
Debug: 1775 287 riscv-013.c:393 scan(): 41b 4i w 00900001 @10 -> + 00000000 @10
Debug: 1776 287 riscv-013.c:404 scan():  hartsello=144 dmactive -> 
Debug: 1777 287 riscv-013.c:393 scan(): 41b 4i - 00000000 @10 -> + 00900001 @10
Debug: 1778 287 riscv-013.c:404 scan():  ->  hartsello=144 dmactive
Debug: 1779 288 riscv-013.c:393 scan(): 41b 4i r 00000000 @11 -> + 00000000 @10
Debug: 1780 288 riscv-013.c:393 scan(): 41b 4i - 00000000 @11 -> + 00003082 @11
Debug: 1781 288 riscv-013.c:404 scan():  ->  allunavail anyunavail authenticated version=2
Debug: 1782 288 riscv-013.c:393 scan(): 41b 4i r 00000000 @10 -> + 00000000 @11
Debug: 1783 288 riscv-013.c:393 scan(): 41b 4i - 00000000 @10 -> + 00900001 @10
Debug: 1784 288 riscv-013.c:404 scan():  ->  hartsello=144 dmactive
Debug: 1785 289 riscv-013.c:393 scan(): 41b 4i w 00910001 @10 -> + 00000000 @10
Debug: 1786 289 riscv-013.c:404 scan():  hartsello=145 dmactive -> 
Debug: 1787 289 riscv-013.c:393 scan(): 41b 4i - 00000000 @10 -> + 00910001 @10
Debug: 1788 289 riscv-013.c:404 scan():  ->  hartsello=145 dmactive
Debug: 1789 289 riscv-013.c:393 scan(): 41b 4i r 00000000 @11 -> + 00000000 @10
Debug: 1790 290 riscv-013.c:393 scan(): 41b 4i - 00000000 @11 -> + 00003082 @11
Debug: 1791 290 riscv-013.c:404 scan():  ->  allunavail anyunavail authenticated version=2
Debug: 1792 290 riscv-013.c:393 scan(): 41b 4i r 00000000 @10 -> + 00000000 @11
Debug: 1793 290 riscv-013.c:393 scan(): 41b 4i - 00000000 @10 -> + 00910001 @10
Debug: 1794 290 riscv-013.c:404 scan():  ->  hartsello=145 dmactive
Debug: 1795 290 riscv-013.c:393 scan(): 41b 4i w 00920001 @10 -> + 00000000 @10
Debug: 1796 290 riscv-013.c:404 scan():  hartsello=146 dmactive -> 
Debug: 1797 291 riscv-013.c:393 scan(): 41b 4i - 00000000 @10 -> + 00920001 @10
Debug: 1798 291 riscv-013.c:404 scan():  ->  hartsello=146 dmactive
Debug: 1799 291 riscv-013.c:393 scan(): 41b 4i r 00000000 @11 -> + 00000000 @10
Debug: 1800 291 riscv-013.c:393 scan(): 41b 4i - 00000000 @11 -> + 00003082 @11
Debug: 1801 291 riscv-013.c:404 scan():  ->  allunavail anyunavail authenticated version=2
Debug: 1802 291 riscv-013.c:393 scan(): 41b 4i r 00000000 @10 -> + 00000000 @11
Debug: 1803 292 riscv-013.c:393 scan(): 41b 4i - 00000000 @10 -> + 00920001 @10
Debug: 1804 292 riscv-013.c:404 scan():  ->  hartsello=146 dmactive
Debug: 1805 292 riscv-013.c:393 scan(): 41b 4i w 00930001 @10 -> + 00000000 @10
Debug: 1806 292 riscv-013.c:404 scan():  hartsello=147 dmactive -> 
Debug: 1807 292 riscv-013.c:393 scan(): 41b 4i - 00000000 @10 -> + 00930001 @10
Debug: 1808 292 riscv-013.c:404 scan():  ->  hartsello=147 dmactive
Debug: 1809 292 riscv-013.c:393 scan(): 41b 4i r 00000000 @11 -> + 00000000 @10
Debug: 1810 293 riscv-013.c:393 scan(): 41b 4i - 00000000 @11 -> + 00003082 @11
Debug: 1811 293 riscv-013.c:404 scan():  ->  allunavail anyunavail authenticated version=2
Debug: 1812 293 riscv-013.c:393 scan(): 41b 4i r 00000000 @10 -> + 00000000 @11
Debug: 1813 293 riscv-013.c:393 scan(): 41b 4i - 00000000 @10 -> + 00930001 @10
Debug: 1814 293 riscv-013.c:404 scan():  ->  hartsello=147 dmactive
Debug: 1815 293 riscv-013.c:393 scan(): 41b 4i w 00940001 @10 -> + 00000000 @10
Debug: 1816 293 riscv-013.c:404 scan():  hartsello=148 dmactive -> 
Debug: 1817 294 riscv-013.c:393 scan(): 41b 4i - 00000000 @10 -> + 00940001 @10
Debug: 1818 294 riscv-013.c:404 scan():  ->  hartsello=148 dmactive
Debug: 1819 294 riscv-013.c:393 scan(): 41b 4i r 00000000 @11 -> + 00000000 @10
Debug: 1820 294 riscv-013.c:393 scan(): 41b 4i - 00000000 @11 -> + 00003082 @11
Debug: 1821 294 riscv-013.c:404 scan():  ->  allunavail anyunavail authenticated version=2
Debug: 1822 294 riscv-013.c:393 scan(): 41b 4i r 00000000 @10 -> + 00000000 @11
Debug: 1823 295 riscv-013.c:393 scan(): 41b 4i - 00000000 @10 -> + 00940001 @10
Debug: 1824 295 riscv-013.c:404 scan():  ->  hartsello=148 dmactive
Debug: 1825 295 riscv-013.c:393 scan(): 41b 4i w 00950001 @10 -> + 00000000 @10
Debug: 1826 295 riscv-013.c:404 scan():  hartsello=149 dmactive -> 
Debug: 1827 295 riscv-013.c:393 scan(): 41b 4i - 00000000 @10 -> + 00950001 @10
Debug: 1828 295 riscv-013.c:404 scan():  ->  hartsello=149 dmactive
Debug: 1829 295 riscv-013.c:393 scan(): 41b 4i r 00000000 @11 -> + 00000000 @10
Debug: 1830 296 riscv-013.c:393 scan(): 41b 4i - 00000000 @11 -> + 00003082 @11
Debug: 1831 296 riscv-013.c:404 scan():  ->  allunavail anyunavail authenticated version=2
Debug: 1832 296 riscv-013.c:393 scan(): 41b 4i r 00000000 @10 -> + 00000000 @11
Debug: 1833 296 riscv-013.c:393 scan(): 41b 4i - 00000000 @10 -> + 00950001 @10
Debug: 1834 296 riscv-013.c:404 scan():  ->  hartsello=149 dmactive
Debug: 1835 296 riscv-013.c:393 scan(): 41b 4i w 00960001 @10 -> + 00000000 @10
Debug: 1836 296 riscv-013.c:404 scan():  hartsello=150 dmactive -> 
Debug: 1837 297 riscv-013.c:393 scan(): 41b 4i - 00000000 @10 -> + 00960001 @10
Debug: 1838 297 riscv-013.c:404 scan():  ->  hartsello=150 dmactive
Debug: 1839 297 riscv-013.c:393 scan(): 41b 4i r 00000000 @11 -> + 00000000 @10
Debug: 1840 297 riscv-013.c:393 scan(): 41b 4i - 00000000 @11 -> + 00003082 @11
Debug: 1841 297 riscv-013.c:404 scan():  ->  allunavail anyunavail authenticated version=2
Debug: 1842 297 riscv-013.c:393 scan(): 41b 4i r 00000000 @10 -> + 00000000 @11
Debug: 1843 298 riscv-013.c:393 scan(): 41b 4i - 00000000 @10 -> + 00960001 @10
Debug: 1844 298 riscv-013.c:404 scan():  ->  hartsello=150 dmactive
Debug: 1845 298 riscv-013.c:393 scan(): 41b 4i w 00970001 @10 -> + 00000000 @10
Debug: 1846 298 riscv-013.c:404 scan():  hartsello=151 dmactive -> 
Debug: 1847 298 riscv-013.c:393 scan(): 41b 4i - 00000000 @10 -> + 00970001 @10
Debug: 1848 298 riscv-013.c:404 scan():  ->  hartsello=151 dmactive
Debug: 1849 298 riscv-013.c:393 scan(): 41b 4i r 00000000 @11 -> + 00000000 @10
Debug: 1850 299 riscv-013.c:393 scan(): 41b 4i - 00000000 @11 -> + 00003082 @11
Debug: 1851 299 riscv-013.c:404 scan():  ->  allunavail anyunavail authenticated version=2
Debug: 1852 299 riscv-013.c:393 scan(): 41b 4i r 00000000 @10 -> + 00000000 @11
Debug: 1853 299 riscv-013.c:393 scan(): 41b 4i - 00000000 @10 -> + 00970001 @10
Debug: 1854 299 riscv-013.c:404 scan():  ->  hartsello=151 dmactive
Debug: 1855 299 riscv-013.c:393 scan(): 41b 4i w 00980001 @10 -> + 00000000 @10
Debug: 1856 299 riscv-013.c:404 scan():  hartsello=152 dmactive -> 
Debug: 1857 300 riscv-013.c:393 scan(): 41b 4i - 00000000 @10 -> + 00980001 @10
Debug: 1858 300 riscv-013.c:404 scan():  ->  hartsello=152 dmactive
Debug: 1859 300 riscv-013.c:393 scan(): 41b 4i r 00000000 @11 -> + 00000000 @10
Debug: 1860 300 riscv-013.c:393 scan(): 41b 4i - 00000000 @11 -> + 00003082 @11
Debug: 1861 300 riscv-013.c:404 scan():  ->  allunavail anyunavail authenticated version=2
Debug: 1862 300 riscv-013.c:393 scan(): 41b 4i r 00000000 @10 -> + 00000000 @11
Debug: 1863 301 riscv-013.c:393 scan(): 41b 4i - 00000000 @10 -> + 00980001 @10
Debug: 1864 301 riscv-013.c:404 scan():  ->  hartsello=152 dmactive
Debug: 1865 301 riscv-013.c:393 scan(): 41b 4i w 00990001 @10 -> + 00000000 @10
Debug: 1866 301 riscv-013.c:404 scan():  hartsello=153 dmactive -> 
Debug: 1867 301 riscv-013.c:393 scan(): 41b 4i - 00000000 @10 -> + 00990001 @10
Debug: 1868 301 riscv-013.c:404 scan():  ->  hartsello=153 dmactive
Debug: 1869 301 riscv-013.c:393 scan(): 41b 4i r 00000000 @11 -> + 00000000 @10
Debug: 1870 302 riscv-013.c:393 scan(): 41b 4i - 00000000 @11 -> + 00003082 @11
Debug: 1871 302 riscv-013.c:404 scan():  ->  allunavail anyunavail authenticated version=2
Debug: 1872 302 riscv-013.c:393 scan(): 41b 4i r 00000000 @10 -> + 00000000 @11
Debug: 1873 302 riscv-013.c:393 scan(): 41b 4i - 00000000 @10 -> + 00990001 @10
Debug: 1874 302 riscv-013.c:404 scan():  ->  hartsello=153 dmactive
Debug: 1875 303 riscv-013.c:393 scan(): 41b 4i w 009a0001 @10 -> + 00000000 @10
Debug: 1876 303 riscv-013.c:404 scan():  hartsello=154 dmactive -> 
Debug: 1877 303 riscv-013.c:393 scan(): 41b 4i - 00000000 @10 -> + 009a0001 @10
Debug: 1878 303 riscv-013.c:404 scan():  ->  hartsello=154 dmactive
Debug: 1879 303 riscv-013.c:393 scan(): 41b 4i r 00000000 @11 -> + 00000000 @10
Debug: 1880 303 riscv-013.c:393 scan(): 41b 4i - 00000000 @11 -> + 00003082 @11
Debug: 1881 303 riscv-013.c:404 scan():  ->  allunavail anyunavail authenticated version=2
Debug: 1882 303 riscv-013.c:393 scan(): 41b 4i r 00000000 @10 -> + 00000000 @11
Debug: 1883 304 riscv-013.c:393 scan(): 41b 4i - 00000000 @10 -> + 009a0001 @10
Debug: 1884 304 riscv-013.c:404 scan():  ->  hartsello=154 dmactive
Debug: 1885 304 riscv-013.c:393 scan(): 41b 4i w 009b0001 @10 -> + 00000000 @10
Debug: 1886 304 riscv-013.c:404 scan():  hartsello=155 dmactive -> 
Debug: 1887 304 riscv-013.c:393 scan(): 41b 4i - 00000000 @10 -> + 009b0001 @10
Debug: 1888 304 riscv-013.c:404 scan():  ->  hartsello=155 dmactive
Debug: 1889 304 riscv-013.c:393 scan(): 41b 4i r 00000000 @11 -> + 00000000 @10
Debug: 1890 304 riscv-013.c:393 scan(): 41b 4i - 00000000 @11 -> + 00003082 @11
Debug: 1891 304 riscv-013.c:404 scan():  ->  allunavail anyunavail authenticated version=2
Debug: 1892 305 riscv-013.c:393 scan(): 41b 4i r 00000000 @10 -> + 00000000 @11
Debug: 1893 305 riscv-013.c:393 scan(): 41b 4i - 00000000 @10 -> + 009b0001 @10
Debug: 1894 305 riscv-013.c:404 scan():  ->  hartsello=155 dmactive
Debug: 1895 305 riscv-013.c:393 scan(): 41b 4i w 009c0001 @10 -> + 00000000 @10
Debug: 1896 305 riscv-013.c:404 scan():  hartsello=156 dmactive -> 
Debug: 1897 306 riscv-013.c:393 scan(): 41b 4i - 00000000 @10 -> + 009c0001 @10
Debug: 1898 306 riscv-013.c:404 scan():  ->  hartsello=156 dmactive
Debug: 1899 306 riscv-013.c:393 scan(): 41b 4i r 00000000 @11 -> + 00000000 @10
Debug: 1900 306 riscv-013.c:393 scan(): 41b 4i - 00000000 @11 -> + 00003082 @11
Debug: 1901 306 riscv-013.c:404 scan():  ->  allunavail anyunavail authenticated version=2
Debug: 1902 306 riscv-013.c:393 scan(): 41b 4i r 00000000 @10 -> + 00000000 @11
Debug: 1903 307 riscv-013.c:393 scan(): 41b 4i - 00000000 @10 -> + 009c0001 @10
Debug: 1904 307 riscv-013.c:404 scan():  ->  hartsello=156 dmactive
Debug: 1905 307 riscv-013.c:393 scan(): 41b 4i w 009d0001 @10 -> + 00000000 @10
Debug: 1906 307 riscv-013.c:404 scan():  hartsello=157 dmactive -> 
Debug: 1907 307 riscv-013.c:393 scan(): 41b 4i - 00000000 @10 -> + 009d0001 @10
Debug: 1908 307 riscv-013.c:404 scan():  ->  hartsello=157 dmactive
Debug: 1909 308 riscv-013.c:393 scan(): 41b 4i r 00000000 @11 -> + 00000000 @10
Debug: 1910 308 riscv-013.c:393 scan(): 41b 4i - 00000000 @11 -> + 00003082 @11
Debug: 1911 308 riscv-013.c:404 scan():  ->  allunavail anyunavail authenticated version=2
Debug: 1912 308 riscv-013.c:393 scan(): 41b 4i r 00000000 @10 -> + 00000000 @11
Debug: 1913 308 riscv-013.c:393 scan(): 41b 4i - 00000000 @10 -> + 009d0001 @10
Debug: 1914 308 riscv-013.c:404 scan():  ->  hartsello=157 dmactive
Debug: 1915 308 riscv-013.c:393 scan(): 41b 4i w 009e0001 @10 -> + 00000000 @10
Debug: 1916 308 riscv-013.c:404 scan():  hartsello=158 dmactive -> 
Debug: 1917 309 riscv-013.c:393 scan(): 41b 4i - 00000000 @10 -> + 009e0001 @10
Debug: 1918 309 riscv-013.c:404 scan():  ->  hartsello=158 dmactive
Debug: 1919 309 riscv-013.c:393 scan(): 41b 4i r 00000000 @11 -> + 00000000 @10
Debug: 1920 309 riscv-013.c:393 scan(): 41b 4i - 00000000 @11 -> + 00003082 @11
Debug: 1921 309 riscv-013.c:404 scan():  ->  allunavail anyunavail authenticated version=2
Debug: 1922 310 riscv-013.c:393 scan(): 41b 4i r 00000000 @10 -> + 00000000 @11
Debug: 1923 310 riscv-013.c:393 scan(): 41b 4i - 00000000 @10 -> + 009e0001 @10
Debug: 1924 310 riscv-013.c:404 scan():  ->  hartsello=158 dmactive
Debug: 1925 310 riscv-013.c:393 scan(): 41b 4i w 009f0001 @10 -> + 00000000 @10
Debug: 1926 310 riscv-013.c:404 scan():  hartsello=159 dmactive -> 
Debug: 1927 310 riscv-013.c:393 scan(): 41b 4i - 00000000 @10 -> + 009f0001 @10
Debug: 1928 310 riscv-013.c:404 scan():  ->  hartsello=159 dmactive
Debug: 1929 311 riscv-013.c:393 scan(): 41b 4i r 00000000 @11 -> + 00000000 @10
Debug: 1930 311 riscv-013.c:393 scan(): 41b 4i - 00000000 @11 -> + 00003082 @11
Debug: 1931 311 riscv-013.c:404 scan():  ->  allunavail anyunavail authenticated version=2
Debug: 1932 311 riscv-013.c:393 scan(): 41b 4i r 00000000 @10 -> + 00000000 @11
Debug: 1933 311 riscv-013.c:393 scan(): 41b 4i - 00000000 @10 -> + 009f0001 @10
Debug: 1934 311 riscv-013.c:404 scan():  ->  hartsello=159 dmactive
Debug: 1935 312 riscv-013.c:393 scan(): 41b 4i w 00a00001 @10 -> + 00000000 @10
Debug: 1936 312 riscv-013.c:404 scan():  hartsello=160 dmactive -> 
Debug: 1937 312 riscv-013.c:393 scan(): 41b 4i - 00000000 @10 -> + 00a00001 @10
Debug: 1938 312 riscv-013.c:404 scan():  ->  hartsello=160 dmactive
Debug: 1939 312 riscv-013.c:393 scan(): 41b 4i r 00000000 @11 -> + 00000000 @10
Debug: 1940 312 riscv-013.c:393 scan(): 41b 4i - 00000000 @11 -> + 00003082 @11
Debug: 1941 312 riscv-013.c:404 scan():  ->  allunavail anyunavail authenticated version=2
Debug: 1942 313 riscv-013.c:393 scan(): 41b 4i r 00000000 @10 -> + 00000000 @11
Debug: 1943 313 riscv-013.c:393 scan(): 41b 4i - 00000000 @10 -> + 00a00001 @10
Debug: 1944 313 riscv-013.c:404 scan():  ->  hartsello=160 dmactive
Debug: 1945 313 riscv-013.c:393 scan(): 41b 4i w 00a10001 @10 -> + 00000000 @10
Debug: 1946 313 riscv-013.c:404 scan():  hartsello=161 dmactive -> 
Debug: 1947 313 riscv-013.c:393 scan(): 41b 4i - 00000000 @10 -> + 00a10001 @10
Debug: 1948 313 riscv-013.c:404 scan():  ->  hartsello=161 dmactive
Debug: 1949 314 riscv-013.c:393 scan(): 41b 4i r 00000000 @11 -> + 00000000 @10
Debug: 1950 314 riscv-013.c:393 scan(): 41b 4i - 00000000 @11 -> + 00003082 @11
Debug: 1951 314 riscv-013.c:404 scan():  ->  allunavail anyunavail authenticated version=2
Debug: 1952 314 riscv-013.c:393 scan(): 41b 4i r 00000000 @10 -> + 00000000 @11
Debug: 1953 314 riscv-013.c:393 scan(): 41b 4i - 00000000 @10 -> + 00a10001 @10
Debug: 1954 314 riscv-013.c:404 scan():  ->  hartsello=161 dmactive
Debug: 1955 315 riscv-013.c:393 scan(): 41b 4i w 00a20001 @10 -> + 00000000 @10
Debug: 1956 315 riscv-013.c:404 scan():  hartsello=162 dmactive -> 
Debug: 1957 315 riscv-013.c:393 scan(): 41b 4i - 00000000 @10 -> + 00a20001 @10
Debug: 1958 315 riscv-013.c:404 scan():  ->  hartsello=162 dmactive
Debug: 1959 315 riscv-013.c:393 scan(): 41b 4i r 00000000 @11 -> + 00000000 @10
Debug: 1960 316 riscv-013.c:393 scan(): 41b 4i - 00000000 @11 -> + 00003082 @11
Debug: 1961 316 riscv-013.c:404 scan():  ->  allunavail anyunavail authenticated version=2
Debug: 1962 316 riscv-013.c:393 scan(): 41b 4i r 00000000 @10 -> + 00000000 @11
Debug: 1963 316 riscv-013.c:393 scan(): 41b 4i - 00000000 @10 -> + 00a20001 @10
Debug: 1964 316 riscv-013.c:404 scan():  ->  hartsello=162 dmactive
Debug: 1965 316 riscv-013.c:393 scan(): 41b 4i w 00a30001 @10 -> + 00000000 @10
Debug: 1966 316 riscv-013.c:404 scan():  hartsello=163 dmactive -> 
Debug: 1967 317 riscv-013.c:393 scan(): 41b 4i - 00000000 @10 -> + 00a30001 @10
Debug: 1968 317 riscv-013.c:404 scan():  ->  hartsello=163 dmactive
Debug: 1969 317 riscv-013.c:393 scan(): 41b 4i r 00000000 @11 -> + 00000000 @10
Debug: 1970 317 riscv-013.c:393 scan(): 41b 4i - 00000000 @11 -> + 00003082 @11
Debug: 1971 317 riscv-013.c:404 scan():  ->  allunavail anyunavail authenticated version=2
Debug: 1972 317 riscv-013.c:393 scan(): 41b 4i r 00000000 @10 -> + 00000000 @11
Debug: 1973 318 riscv-013.c:393 scan(): 41b 4i - 00000000 @10 -> + 00a30001 @10
Debug: 1974 318 riscv-013.c:404 scan():  ->  hartsello=163 dmactive
Debug: 1975 318 riscv-013.c:393 scan(): 41b 4i w 00a40001 @10 -> + 00000000 @10
Debug: 1976 318 riscv-013.c:404 scan():  hartsello=164 dmactive -> 
Debug: 1977 318 riscv-013.c:393 scan(): 41b 4i - 00000000 @10 -> + 00a40001 @10
Debug: 1978 318 riscv-013.c:404 scan():  ->  hartsello=164 dmactive
Debug: 1979 318 riscv-013.c:393 scan(): 41b 4i r 00000000 @11 -> + 00000000 @10
Debug: 1980 319 riscv-013.c:393 scan(): 41b 4i - 00000000 @11 -> + 00003082 @11
Debug: 1981 319 riscv-013.c:404 scan():  ->  allunavail anyunavail authenticated version=2
Debug: 1982 319 riscv-013.c:393 scan(): 41b 4i r 00000000 @10 -> + 00000000 @11
Debug: 1983 319 riscv-013.c:393 scan(): 41b 4i - 00000000 @10 -> + 00a40001 @10
Debug: 1984 319 riscv-013.c:404 scan():  ->  hartsello=164 dmactive
Debug: 1985 320 riscv-013.c:393 scan(): 41b 4i w 00a50001 @10 -> + 00000000 @10
Debug: 1986 320 riscv-013.c:404 scan():  hartsello=165 dmactive -> 
Debug: 1987 320 riscv-013.c:393 scan(): 41b 4i - 00000000 @10 -> + 00a50001 @10
Debug: 1988 320 riscv-013.c:404 scan():  ->  hartsello=165 dmactive
Debug: 1989 320 riscv-013.c:393 scan(): 41b 4i r 00000000 @11 -> + 00000000 @10
Debug: 1990 320 riscv-013.c:393 scan(): 41b 4i - 00000000 @11 -> + 00003082 @11
Debug: 1991 320 riscv-013.c:404 scan():  ->  allunavail anyunavail authenticated version=2
Debug: 1992 321 riscv-013.c:393 scan(): 41b 4i r 00000000 @10 -> + 00000000 @11
Debug: 1993 321 riscv-013.c:393 scan(): 41b 4i - 00000000 @10 -> + 00a50001 @10
Debug: 1994 321 riscv-013.c:404 scan():  ->  hartsello=165 dmactive
Debug: 1995 321 riscv-013.c:393 scan(): 41b 4i w 00a60001 @10 -> + 00000000 @10
Debug: 1996 321 riscv-013.c:404 scan():  hartsello=166 dmactive -> 
Debug: 1997 321 riscv-013.c:393 scan(): 41b 4i - 00000000 @10 -> + 00a60001 @10
Debug: 1998 321 riscv-013.c:404 scan():  ->  hartsello=166 dmactive
Debug: 1999 322 riscv-013.c:393 scan(): 41b 4i r 00000000 @11 -> + 00000000 @10
Debug: 2000 322 riscv-013.c:393 scan(): 41b 4i - 00000000 @11 -> + 00003082 @11
Debug: 2001 322 riscv-013.c:404 scan():  ->  allunavail anyunavail authenticated version=2
Debug: 2002 322 riscv-013.c:393 scan(): 41b 4i r 00000000 @10 -> + 00000000 @11
Debug: 2003 322 riscv-013.c:393 scan(): 41b 4i - 00000000 @10 -> + 00a60001 @10
Debug: 2004 322 riscv-013.c:404 scan():  ->  hartsello=166 dmactive
Debug: 2005 323 riscv-013.c:393 scan(): 41b 4i w 00a70001 @10 -> + 00000000 @10
Debug: 2006 323 riscv-013.c:404 scan():  hartsello=167 dmactive -> 
Debug: 2007 323 riscv-013.c:393 scan(): 41b 4i - 00000000 @10 -> + 00a70001 @10
Debug: 2008 323 riscv-013.c:404 scan():  ->  hartsello=167 dmactive
Debug: 2009 323 riscv-013.c:393 scan(): 41b 4i r 00000000 @11 -> + 00000000 @10
Debug: 2010 323 riscv-013.c:393 scan(): 41b 4i - 00000000 @11 -> + 00003082 @11
Debug: 2011 323 riscv-013.c:404 scan():  ->  allunavail anyunavail authenticated version=2
Debug: 2012 324 riscv-013.c:393 scan(): 41b 4i r 00000000 @10 -> + 00000000 @11
Debug: 2013 324 riscv-013.c:393 scan(): 41b 4i - 00000000 @10 -> + 00a70001 @10
Debug: 2014 324 riscv-013.c:404 scan():  ->  hartsello=167 dmactive
Debug: 2015 324 riscv-013.c:393 scan(): 41b 4i w 00a80001 @10 -> + 00000000 @10
Debug: 2016 324 riscv-013.c:404 scan():  hartsello=168 dmactive -> 
Debug: 2017 324 riscv-013.c:393 scan(): 41b 4i - 00000000 @10 -> + 00a80001 @10
Debug: 2018 324 riscv-013.c:404 scan():  ->  hartsello=168 dmactive
Debug: 2019 324 riscv-013.c:393 scan(): 41b 4i r 00000000 @11 -> + 00000000 @10
Debug: 2020 325 riscv-013.c:393 scan(): 41b 4i - 00000000 @11 -> + 00003082 @11
Debug: 2021 325 riscv-013.c:404 scan():  ->  allunavail anyunavail authenticated version=2
Debug: 2022 325 riscv-013.c:393 scan(): 41b 4i r 00000000 @10 -> + 00000000 @11
Debug: 2023 326 riscv-013.c:393 scan(): 41b 4i - 00000000 @10 -> + 00a80001 @10
Debug: 2024 326 riscv-013.c:404 scan():  ->  hartsello=168 dmactive
Debug: 2025 326 riscv-013.c:393 scan(): 41b 4i w 00a90001 @10 -> + 00000000 @10
Debug: 2026 326 riscv-013.c:404 scan():  hartsello=169 dmactive -> 
Debug: 2027 326 riscv-013.c:393 scan(): 41b 4i - 00000000 @10 -> + 00a90001 @10
Debug: 2028 326 riscv-013.c:404 scan():  ->  hartsello=169 dmactive
Debug: 2029 327 riscv-013.c:393 scan(): 41b 4i r 00000000 @11 -> + 00000000 @10
Debug: 2030 327 riscv-013.c:393 scan(): 41b 4i - 00000000 @11 -> + 00003082 @11
Debug: 2031 327 riscv-013.c:404 scan():  ->  allunavail anyunavail authenticated version=2
Debug: 2032 327 riscv-013.c:393 scan(): 41b 4i r 00000000 @10 -> + 00000000 @11
Debug: 2033 327 riscv-013.c:393 scan(): 41b 4i - 00000000 @10 -> + 00a90001 @10
Debug: 2034 327 riscv-013.c:404 scan():  ->  hartsello=169 dmactive
Debug: 2035 328 riscv-013.c:393 scan(): 41b 4i w 00aa0001 @10 -> + 00000000 @10
Debug: 2036 328 riscv-013.c:404 scan():  hartsello=170 dmactive -> 
Debug: 2037 328 riscv-013.c:393 scan(): 41b 4i - 00000000 @10 -> + 00aa0001 @10
Debug: 2038 328 riscv-013.c:404 scan():  ->  hartsello=170 dmactive
Debug: 2039 328 riscv-013.c:393 scan(): 41b 4i r 00000000 @11 -> + 00000000 @10
Debug: 2040 328 riscv-013.c:393 scan(): 41b 4i - 00000000 @11 -> + 00003082 @11
Debug: 2041 328 riscv-013.c:404 scan():  ->  allunavail anyunavail authenticated version=2
Debug: 2042 329 riscv-013.c:393 scan(): 41b 4i r 00000000 @10 -> + 00000000 @11
Debug: 2043 329 riscv-013.c:393 scan(): 41b 4i - 00000000 @10 -> + 00aa0001 @10
Debug: 2044 329 riscv-013.c:404 scan():  ->  hartsello=170 dmactive
Debug: 2045 329 riscv-013.c:393 scan(): 41b 4i w 00ab0001 @10 -> + 00000000 @10
Debug: 2046 329 riscv-013.c:404 scan():  hartsello=171 dmactive -> 
Debug: 2047 329 riscv-013.c:393 scan(): 41b 4i - 00000000 @10 -> + 00ab0001 @10
Debug: 2048 329 riscv-013.c:404 scan():  ->  hartsello=171 dmactive
Debug: 2049 330 riscv-013.c:393 scan(): 41b 4i r 00000000 @11 -> + 00000000 @10
Debug: 2050 330 riscv-013.c:393 scan(): 41b 4i - 00000000 @11 -> + 00003082 @11
Debug: 2051 330 riscv-013.c:404 scan():  ->  allunavail anyunavail authenticated version=2
Debug: 2052 330 riscv-013.c:393 scan(): 41b 4i r 00000000 @10 -> + 00000000 @11
Debug: 2053 330 riscv-013.c:393 scan(): 41b 4i - 00000000 @10 -> + 00ab0001 @10
Debug: 2054 330 riscv-013.c:404 scan():  ->  hartsello=171 dmactive
Debug: 2055 331 riscv-013.c:393 scan(): 41b 4i w 00ac0001 @10 -> + 00000000 @10
Debug: 2056 331 riscv-013.c:404 scan():  hartsello=172 dmactive -> 
Debug: 2057 331 riscv-013.c:393 scan(): 41b 4i - 00000000 @10 -> + 00ac0001 @10
Debug: 2058 331 riscv-013.c:404 scan():  ->  hartsello=172 dmactive
Debug: 2059 331 riscv-013.c:393 scan(): 41b 4i r 00000000 @11 -> + 00000000 @10
Debug: 2060 332 riscv-013.c:393 scan(): 41b 4i - 00000000 @11 -> + 00003082 @11
Debug: 2061 332 riscv-013.c:404 scan():  ->  allunavail anyunavail authenticated version=2
Debug: 2062 332 riscv-013.c:393 scan(): 41b 4i r 00000000 @10 -> + 00000000 @11
Debug: 2063 332 riscv-013.c:393 scan(): 41b 4i - 00000000 @10 -> + 00ac0001 @10
Debug: 2064 332 riscv-013.c:404 scan():  ->  hartsello=172 dmactive
Debug: 2065 333 riscv-013.c:393 scan(): 41b 4i w 00ad0001 @10 -> + 00000000 @10
Debug: 2066 333 riscv-013.c:404 scan():  hartsello=173 dmactive -> 
Debug: 2067 333 riscv-013.c:393 scan(): 41b 4i - 00000000 @10 -> + 00ad0001 @10
Debug: 2068 333 riscv-013.c:404 scan():  ->  hartsello=173 dmactive
Debug: 2069 333 riscv-013.c:393 scan(): 41b 4i r 00000000 @11 -> + 00000000 @10
Debug: 2070 334 riscv-013.c:393 scan(): 41b 4i - 00000000 @11 -> + 00003082 @11
Debug: 2071 334 riscv-013.c:404 scan():  ->  allunavail anyunavail authenticated version=2
Debug: 2072 334 riscv-013.c:393 scan(): 41b 4i r 00000000 @10 -> + 00000000 @11
Debug: 2073 334 riscv-013.c:393 scan(): 41b 4i - 00000000 @10 -> + 00ad0001 @10
Debug: 2074 334 riscv-013.c:404 scan():  ->  hartsello=173 dmactive
Debug: 2075 334 riscv-013.c:393 scan(): 41b 4i w 00ae0001 @10 -> + 00000000 @10
Debug: 2076 334 riscv-013.c:404 scan():  hartsello=174 dmactive -> 
Debug: 2077 334 riscv-013.c:393 scan(): 41b 4i - 00000000 @10 -> + 00ae0001 @10
Debug: 2078 335 riscv-013.c:404 scan():  ->  hartsello=174 dmactive
Debug: 2079 335 riscv-013.c:393 scan(): 41b 4i r 00000000 @11 -> + 00000000 @10
Debug: 2080 335 riscv-013.c:393 scan(): 41b 4i - 00000000 @11 -> + 00003082 @11
Debug: 2081 335 riscv-013.c:404 scan():  ->  allunavail anyunavail authenticated version=2
Debug: 2082 335 riscv-013.c:393 scan(): 41b 4i r 00000000 @10 -> + 00000000 @11
Debug: 2083 336 riscv-013.c:393 scan(): 41b 4i - 00000000 @10 -> + 00ae0001 @10
Debug: 2084 336 riscv-013.c:404 scan():  ->  hartsello=174 dmactive
Debug: 2085 336 riscv-013.c:393 scan(): 41b 4i w 00af0001 @10 -> + 00000000 @10
Debug: 2086 336 riscv-013.c:404 scan():  hartsello=175 dmactive -> 
Debug: 2087 336 riscv-013.c:393 scan(): 41b 4i - 00000000 @10 -> + 00af0001 @10
Debug: 2088 336 riscv-013.c:404 scan():  ->  hartsello=175 dmactive
Debug: 2089 337 riscv-013.c:393 scan(): 41b 4i r 00000000 @11 -> + 00000000 @10
Debug: 2090 337 riscv-013.c:393 scan(): 41b 4i - 00000000 @11 -> + 00003082 @11
Debug: 2091 337 riscv-013.c:404 scan():  ->  allunavail anyunavail authenticated version=2
Debug: 2092 337 riscv-013.c:393 scan(): 41b 4i r 00000000 @10 -> + 00000000 @11
Debug: 2093 337 riscv-013.c:393 scan(): 41b 4i - 00000000 @10 -> + 00af0001 @10
Debug: 2094 337 riscv-013.c:404 scan():  ->  hartsello=175 dmactive
Debug: 2095 338 riscv-013.c:393 scan(): 41b 4i w 00b00001 @10 -> + 00000000 @10
Debug: 2096 338 riscv-013.c:404 scan():  hartsello=176 dmactive -> 
Debug: 2097 338 riscv-013.c:393 scan(): 41b 4i - 00000000 @10 -> + 00b00001 @10
Debug: 2098 338 riscv-013.c:404 scan():  ->  hartsello=176 dmactive
Debug: 2099 338 riscv-013.c:393 scan(): 41b 4i r 00000000 @11 -> + 00000000 @10
Debug: 2100 338 riscv-013.c:393 scan(): 41b 4i - 00000000 @11 -> + 00003082 @11
Debug: 2101 338 riscv-013.c:404 scan():  ->  allunavail anyunavail authenticated version=2
Debug: 2102 339 riscv-013.c:393 scan(): 41b 4i r 00000000 @10 -> + 00000000 @11
Debug: 2103 339 riscv-013.c:393 scan(): 41b 4i - 00000000 @10 -> + 00b00001 @10
Debug: 2104 339 riscv-013.c:404 scan():  ->  hartsello=176 dmactive
Debug: 2105 339 riscv-013.c:393 scan(): 41b 4i w 00b10001 @10 -> + 00000000 @10
Debug: 2106 339 riscv-013.c:404 scan():  hartsello=177 dmactive -> 
Debug: 2107 340 riscv-013.c:393 scan(): 41b 4i - 00000000 @10 -> + 00b10001 @10
Debug: 2108 340 riscv-013.c:404 scan():  ->  hartsello=177 dmactive
Debug: 2109 340 riscv-013.c:393 scan(): 41b 4i r 00000000 @11 -> + 00000000 @10
Debug: 2110 340 riscv-013.c:393 scan(): 41b 4i - 00000000 @11 -> + 00003082 @11
Debug: 2111 340 riscv-013.c:404 scan():  ->  allunavail anyunavail authenticated version=2
Debug: 2112 341 riscv-013.c:393 scan(): 41b 4i r 00000000 @10 -> + 00000000 @11
Debug: 2113 341 riscv-013.c:393 scan(): 41b 4i - 00000000 @10 -> + 00b10001 @10
Debug: 2114 341 riscv-013.c:404 scan():  ->  hartsello=177 dmactive
Debug: 2115 341 riscv-013.c:393 scan(): 41b 4i w 00b20001 @10 -> + 00000000 @10
Debug: 2116 341 riscv-013.c:404 scan():  hartsello=178 dmactive -> 
Debug: 2117 341 riscv-013.c:393 scan(): 41b 4i - 00000000 @10 -> + 00b20001 @10
Debug: 2118 341 riscv-013.c:404 scan():  ->  hartsello=178 dmactive
Debug: 2119 342 riscv-013.c:393 scan(): 41b 4i r 00000000 @11 -> + 00000000 @10
Debug: 2120 342 riscv-013.c:393 scan(): 41b 4i - 00000000 @11 -> + 00003082 @11
Debug: 2121 342 riscv-013.c:404 scan():  ->  allunavail anyunavail authenticated version=2
Debug: 2122 342 riscv-013.c:393 scan(): 41b 4i r 00000000 @10 -> + 00000000 @11
Debug: 2123 343 riscv-013.c:393 scan(): 41b 4i - 00000000 @10 -> + 00b20001 @10
Debug: 2124 343 riscv-013.c:404 scan():  ->  hartsello=178 dmactive
Debug: 2125 343 riscv-013.c:393 scan(): 41b 4i w 00b30001 @10 -> + 00000000 @10
Debug: 2126 343 riscv-013.c:404 scan():  hartsello=179 dmactive -> 
Debug: 2127 343 riscv-013.c:393 scan(): 41b 4i - 00000000 @10 -> + 00b30001 @10
Debug: 2128 343 riscv-013.c:404 scan():  ->  hartsello=179 dmactive
Debug: 2129 344 riscv-013.c:393 scan(): 41b 4i r 00000000 @11 -> + 00000000 @10
Debug: 2130 344 riscv-013.c:393 scan(): 41b 4i - 00000000 @11 -> + 00003082 @11
Debug: 2131 344 riscv-013.c:404 scan():  ->  allunavail anyunavail authenticated version=2
Debug: 2132 344 riscv-013.c:393 scan(): 41b 4i r 00000000 @10 -> + 00000000 @11
Debug: 2133 344 riscv-013.c:393 scan(): 41b 4i - 00000000 @10 -> + 00b30001 @10
Debug: 2134 344 riscv-013.c:404 scan():  ->  hartsello=179 dmactive
Debug: 2135 345 riscv-013.c:393 scan(): 41b 4i w 00b40001 @10 -> + 00000000 @10
Debug: 2136 345 riscv-013.c:404 scan():  hartsello=180 dmactive -> 
Debug: 2137 345 riscv-013.c:393 scan(): 41b 4i - 00000000 @10 -> + 00b40001 @10
Debug: 2138 345 riscv-013.c:404 scan():  ->  hartsello=180 dmactive
Debug: 2139 345 riscv-013.c:393 scan(): 41b 4i r 00000000 @11 -> + 00000000 @10
Debug: 2140 345 riscv-013.c:393 scan(): 41b 4i - 00000000 @11 -> + 00003082 @11
Debug: 2141 346 riscv-013.c:404 scan():  ->  allunavail anyunavail authenticated version=2
Debug: 2142 346 riscv-013.c:393 scan(): 41b 4i r 00000000 @10 -> + 00000000 @11
Debug: 2143 346 riscv-013.c:393 scan(): 41b 4i - 00000000 @10 -> + 00b40001 @10
Debug: 2144 346 riscv-013.c:404 scan():  ->  hartsello=180 dmactive
Debug: 2145 346 riscv-013.c:393 scan(): 41b 4i w 00b50001 @10 -> + 00000000 @10
Debug: 2146 346 riscv-013.c:404 scan():  hartsello=181 dmactive -> 
Debug: 2147 347 riscv-013.c:393 scan(): 41b 4i - 00000000 @10 -> + 00b50001 @10
Debug: 2148 347 riscv-013.c:404 scan():  ->  hartsello=181 dmactive
Debug: 2149 347 riscv-013.c:393 scan(): 41b 4i r 00000000 @11 -> + 00000000 @10
Debug: 2150 347 riscv-013.c:393 scan(): 41b 4i - 00000000 @11 -> + 00003082 @11
Debug: 2151 347 riscv-013.c:404 scan():  ->  allunavail anyunavail authenticated version=2
Debug: 2152 348 riscv-013.c:393 scan(): 41b 4i r 00000000 @10 -> + 00000000 @11
Debug: 2153 348 riscv-013.c:393 scan(): 41b 4i - 00000000 @10 -> + 00b50001 @10
Debug: 2154 348 riscv-013.c:404 scan():  ->  hartsello=181 dmactive
Debug: 2155 348 riscv-013.c:393 scan(): 41b 4i w 00b60001 @10 -> + 00000000 @10
Debug: 2156 348 riscv-013.c:404 scan():  hartsello=182 dmactive -> 
Debug: 2157 348 riscv-013.c:393 scan(): 41b 4i - 00000000 @10 -> + 00b60001 @10
Debug: 2158 348 riscv-013.c:404 scan():  ->  hartsello=182 dmactive
Debug: 2159 349 riscv-013.c:393 scan(): 41b 4i r 00000000 @11 -> + 00000000 @10
Debug: 2160 349 riscv-013.c:393 scan(): 41b 4i - 00000000 @11 -> + 00003082 @11
Debug: 2161 349 riscv-013.c:404 scan():  ->  allunavail anyunavail authenticated version=2
Debug: 2162 349 riscv-013.c:393 scan(): 41b 4i r 00000000 @10 -> + 00000000 @11
Debug: 2163 350 riscv-013.c:393 scan(): 41b 4i - 00000000 @10 -> + 00b60001 @10
Debug: 2164 350 riscv-013.c:404 scan():  ->  hartsello=182 dmactive
Debug: 2165 350 riscv-013.c:393 scan(): 41b 4i w 00b70001 @10 -> + 00000000 @10
Debug: 2166 350 riscv-013.c:404 scan():  hartsello=183 dmactive -> 
Debug: 2167 350 riscv-013.c:393 scan(): 41b 4i - 00000000 @10 -> + 00b70001 @10
Debug: 2168 350 riscv-013.c:404 scan():  ->  hartsello=183 dmactive
Debug: 2169 351 riscv-013.c:393 scan(): 41b 4i r 00000000 @11 -> + 00000000 @10
Debug: 2170 351 riscv-013.c:393 scan(): 41b 4i - 00000000 @11 -> + 00003082 @11
Debug: 2171 351 riscv-013.c:404 scan():  ->  allunavail anyunavail authenticated version=2
Debug: 2172 351 riscv-013.c:393 scan(): 41b 4i r 00000000 @10 -> + 00000000 @11
Debug: 2173 351 riscv-013.c:393 scan(): 41b 4i - 00000000 @10 -> + 00b70001 @10
Debug: 2174 351 riscv-013.c:404 scan():  ->  hartsello=183 dmactive
Debug: 2175 352 riscv-013.c:393 scan(): 41b 4i w 00b80001 @10 -> + 00000000 @10
Debug: 2176 352 riscv-013.c:404 scan():  hartsello=184 dmactive -> 
Debug: 2177 352 riscv-013.c:393 scan(): 41b 4i - 00000000 @10 -> + 00b80001 @10
Debug: 2178 352 riscv-013.c:404 scan():  ->  hartsello=184 dmactive
Debug: 2179 352 riscv-013.c:393 scan(): 41b 4i r 00000000 @11 -> + 00000000 @10
Debug: 2180 353 riscv-013.c:393 scan(): 41b 4i - 00000000 @11 -> + 00003082 @11
Debug: 2181 353 riscv-013.c:404 scan():  ->  allunavail anyunavail authenticated version=2
Debug: 2182 353 riscv-013.c:393 scan(): 41b 4i r 00000000 @10 -> + 00000000 @11
Debug: 2183 353 riscv-013.c:393 scan(): 41b 4i - 00000000 @10 -> + 00b80001 @10
Debug: 2184 353 riscv-013.c:404 scan():  ->  hartsello=184 dmactive
Debug: 2185 353 riscv-013.c:393 scan(): 41b 4i w 00b90001 @10 -> + 00000000 @10
Debug: 2186 353 riscv-013.c:404 scan():  hartsello=185 dmactive -> 
Debug: 2187 354 riscv-013.c:393 scan(): 41b 4i - 00000000 @10 -> + 00b90001 @10
Debug: 2188 354 riscv-013.c:404 scan():  ->  hartsello=185 dmactive
Debug: 2189 354 riscv-013.c:393 scan(): 41b 4i r 00000000 @11 -> + 00000000 @10
Debug: 2190 354 riscv-013.c:393 scan(): 41b 4i - 00000000 @11 -> + 00003082 @11
Debug: 2191 354 riscv-013.c:404 scan():  ->  allunavail anyunavail authenticated version=2
Debug: 2192 355 riscv-013.c:393 scan(): 41b 4i r 00000000 @10 -> + 00000000 @11
Debug: 2193 355 riscv-013.c:393 scan(): 41b 4i - 00000000 @10 -> + 00b90001 @10
Debug: 2194 355 riscv-013.c:404 scan():  ->  hartsello=185 dmactive
Debug: 2195 355 riscv-013.c:393 scan(): 41b 4i w 00ba0001 @10 -> + 00000000 @10
Debug: 2196 355 riscv-013.c:404 scan():  hartsello=186 dmactive -> 
Debug: 2197 355 riscv-013.c:393 scan(): 41b 4i - 00000000 @10 -> + 00ba0001 @10
Debug: 2198 355 riscv-013.c:404 scan():  ->  hartsello=186 dmactive
Debug: 2199 356 riscv-013.c:393 scan(): 41b 4i r 00000000 @11 -> + 00000000 @10
Debug: 2200 356 riscv-013.c:393 scan(): 41b 4i - 00000000 @11 -> + 00003082 @11
Debug: 2201 356 riscv-013.c:404 scan():  ->  allunavail anyunavail authenticated version=2
Debug: 2202 356 riscv-013.c:393 scan(): 41b 4i r 00000000 @10 -> + 00000000 @11
Debug: 2203 357 riscv-013.c:393 scan(): 41b 4i - 00000000 @10 -> + 00ba0001 @10
Debug: 2204 357 riscv-013.c:404 scan():  ->  hartsello=186 dmactive
Debug: 2205 357 riscv-013.c:393 scan(): 41b 4i w 00bb0001 @10 -> + 00000000 @10
Debug: 2206 357 riscv-013.c:404 scan():  hartsello=187 dmactive -> 
Debug: 2207 357 riscv-013.c:393 scan(): 41b 4i - 00000000 @10 -> + 00bb0001 @10
Debug: 2208 357 riscv-013.c:404 scan():  ->  hartsello=187 dmactive
Debug: 2209 357 riscv-013.c:393 scan(): 41b 4i r 00000000 @11 -> + 00000000 @10
Debug: 2210 358 riscv-013.c:393 scan(): 41b 4i - 00000000 @11 -> + 00003082 @11
Debug: 2211 358 riscv-013.c:404 scan():  ->  allunavail anyunavail authenticated version=2
Debug: 2212 358 riscv-013.c:393 scan(): 41b 4i r 00000000 @10 -> + 00000000 @11
Debug: 2213 358 riscv-013.c:393 scan(): 41b 4i - 00000000 @10 -> + 00bb0001 @10
Debug: 2214 358 riscv-013.c:404 scan():  ->  hartsello=187 dmactive
Debug: 2215 359 riscv-013.c:393 scan(): 41b 4i w 00bc0001 @10 -> + 00000000 @10
Debug: 2216 359 riscv-013.c:404 scan():  hartsello=188 dmactive -> 
Debug: 2217 359 riscv-013.c:393 scan(): 41b 4i - 00000000 @10 -> + 00bc0001 @10
Debug: 2218 359 riscv-013.c:404 scan():  ->  hartsello=188 dmactive
Debug: 2219 359 riscv-013.c:393 scan(): 41b 4i r 00000000 @11 -> + 00000000 @10
Debug: 2220 360 riscv-013.c:393 scan(): 41b 4i - 00000000 @11 -> + 00003082 @11
Debug: 2221 360 riscv-013.c:404 scan():  ->  allunavail anyunavail authenticated version=2
Debug: 2222 360 riscv-013.c:393 scan(): 41b 4i r 00000000 @10 -> + 00000000 @11
Debug: 2223 360 riscv-013.c:393 scan(): 41b 4i - 00000000 @10 -> + 00bc0001 @10
Debug: 2224 360 riscv-013.c:404 scan():  ->  hartsello=188 dmactive
Debug: 2225 361 riscv-013.c:393 scan(): 41b 4i w 00bd0001 @10 -> + 00000000 @10
Debug: 2226 361 riscv-013.c:404 scan():  hartsello=189 dmactive -> 
Debug: 2227 361 riscv-013.c:393 scan(): 41b 4i - 00000000 @10 -> + 00bd0001 @10
Debug: 2228 361 riscv-013.c:404 scan():  ->  hartsello=189 dmactive
Debug: 2229 361 riscv-013.c:393 scan(): 41b 4i r 00000000 @11 -> + 00000000 @10
Debug: 2230 362 riscv-013.c:393 scan(): 41b 4i - 00000000 @11 -> + 00003082 @11
Debug: 2231 362 riscv-013.c:404 scan():  ->  allunavail anyunavail authenticated version=2
Debug: 2232 362 riscv-013.c:393 scan(): 41b 4i r 00000000 @10 -> + 00000000 @11
Debug: 2233 362 riscv-013.c:393 scan(): 41b 4i - 00000000 @10 -> + 00bd0001 @10
Debug: 2234 362 riscv-013.c:404 scan():  ->  hartsello=189 dmactive
Debug: 2235 363 riscv-013.c:393 scan(): 41b 4i w 00be0001 @10 -> + 00000000 @10
Debug: 2236 363 riscv-013.c:404 scan():  hartsello=190 dmactive -> 
Debug: 2237 363 riscv-013.c:393 scan(): 41b 4i - 00000000 @10 -> + 00be0001 @10
Debug: 2238 363 riscv-013.c:404 scan():  ->  hartsello=190 dmactive
Debug: 2239 363 riscv-013.c:393 scan(): 41b 4i r 00000000 @11 -> + 00000000 @10
Debug: 2240 363 riscv-013.c:393 scan(): 41b 4i - 00000000 @11 -> + 00003082 @11
Debug: 2241 363 riscv-013.c:404 scan():  ->  allunavail anyunavail authenticated version=2
Debug: 2242 364 riscv-013.c:393 scan(): 41b 4i r 00000000 @10 -> + 00000000 @11
Debug: 2243 364 riscv-013.c:393 scan(): 41b 4i - 00000000 @10 -> + 00be0001 @10
Debug: 2244 364 riscv-013.c:404 scan():  ->  hartsello=190 dmactive
Debug: 2245 364 riscv-013.c:393 scan(): 41b 4i w 00bf0001 @10 -> + 00000000 @10
Debug: 2246 364 riscv-013.c:404 scan():  hartsello=191 dmactive -> 
Debug: 2247 365 riscv-013.c:393 scan(): 41b 4i - 00000000 @10 -> + 00bf0001 @10
Debug: 2248 365 riscv-013.c:404 scan():  ->  hartsello=191 dmactive
Debug: 2249 365 riscv-013.c:393 scan(): 41b 4i r 00000000 @11 -> + 00000000 @10
Debug: 2250 365 riscv-013.c:393 scan(): 41b 4i - 00000000 @11 -> + 00003082 @11
Debug: 2251 365 riscv-013.c:404 scan():  ->  allunavail anyunavail authenticated version=2
Debug: 2252 365 riscv-013.c:393 scan(): 41b 4i r 00000000 @10 -> + 00000000 @11
Debug: 2253 366 riscv-013.c:393 scan(): 41b 4i - 00000000 @10 -> + 00bf0001 @10
Debug: 2254 366 riscv-013.c:404 scan():  ->  hartsello=191 dmactive
Debug: 2255 366 riscv-013.c:393 scan(): 41b 4i w 00c00001 @10 -> + 00000000 @10
Debug: 2256 366 riscv-013.c:404 scan():  hartsello=192 dmactive -> 
Debug: 2257 366 riscv-013.c:393 scan(): 41b 4i - 00000000 @10 -> + 00c00001 @10
Debug: 2258 366 riscv-013.c:404 scan():  ->  hartsello=192 dmactive
Debug: 2259 366 riscv-013.c:393 scan(): 41b 4i r 00000000 @11 -> + 00000000 @10
Debug: 2260 367 riscv-013.c:393 scan(): 41b 4i - 00000000 @11 -> + 00003082 @11
Debug: 2261 367 riscv-013.c:404 scan():  ->  allunavail anyunavail authenticated version=2
Debug: 2262 367 riscv-013.c:393 scan(): 41b 4i r 00000000 @10 -> + 00000000 @11
Debug: 2263 367 riscv-013.c:393 scan(): 41b 4i - 00000000 @10 -> + 00c00001 @10
Debug: 2264 367 riscv-013.c:404 scan():  ->  hartsello=192 dmactive
Debug: 2265 368 riscv-013.c:393 scan(): 41b 4i w 00c10001 @10 -> + 00000000 @10
Debug: 2266 368 riscv-013.c:404 scan():  hartsello=193 dmactive -> 
Debug: 2267 368 riscv-013.c:393 scan(): 41b 4i - 00000000 @10 -> + 00c10001 @10
Debug: 2268 368 riscv-013.c:404 scan():  ->  hartsello=193 dmactive
Debug: 2269 368 riscv-013.c:393 scan(): 41b 4i r 00000000 @11 -> + 00000000 @10
Debug: 2270 369 riscv-013.c:393 scan(): 41b 4i - 00000000 @11 -> + 00003082 @11
Debug: 2271 369 riscv-013.c:404 scan():  ->  allunavail anyunavail authenticated version=2
Debug: 2272 369 riscv-013.c:393 scan(): 41b 4i r 00000000 @10 -> + 00000000 @11
Debug: 2273 369 riscv-013.c:393 scan(): 41b 4i - 00000000 @10 -> + 00c10001 @10
Debug: 2274 369 riscv-013.c:404 scan():  ->  hartsello=193 dmactive
Debug: 2275 369 riscv-013.c:393 scan(): 41b 4i w 00c20001 @10 -> + 00000000 @10
Debug: 2276 369 riscv-013.c:404 scan():  hartsello=194 dmactive -> 
Debug: 2277 370 riscv-013.c:393 scan(): 41b 4i - 00000000 @10 -> + 00c20001 @10
Debug: 2278 370 riscv-013.c:404 scan():  ->  hartsello=194 dmactive
Debug: 2279 370 riscv-013.c:393 scan(): 41b 4i r 00000000 @11 -> + 00000000 @10
Debug: 2280 370 riscv-013.c:393 scan(): 41b 4i - 00000000 @11 -> + 00003082 @11
Debug: 2281 370 riscv-013.c:404 scan():  ->  allunavail anyunavail authenticated version=2
Debug: 2282 371 riscv-013.c:393 scan(): 41b 4i r 00000000 @10 -> + 00000000 @11
Debug: 2283 371 riscv-013.c:393 scan(): 41b 4i - 00000000 @10 -> + 00c20001 @10
Debug: 2284 371 riscv-013.c:404 scan():  ->  hartsello=194 dmactive
Debug: 2285 371 riscv-013.c:393 scan(): 41b 4i w 00c30001 @10 -> + 00000000 @10
Debug: 2286 371 riscv-013.c:404 scan():  hartsello=195 dmactive -> 
Debug: 2287 371 riscv-013.c:393 scan(): 41b 4i - 00000000 @10 -> + 00c30001 @10
Debug: 2288 372 riscv-013.c:404 scan():  ->  hartsello=195 dmactive
Debug: 2289 372 riscv-013.c:393 scan(): 41b 4i r 00000000 @11 -> + 00000000 @10
Debug: 2290 372 riscv-013.c:393 scan(): 41b 4i - 00000000 @11 -> + 00003082 @11
Debug: 2291 372 riscv-013.c:404 scan():  ->  allunavail anyunavail authenticated version=2
Debug: 2292 372 riscv-013.c:393 scan(): 41b 4i r 00000000 @10 -> + 00000000 @11
Debug: 2293 373 riscv-013.c:393 scan(): 41b 4i - 00000000 @10 -> + 00c30001 @10
Debug: 2294 373 riscv-013.c:404 scan():  ->  hartsello=195 dmactive
Debug: 2295 373 riscv-013.c:393 scan(): 41b 4i w 00c40001 @10 -> + 00000000 @10
Debug: 2296 373 riscv-013.c:404 scan():  hartsello=196 dmactive -> 
Debug: 2297 373 riscv-013.c:393 scan(): 41b 4i - 00000000 @10 -> + 00c40001 @10
Debug: 2298 373 riscv-013.c:404 scan():  ->  hartsello=196 dmactive
Debug: 2299 373 riscv-013.c:393 scan(): 41b 4i r 00000000 @11 -> + 00000000 @10
Debug: 2300 374 riscv-013.c:393 scan(): 41b 4i - 00000000 @11 -> + 00003082 @11
Debug: 2301 374 riscv-013.c:404 scan():  ->  allunavail anyunavail authenticated version=2
Debug: 2302 374 riscv-013.c:393 scan(): 41b 4i r 00000000 @10 -> + 00000000 @11
Debug: 2303 374 riscv-013.c:393 scan(): 41b 4i - 00000000 @10 -> + 00c40001 @10
Debug: 2304 374 riscv-013.c:404 scan():  ->  hartsello=196 dmactive
Debug: 2305 375 riscv-013.c:393 scan(): 41b 4i w 00c50001 @10 -> + 00000000 @10
Debug: 2306 375 riscv-013.c:404 scan():  hartsello=197 dmactive -> 
Debug: 2307 375 riscv-013.c:393 scan(): 41b 4i - 00000000 @10 -> + 00c50001 @10
Debug: 2308 375 riscv-013.c:404 scan():  ->  hartsello=197 dmactive
Debug: 2309 375 riscv-013.c:393 scan(): 41b 4i r 00000000 @11 -> + 00000000 @10
Debug: 2310 376 riscv-013.c:393 scan(): 41b 4i - 00000000 @11 -> + 00003082 @11
Debug: 2311 376 riscv-013.c:404 scan():  ->  allunavail anyunavail authenticated version=2
Debug: 2312 376 riscv-013.c:393 scan(): 41b 4i r 00000000 @10 -> + 00000000 @11
Debug: 2313 376 riscv-013.c:393 scan(): 41b 4i - 00000000 @10 -> + 00c50001 @10
Debug: 2314 376 riscv-013.c:404 scan():  ->  hartsello=197 dmactive
Debug: 2315 377 riscv-013.c:393 scan(): 41b 4i w 00c60001 @10 -> + 00000000 @10
Debug: 2316 377 riscv-013.c:404 scan():  hartsello=198 dmactive -> 
Debug: 2317 377 riscv-013.c:393 scan(): 41b 4i - 00000000 @10 -> + 00c60001 @10
Debug: 2318 377 riscv-013.c:404 scan():  ->  hartsello=198 dmactive
Debug: 2319 377 riscv-013.c:393 scan(): 41b 4i r 00000000 @11 -> + 00000000 @10
Debug: 2320 377 riscv-013.c:393 scan(): 41b 4i - 00000000 @11 -> + 00003082 @11
Debug: 2321 377 riscv-013.c:404 scan():  ->  allunavail anyunavail authenticated version=2
Debug: 2322 377 riscv-013.c:393 scan(): 41b 4i r 00000000 @10 -> + 00000000 @11
Debug: 2323 378 riscv-013.c:393 scan(): 41b 4i - 00000000 @10 -> + 00c60001 @10
Debug: 2324 378 riscv-013.c:404 scan():  ->  hartsello=198 dmactive
Debug: 2325 378 riscv-013.c:393 scan(): 41b 4i w 00c70001 @10 -> + 00000000 @10
Debug: 2326 378 riscv-013.c:404 scan():  hartsello=199 dmactive -> 
Debug: 2327 378 riscv-013.c:393 scan(): 41b 4i - 00000000 @10 -> + 00c70001 @10
Debug: 2328 378 riscv-013.c:404 scan():  ->  hartsello=199 dmactive
Debug: 2329 379 riscv-013.c:393 scan(): 41b 4i r 00000000 @11 -> + 00000000 @10
Debug: 2330 379 riscv-013.c:393 scan(): 41b 4i - 00000000 @11 -> + 00003082 @11
Debug: 2331 379 riscv-013.c:404 scan():  ->  allunavail anyunavail authenticated version=2
Debug: 2332 379 riscv-013.c:393 scan(): 41b 4i r 00000000 @10 -> + 00000000 @11
Debug: 2333 380 riscv-013.c:393 scan(): 41b 4i - 00000000 @10 -> + 00c70001 @10
Debug: 2334 380 riscv-013.c:404 scan():  ->  hartsello=199 dmactive
Debug: 2335 380 riscv-013.c:393 scan(): 41b 4i w 00c80001 @10 -> + 00000000 @10
Debug: 2336 380 riscv-013.c:404 scan():  hartsello=200 dmactive -> 
Debug: 2337 380 riscv-013.c:393 scan(): 41b 4i - 00000000 @10 -> + 00c80001 @10
Debug: 2338 380 riscv-013.c:404 scan():  ->  hartsello=200 dmactive
Debug: 2339 381 riscv-013.c:393 scan(): 41b 4i r 00000000 @11 -> + 00000000 @10
Debug: 2340 381 riscv-013.c:393 scan(): 41b 4i - 00000000 @11 -> + 00003082 @11
Debug: 2341 381 riscv-013.c:404 scan():  ->  allunavail anyunavail authenticated version=2
Debug: 2342 381 riscv-013.c:393 scan(): 41b 4i r 00000000 @10 -> + 00000000 @11
Debug: 2343 381 riscv-013.c:393 scan(): 41b 4i - 00000000 @10 -> + 00c80001 @10
Debug: 2344 381 riscv-013.c:404 scan():  ->  hartsello=200 dmactive
Debug: 2345 382 riscv-013.c:393 scan(): 41b 4i w 00c90001 @10 -> + 00000000 @10
Debug: 2346 382 riscv-013.c:404 scan():  hartsello=201 dmactive -> 
Debug: 2347 382 riscv-013.c:393 scan(): 41b 4i - 00000000 @10 -> + 00c90001 @10
Debug: 2348 382 riscv-013.c:404 scan():  ->  hartsello=201 dmactive
Debug: 2349 382 riscv-013.c:393 scan(): 41b 4i r 00000000 @11 -> + 00000000 @10
Debug: 2350 383 riscv-013.c:393 scan(): 41b 4i - 00000000 @11 -> + 00003082 @11
Debug: 2351 383 riscv-013.c:404 scan():  ->  allunavail anyunavail authenticated version=2
Debug: 2352 383 riscv-013.c:393 scan(): 41b 4i r 00000000 @10 -> + 00000000 @11
Debug: 2353 383 riscv-013.c:393 scan(): 41b 4i - 00000000 @10 -> + 00c90001 @10
Debug: 2354 383 riscv-013.c:404 scan():  ->  hartsello=201 dmactive
Debug: 2355 384 riscv-013.c:393 scan(): 41b 4i w 00ca0001 @10 -> + 00000000 @10
Debug: 2356 384 riscv-013.c:404 scan():  hartsello=202 dmactive -> 
Debug: 2357 384 riscv-013.c:393 scan(): 41b 4i - 00000000 @10 -> + 00ca0001 @10
Debug: 2358 384 riscv-013.c:404 scan():  ->  hartsello=202 dmactive
Debug: 2359 384 riscv-013.c:393 scan(): 41b 4i r 00000000 @11 -> + 00000000 @10
Debug: 2360 385 riscv-013.c:393 scan(): 41b 4i - 00000000 @11 -> + 00003082 @11
Debug: 2361 385 riscv-013.c:404 scan():  ->  allunavail anyunavail authenticated version=2
Debug: 2362 385 riscv-013.c:393 scan(): 41b 4i r 00000000 @10 -> + 00000000 @11
Debug: 2363 385 riscv-013.c:393 scan(): 41b 4i - 00000000 @10 -> + 00ca0001 @10
Debug: 2364 385 riscv-013.c:404 scan():  ->  hartsello=202 dmactive
Debug: 2365 386 riscv-013.c:393 scan(): 41b 4i w 00cb0001 @10 -> + 00000000 @10
Debug: 2366 386 riscv-013.c:404 scan():  hartsello=203 dmactive -> 
Debug: 2367 386 riscv-013.c:393 scan(): 41b 4i - 00000000 @10 -> + 00cb0001 @10
Debug: 2368 386 riscv-013.c:404 scan():  ->  hartsello=203 dmactive
Debug: 2369 386 riscv-013.c:393 scan(): 41b 4i r 00000000 @11 -> + 00000000 @10
Debug: 2370 386 riscv-013.c:393 scan(): 41b 4i - 00000000 @11 -> + 00003082 @11
Debug: 2371 387 riscv-013.c:404 scan():  ->  allunavail anyunavail authenticated version=2
Debug: 2372 387 riscv-013.c:393 scan(): 41b 4i r 00000000 @10 -> + 00000000 @11
Debug: 2373 387 riscv-013.c:393 scan(): 41b 4i - 00000000 @10 -> + 00cb0001 @10
Debug: 2374 387 riscv-013.c:404 scan():  ->  hartsello=203 dmactive
Debug: 2375 387 riscv-013.c:393 scan(): 41b 4i w 00cc0001 @10 -> + 00000000 @10
Debug: 2376 387 riscv-013.c:404 scan():  hartsello=204 dmactive -> 
Debug: 2377 388 riscv-013.c:393 scan(): 41b 4i - 00000000 @10 -> + 00cc0001 @10
Debug: 2378 388 riscv-013.c:404 scan():  ->  hartsello=204 dmactive
Debug: 2379 388 riscv-013.c:393 scan(): 41b 4i r 00000000 @11 -> + 00000000 @10
Debug: 2380 388 riscv-013.c:393 scan(): 41b 4i - 00000000 @11 -> + 00003082 @11
Debug: 2381 388 riscv-013.c:404 scan():  ->  allunavail anyunavail authenticated version=2
Debug: 2382 389 riscv-013.c:393 scan(): 41b 4i r 00000000 @10 -> + 00000000 @11
Debug: 2383 389 riscv-013.c:393 scan(): 41b 4i - 00000000 @10 -> + 00cc0001 @10
Debug: 2384 389 riscv-013.c:404 scan():  ->  hartsello=204 dmactive
Debug: 2385 389 riscv-013.c:393 scan(): 41b 4i w 00cd0001 @10 -> + 00000000 @10
Debug: 2386 389 riscv-013.c:404 scan():  hartsello=205 dmactive -> 
Debug: 2387 390 riscv-013.c:393 scan(): 41b 4i - 00000000 @10 -> + 00cd0001 @10
Debug: 2388 390 riscv-013.c:404 scan():  ->  hartsello=205 dmactive
Debug: 2389 390 riscv-013.c:393 scan(): 41b 4i r 00000000 @11 -> + 00000000 @10
Debug: 2390 390 riscv-013.c:393 scan(): 41b 4i - 00000000 @11 -> + 00003082 @11
Debug: 2391 390 riscv-013.c:404 scan():  ->  allunavail anyunavail authenticated version=2
Debug: 2392 390 riscv-013.c:393 scan(): 41b 4i r 00000000 @10 -> + 00000000 @11
Debug: 2393 391 riscv-013.c:393 scan(): 41b 4i - 00000000 @10 -> + 00cd0001 @10
Debug: 2394 391 riscv-013.c:404 scan():  ->  hartsello=205 dmactive
Debug: 2395 391 riscv-013.c:393 scan(): 41b 4i w 00ce0001 @10 -> + 00000000 @10
Debug: 2396 391 riscv-013.c:404 scan():  hartsello=206 dmactive -> 
Debug: 2397 391 riscv-013.c:393 scan(): 41b 4i - 00000000 @10 -> + 00ce0001 @10
Debug: 2398 391 riscv-013.c:404 scan():  ->  hartsello=206 dmactive
Debug: 2399 392 riscv-013.c:393 scan(): 41b 4i r 00000000 @11 -> + 00000000 @10
Debug: 2400 392 riscv-013.c:393 scan(): 41b 4i - 00000000 @11 -> + 00003082 @11
Debug: 2401 392 riscv-013.c:404 scan():  ->  allunavail anyunavail authenticated version=2
Debug: 2402 392 riscv-013.c:393 scan(): 41b 4i r 00000000 @10 -> + 00000000 @11
Debug: 2403 393 riscv-013.c:393 scan(): 41b 4i - 00000000 @10 -> + 00ce0001 @10
Debug: 2404 393 riscv-013.c:404 scan():  ->  hartsello=206 dmactive
Debug: 2405 393 riscv-013.c:393 scan(): 41b 4i w 00cf0001 @10 -> + 00000000 @10
Debug: 2406 393 riscv-013.c:404 scan():  hartsello=207 dmactive -> 
Debug: 2407 393 riscv-013.c:393 scan(): 41b 4i - 00000000 @10 -> + 00cf0001 @10
Debug: 2408 393 riscv-013.c:404 scan():  ->  hartsello=207 dmactive
Debug: 2409 394 riscv-013.c:393 scan(): 41b 4i r 00000000 @11 -> + 00000000 @10
Debug: 2410 394 riscv-013.c:393 scan(): 41b 4i - 00000000 @11 -> + 00003082 @11
Debug: 2411 394 riscv-013.c:404 scan():  ->  allunavail anyunavail authenticated version=2
Debug: 2412 394 riscv-013.c:393 scan(): 41b 4i r 00000000 @10 -> + 00000000 @11
Debug: 2413 394 riscv-013.c:393 scan(): 41b 4i - 00000000 @10 -> + 00cf0001 @10
Debug: 2414 394 riscv-013.c:404 scan():  ->  hartsello=207 dmactive
Debug: 2415 395 riscv-013.c:393 scan(): 41b 4i w 00d00001 @10 -> + 00000000 @10
Debug: 2416 395 riscv-013.c:404 scan():  hartsello=208 dmactive -> 
Debug: 2417 395 riscv-013.c:393 scan(): 41b 4i - 00000000 @10 -> + 00d00001 @10
Debug: 2418 395 riscv-013.c:404 scan():  ->  hartsello=208 dmactive
Debug: 2419 395 riscv-013.c:393 scan(): 41b 4i r 00000000 @11 -> + 00000000 @10
Debug: 2420 396 riscv-013.c:393 scan(): 41b 4i - 00000000 @11 -> + 00003082 @11
Debug: 2421 396 riscv-013.c:404 scan():  ->  allunavail anyunavail authenticated version=2
Debug: 2422 396 riscv-013.c:393 scan(): 41b 4i r 00000000 @10 -> + 00000000 @11
Debug: 2423 396 riscv-013.c:393 scan(): 41b 4i - 00000000 @10 -> + 00d00001 @10
Debug: 2424 396 riscv-013.c:404 scan():  ->  hartsello=208 dmactive
Debug: 2425 397 riscv-013.c:393 scan(): 41b 4i w 00d10001 @10 -> + 00000000 @10
Debug: 2426 397 riscv-013.c:404 scan():  hartsello=209 dmactive -> 
Debug: 2427 397 riscv-013.c:393 scan(): 41b 4i - 00000000 @10 -> + 00d10001 @10
Debug: 2428 397 riscv-013.c:404 scan():  ->  hartsello=209 dmactive
Debug: 2429 397 riscv-013.c:393 scan(): 41b 4i r 00000000 @11 -> + 00000000 @10
Debug: 2430 397 riscv-013.c:393 scan(): 41b 4i - 00000000 @11 -> + 00003082 @11
Debug: 2431 397 riscv-013.c:404 scan():  ->  allunavail anyunavail authenticated version=2
Debug: 2432 398 riscv-013.c:393 scan(): 41b 4i r 00000000 @10 -> + 00000000 @11
Debug: 2433 398 riscv-013.c:393 scan(): 41b 4i - 00000000 @10 -> + 00d10001 @10
Debug: 2434 398 riscv-013.c:404 scan():  ->  hartsello=209 dmactive
Debug: 2435 398 riscv-013.c:393 scan(): 41b 4i w 00d20001 @10 -> + 00000000 @10
Debug: 2436 398 riscv-013.c:404 scan():  hartsello=210 dmactive -> 
Debug: 2437 399 riscv-013.c:393 scan(): 41b 4i - 00000000 @10 -> + 00d20001 @10
Debug: 2438 399 riscv-013.c:404 scan():  ->  hartsello=210 dmactive
Debug: 2439 399 riscv-013.c:393 scan(): 41b 4i r 00000000 @11 -> + 00000000 @10
Debug: 2440 399 riscv-013.c:393 scan(): 41b 4i - 00000000 @11 -> + 00003082 @11
Debug: 2441 399 riscv-013.c:404 scan():  ->  allunavail anyunavail authenticated version=2
Debug: 2442 399 riscv-013.c:393 scan(): 41b 4i r 00000000 @10 -> + 00000000 @11
Debug: 2443 400 riscv-013.c:393 scan(): 41b 4i - 00000000 @10 -> + 00d20001 @10
Debug: 2444 400 riscv-013.c:404 scan():  ->  hartsello=210 dmactive
Debug: 2445 400 riscv-013.c:393 scan(): 41b 4i w 00d30001 @10 -> + 00000000 @10
Debug: 2446 400 riscv-013.c:404 scan():  hartsello=211 dmactive -> 
Debug: 2447 400 riscv-013.c:393 scan(): 41b 4i - 00000000 @10 -> + 00d30001 @10
Debug: 2448 400 riscv-013.c:404 scan():  ->  hartsello=211 dmactive
Debug: 2449 401 riscv-013.c:393 scan(): 41b 4i r 00000000 @11 -> + 00000000 @10
Debug: 2450 401 riscv-013.c:393 scan(): 41b 4i - 00000000 @11 -> + 00003082 @11
Debug: 2451 401 riscv-013.c:404 scan():  ->  allunavail anyunavail authenticated version=2
Debug: 2452 401 riscv-013.c:393 scan(): 41b 4i r 00000000 @10 -> + 00000000 @11
Debug: 2453 401 riscv-013.c:393 scan(): 41b 4i - 00000000 @10 -> + 00d30001 @10
Debug: 2454 401 riscv-013.c:404 scan():  ->  hartsello=211 dmactive
Debug: 2455 402 riscv-013.c:393 scan(): 41b 4i w 00d40001 @10 -> + 00000000 @10
Debug: 2456 402 riscv-013.c:404 scan():  hartsello=212 dmactive -> 
Debug: 2457 402 riscv-013.c:393 scan(): 41b 4i - 00000000 @10 -> + 00d40001 @10
Debug: 2458 402 riscv-013.c:404 scan():  ->  hartsello=212 dmactive
Debug: 2459 402 riscv-013.c:393 scan(): 41b 4i r 00000000 @11 -> + 00000000 @10
Debug: 2460 402 riscv-013.c:393 scan(): 41b 4i - 00000000 @11 -> + 00003082 @11
Debug: 2461 402 riscv-013.c:404 scan():  ->  allunavail anyunavail authenticated version=2
Debug: 2462 403 riscv-013.c:393 scan(): 41b 4i r 00000000 @10 -> + 00000000 @11
Debug: 2463 403 riscv-013.c:393 scan(): 41b 4i - 00000000 @10 -> + 00d40001 @10
Debug: 2464 403 riscv-013.c:404 scan():  ->  hartsello=212 dmactive
Debug: 2465 403 riscv-013.c:393 scan(): 41b 4i w 00d50001 @10 -> + 00000000 @10
Debug: 2466 403 riscv-013.c:404 scan():  hartsello=213 dmactive -> 
Debug: 2467 403 riscv-013.c:393 scan(): 41b 4i - 00000000 @10 -> + 00d50001 @10
Debug: 2468 403 riscv-013.c:404 scan():  ->  hartsello=213 dmactive
Debug: 2469 404 riscv-013.c:393 scan(): 41b 4i r 00000000 @11 -> + 00000000 @10
Debug: 2470 404 riscv-013.c:393 scan(): 41b 4i - 00000000 @11 -> + 00003082 @11
Debug: 2471 404 riscv-013.c:404 scan():  ->  allunavail anyunavail authenticated version=2
Debug: 2472 404 riscv-013.c:393 scan(): 41b 4i r 00000000 @10 -> + 00000000 @11
Debug: 2473 404 riscv-013.c:393 scan(): 41b 4i - 00000000 @10 -> + 00d50001 @10
Debug: 2474 404 riscv-013.c:404 scan():  ->  hartsello=213 dmactive
Debug: 2475 405 riscv-013.c:393 scan(): 41b 4i w 00d60001 @10 -> + 00000000 @10
Debug: 2476 405 riscv-013.c:404 scan():  hartsello=214 dmactive -> 
Debug: 2477 405 riscv-013.c:393 scan(): 41b 4i - 00000000 @10 -> + 00d60001 @10
Debug: 2478 405 riscv-013.c:404 scan():  ->  hartsello=214 dmactive
Debug: 2479 405 riscv-013.c:393 scan(): 41b 4i r 00000000 @11 -> + 00000000 @10
Debug: 2480 406 riscv-013.c:393 scan(): 41b 4i - 00000000 @11 -> + 00003082 @11
Debug: 2481 406 riscv-013.c:404 scan():  ->  allunavail anyunavail authenticated version=2
Debug: 2482 406 riscv-013.c:393 scan(): 41b 4i r 00000000 @10 -> + 00000000 @11
Debug: 2483 406 riscv-013.c:393 scan(): 41b 4i - 00000000 @10 -> + 00d60001 @10
Debug: 2484 406 riscv-013.c:404 scan():  ->  hartsello=214 dmactive
Debug: 2485 406 riscv-013.c:393 scan(): 41b 4i w 00d70001 @10 -> + 00000000 @10
Debug: 2486 406 riscv-013.c:404 scan():  hartsello=215 dmactive -> 
Debug: 2487 407 riscv-013.c:393 scan(): 41b 4i - 00000000 @10 -> + 00d70001 @10
Debug: 2488 407 riscv-013.c:404 scan():  ->  hartsello=215 dmactive
Debug: 2489 407 riscv-013.c:393 scan(): 41b 4i r 00000000 @11 -> + 00000000 @10
Debug: 2490 407 riscv-013.c:393 scan(): 41b 4i - 00000000 @11 -> + 00003082 @11
Debug: 2491 407 riscv-013.c:404 scan():  ->  allunavail anyunavail authenticated version=2
Debug: 2492 408 riscv-013.c:393 scan(): 41b 4i r 00000000 @10 -> + 00000000 @11
Debug: 2493 408 riscv-013.c:393 scan(): 41b 4i - 00000000 @10 -> + 00d70001 @10
Debug: 2494 408 riscv-013.c:404 scan():  ->  hartsello=215 dmactive
Debug: 2495 408 riscv-013.c:393 scan(): 41b 4i w 00d80001 @10 -> + 00000000 @10
Debug: 2496 408 riscv-013.c:404 scan():  hartsello=216 dmactive -> 
Debug: 2497 408 riscv-013.c:393 scan(): 41b 4i - 00000000 @10 -> + 00d80001 @10
Debug: 2498 408 riscv-013.c:404 scan():  ->  hartsello=216 dmactive
Debug: 2499 409 riscv-013.c:393 scan(): 41b 4i r 00000000 @11 -> + 00000000 @10
Debug: 2500 409 riscv-013.c:393 scan(): 41b 4i - 00000000 @11 -> + 00003082 @11
Debug: 2501 409 riscv-013.c:404 scan():  ->  allunavail anyunavail authenticated version=2
Debug: 2502 409 riscv-013.c:393 scan(): 41b 4i r 00000000 @10 -> + 00000000 @11
Debug: 2503 409 riscv-013.c:393 scan(): 41b 4i - 00000000 @10 -> + 00d80001 @10
Debug: 2504 410 riscv-013.c:404 scan():  ->  hartsello=216 dmactive
Debug: 2505 410 riscv-013.c:393 scan(): 41b 4i w 00d90001 @10 -> + 00000000 @10
Debug: 2506 410 riscv-013.c:404 scan():  hartsello=217 dmactive -> 
Debug: 2507 410 riscv-013.c:393 scan(): 41b 4i - 00000000 @10 -> + 00d90001 @10
Debug: 2508 410 riscv-013.c:404 scan():  ->  hartsello=217 dmactive
Debug: 2509 410 riscv-013.c:393 scan(): 41b 4i r 00000000 @11 -> + 00000000 @10
Debug: 2510 411 riscv-013.c:393 scan(): 41b 4i - 00000000 @11 -> + 00003082 @11
Debug: 2511 411 riscv-013.c:404 scan():  ->  allunavail anyunavail authenticated version=2
Debug: 2512 411 riscv-013.c:393 scan(): 41b 4i r 00000000 @10 -> + 00000000 @11
Debug: 2513 411 riscv-013.c:393 scan(): 41b 4i - 00000000 @10 -> + 00d90001 @10
Debug: 2514 411 riscv-013.c:404 scan():  ->  hartsello=217 dmactive
Debug: 2515 412 riscv-013.c:393 scan(): 41b 4i w 00da0001 @10 -> + 00000000 @10
Debug: 2516 412 riscv-013.c:404 scan():  hartsello=218 dmactive -> 
Debug: 2517 412 riscv-013.c:393 scan(): 41b 4i - 00000000 @10 -> + 00da0001 @10
Debug: 2518 412 riscv-013.c:404 scan():  ->  hartsello=218 dmactive
Debug: 2519 412 riscv-013.c:393 scan(): 41b 4i r 00000000 @11 -> + 00000000 @10
Debug: 2520 412 riscv-013.c:393 scan(): 41b 4i - 00000000 @11 -> + 00003082 @11
Debug: 2521 412 riscv-013.c:404 scan():  ->  allunavail anyunavail authenticated version=2
Debug: 2522 413 riscv-013.c:393 scan(): 41b 4i r 00000000 @10 -> + 00000000 @11
Debug: 2523 413 riscv-013.c:393 scan(): 41b 4i - 00000000 @10 -> + 00da0001 @10
Debug: 2524 413 riscv-013.c:404 scan():  ->  hartsello=218 dmactive
Debug: 2525 413 riscv-013.c:393 scan(): 41b 4i w 00db0001 @10 -> + 00000000 @10
Debug: 2526 413 riscv-013.c:404 scan():  hartsello=219 dmactive -> 
Debug: 2527 414 riscv-013.c:393 scan(): 41b 4i - 00000000 @10 -> + 00db0001 @10
Debug: 2528 414 riscv-013.c:404 scan():  ->  hartsello=219 dmactive
Debug: 2529 414 riscv-013.c:393 scan(): 41b 4i r 00000000 @11 -> + 00000000 @10
Debug: 2530 414 riscv-013.c:393 scan(): 41b 4i - 00000000 @11 -> + 00003082 @11
Debug: 2531 414 riscv-013.c:404 scan():  ->  allunavail anyunavail authenticated version=2
Debug: 2532 415 riscv-013.c:393 scan(): 41b 4i r 00000000 @10 -> + 00000000 @11
Debug: 2533 415 riscv-013.c:393 scan(): 41b 4i - 00000000 @10 -> + 00db0001 @10
Debug: 2534 415 riscv-013.c:404 scan():  ->  hartsello=219 dmactive
Debug: 2535 415 riscv-013.c:393 scan(): 41b 4i w 00dc0001 @10 -> + 00000000 @10
Debug: 2536 415 riscv-013.c:404 scan():  hartsello=220 dmactive -> 
Debug: 2537 415 riscv-013.c:393 scan(): 41b 4i - 00000000 @10 -> + 00dc0001 @10
Debug: 2538 415 riscv-013.c:404 scan():  ->  hartsello=220 dmactive
Debug: 2539 416 riscv-013.c:393 scan(): 41b 4i r 00000000 @11 -> + 00000000 @10
Debug: 2540 416 riscv-013.c:393 scan(): 41b 4i - 00000000 @11 -> + 00003082 @11
Debug: 2541 416 riscv-013.c:404 scan():  ->  allunavail anyunavail authenticated version=2
Debug: 2542 416 riscv-013.c:393 scan(): 41b 4i r 00000000 @10 -> + 00000000 @11
Debug: 2543 417 riscv-013.c:393 scan(): 41b 4i - 00000000 @10 -> + 00dc0001 @10
Debug: 2544 417 riscv-013.c:404 scan():  ->  hartsello=220 dmactive
Debug: 2545 417 riscv-013.c:393 scan(): 41b 4i w 00dd0001 @10 -> + 00000000 @10
Debug: 2546 417 riscv-013.c:404 scan():  hartsello=221 dmactive -> 
Debug: 2547 417 riscv-013.c:393 scan(): 41b 4i - 00000000 @10 -> + 00dd0001 @10
Debug: 2548 417 riscv-013.c:404 scan():  ->  hartsello=221 dmactive
Debug: 2549 418 riscv-013.c:393 scan(): 41b 4i r 00000000 @11 -> + 00000000 @10
Debug: 2550 418 riscv-013.c:393 scan(): 41b 4i - 00000000 @11 -> + 00003082 @11
Debug: 2551 418 riscv-013.c:404 scan():  ->  allunavail anyunavail authenticated version=2
Debug: 2552 418 riscv-013.c:393 scan(): 41b 4i r 00000000 @10 -> + 00000000 @11
Debug: 2553 418 riscv-013.c:393 scan(): 41b 4i - 00000000 @10 -> + 00dd0001 @10
Debug: 2554 418 riscv-013.c:404 scan():  ->  hartsello=221 dmactive
Debug: 2555 419 riscv-013.c:393 scan(): 41b 4i w 00de0001 @10 -> + 00000000 @10
Debug: 2556 419 riscv-013.c:404 scan():  hartsello=222 dmactive -> 
Debug: 2557 419 riscv-013.c:393 scan(): 41b 4i - 00000000 @10 -> + 00de0001 @10
Debug: 2558 419 riscv-013.c:404 scan():  ->  hartsello=222 dmactive
Debug: 2559 419 riscv-013.c:393 scan(): 41b 4i r 00000000 @11 -> + 00000000 @10
Debug: 2560 420 riscv-013.c:393 scan(): 41b 4i - 00000000 @11 -> + 00003082 @11
Debug: 2561 420 riscv-013.c:404 scan():  ->  allunavail anyunavail authenticated version=2
Debug: 2562 420 riscv-013.c:393 scan(): 41b 4i r 00000000 @10 -> + 00000000 @11
Debug: 2563 420 riscv-013.c:393 scan(): 41b 4i - 00000000 @10 -> + 00de0001 @10
Debug: 2564 420 riscv-013.c:404 scan():  ->  hartsello=222 dmactive
Debug: 2565 420 riscv-013.c:393 scan(): 41b 4i w 00df0001 @10 -> + 00000000 @10
Debug: 2566 421 riscv-013.c:404 scan():  hartsello=223 dmactive -> 
Debug: 2567 421 riscv-013.c:393 scan(): 41b 4i - 00000000 @10 -> + 00df0001 @10
Debug: 2568 421 riscv-013.c:404 scan():  ->  hartsello=223 dmactive
Debug: 2569 421 riscv-013.c:393 scan(): 41b 4i r 00000000 @11 -> + 00000000 @10
Debug: 2570 421 riscv-013.c:393 scan(): 41b 4i - 00000000 @11 -> + 00003082 @11
Debug: 2571 421 riscv-013.c:404 scan():  ->  allunavail anyunavail authenticated version=2
Debug: 2572 422 riscv-013.c:393 scan(): 41b 4i r 00000000 @10 -> + 00000000 @11
Debug: 2573 422 riscv-013.c:393 scan(): 41b 4i - 00000000 @10 -> + 00df0001 @10
Debug: 2574 422 riscv-013.c:404 scan():  ->  hartsello=223 dmactive
Debug: 2575 422 riscv-013.c:393 scan(): 41b 4i w 00e00001 @10 -> + 00000000 @10
Debug: 2576 422 riscv-013.c:404 scan():  hartsello=224 dmactive -> 
Debug: 2577 423 riscv-013.c:393 scan(): 41b 4i - 00000000 @10 -> + 00e00001 @10
Debug: 2578 423 riscv-013.c:404 scan():  ->  hartsello=224 dmactive
Debug: 2579 423 riscv-013.c:393 scan(): 41b 4i r 00000000 @11 -> + 00000000 @10
Debug: 2580 423 riscv-013.c:393 scan(): 41b 4i - 00000000 @11 -> + 00003082 @11
Debug: 2581 423 riscv-013.c:404 scan():  ->  allunavail anyunavail authenticated version=2
Debug: 2582 423 riscv-013.c:393 scan(): 41b 4i r 00000000 @10 -> + 00000000 @11
Debug: 2583 424 riscv-013.c:393 scan(): 41b 4i - 00000000 @10 -> + 00e00001 @10
Debug: 2584 424 riscv-013.c:404 scan():  ->  hartsello=224 dmactive
Debug: 2585 424 riscv-013.c:393 scan(): 41b 4i w 00e10001 @10 -> + 00000000 @10
Debug: 2586 424 riscv-013.c:404 scan():  hartsello=225 dmactive -> 
Debug: 2587 424 riscv-013.c:393 scan(): 41b 4i - 00000000 @10 -> + 00e10001 @10
Debug: 2588 424 riscv-013.c:404 scan():  ->  hartsello=225 dmactive
Debug: 2589 425 riscv-013.c:393 scan(): 41b 4i r 00000000 @11 -> + 00000000 @10
Debug: 2590 425 riscv-013.c:393 scan(): 41b 4i - 00000000 @11 -> + 00003082 @11
Debug: 2591 425 riscv-013.c:404 scan():  ->  allunavail anyunavail authenticated version=2
Debug: 2592 425 riscv-013.c:393 scan(): 41b 4i r 00000000 @10 -> + 00000000 @11
Debug: 2593 425 riscv-013.c:393 scan(): 41b 4i - 00000000 @10 -> + 00e10001 @10
Debug: 2594 425 riscv-013.c:404 scan():  ->  hartsello=225 dmactive
Debug: 2595 426 riscv-013.c:393 scan(): 41b 4i w 00e20001 @10 -> + 00000000 @10
Debug: 2596 426 riscv-013.c:404 scan():  hartsello=226 dmactive -> 
Debug: 2597 426 riscv-013.c:393 scan(): 41b 4i - 00000000 @10 -> + 00e20001 @10
Debug: 2598 426 riscv-013.c:404 scan():  ->  hartsello=226 dmactive
Debug: 2599 426 riscv-013.c:393 scan(): 41b 4i r 00000000 @11 -> + 00000000 @10
Debug: 2600 426 riscv-013.c:393 scan(): 41b 4i - 00000000 @11 -> + 00003082 @11
Debug: 2601 426 riscv-013.c:404 scan():  ->  allunavail anyunavail authenticated version=2
Debug: 2602 427 riscv-013.c:393 scan(): 41b 4i r 00000000 @10 -> + 00000000 @11
Debug: 2603 427 riscv-013.c:393 scan(): 41b 4i - 00000000 @10 -> + 00e20001 @10
Debug: 2604 427 riscv-013.c:404 scan():  ->  hartsello=226 dmactive
Debug: 2605 427 riscv-013.c:393 scan(): 41b 4i w 00e30001 @10 -> + 00000000 @10
Debug: 2606 427 riscv-013.c:404 scan():  hartsello=227 dmactive -> 
Debug: 2607 428 riscv-013.c:393 scan(): 41b 4i - 00000000 @10 -> + 00e30001 @10
Debug: 2608 428 riscv-013.c:404 scan():  ->  hartsello=227 dmactive
Debug: 2609 428 riscv-013.c:393 scan(): 41b 4i r 00000000 @11 -> + 00000000 @10
Debug: 2610 428 riscv-013.c:393 scan(): 41b 4i - 00000000 @11 -> + 00003082 @11
Debug: 2611 428 riscv-013.c:404 scan():  ->  allunavail anyunavail authenticated version=2
Debug: 2612 429 riscv-013.c:393 scan(): 41b 4i r 00000000 @10 -> + 00000000 @11
Debug: 2613 429 riscv-013.c:393 scan(): 41b 4i - 00000000 @10 -> + 00e30001 @10
Debug: 2614 429 riscv-013.c:404 scan():  ->  hartsello=227 dmactive
Debug: 2615 429 riscv-013.c:393 scan(): 41b 4i w 00e40001 @10 -> + 00000000 @10
Debug: 2616 429 riscv-013.c:404 scan():  hartsello=228 dmactive -> 
Debug: 2617 430 riscv-013.c:393 scan(): 41b 4i - 00000000 @10 -> + 00e40001 @10
Debug: 2618 430 riscv-013.c:404 scan():  ->  hartsello=228 dmactive
Debug: 2619 430 riscv-013.c:393 scan(): 41b 4i r 00000000 @11 -> + 00000000 @10
Debug: 2620 430 riscv-013.c:393 scan(): 41b 4i - 00000000 @11 -> + 00003082 @11
Debug: 2621 430 riscv-013.c:404 scan():  ->  allunavail anyunavail authenticated version=2
Debug: 2622 430 riscv-013.c:393 scan(): 41b 4i r 00000000 @10 -> + 00000000 @11
Debug: 2623 431 riscv-013.c:393 scan(): 41b 4i - 00000000 @10 -> + 00e40001 @10
Debug: 2624 431 riscv-013.c:404 scan():  ->  hartsello=228 dmactive
Debug: 2625 431 riscv-013.c:393 scan(): 41b 4i w 00e50001 @10 -> + 00000000 @10
Debug: 2626 431 riscv-013.c:404 scan():  hartsello=229 dmactive -> 
Debug: 2627 431 riscv-013.c:393 scan(): 41b 4i - 00000000 @10 -> + 00e50001 @10
Debug: 2628 431 riscv-013.c:404 scan():  ->  hartsello=229 dmactive
Debug: 2629 431 riscv-013.c:393 scan(): 41b 4i r 00000000 @11 -> + 00000000 @10
Debug: 2630 432 riscv-013.c:393 scan(): 41b 4i - 00000000 @11 -> + 00003082 @11
Debug: 2631 432 riscv-013.c:404 scan():  ->  allunavail anyunavail authenticated version=2
Debug: 2632 432 riscv-013.c:393 scan(): 41b 4i r 00000000 @10 -> + 00000000 @11
Debug: 2633 432 riscv-013.c:393 scan(): 41b 4i - 00000000 @10 -> + 00e50001 @10
Debug: 2634 432 riscv-013.c:404 scan():  ->  hartsello=229 dmactive
Debug: 2635 432 riscv-013.c:393 scan(): 41b 4i w 00e60001 @10 -> + 00000000 @10
Debug: 2636 432 riscv-013.c:404 scan():  hartsello=230 dmactive -> 
Debug: 2637 433 riscv-013.c:393 scan(): 41b 4i - 00000000 @10 -> + 00e60001 @10
Debug: 2638 433 riscv-013.c:404 scan():  ->  hartsello=230 dmactive
Debug: 2639 433 riscv-013.c:393 scan(): 41b 4i r 00000000 @11 -> + 00000000 @10
Debug: 2640 433 riscv-013.c:393 scan(): 41b 4i - 00000000 @11 -> + 00003082 @11
Debug: 2641 433 riscv-013.c:404 scan():  ->  allunavail anyunavail authenticated version=2
Debug: 2642 434 riscv-013.c:393 scan(): 41b 4i r 00000000 @10 -> + 00000000 @11
Debug: 2643 434 riscv-013.c:393 scan(): 41b 4i - 00000000 @10 -> + 00e60001 @10
Debug: 2644 434 riscv-013.c:404 scan():  ->  hartsello=230 dmactive
Debug: 2645 434 riscv-013.c:393 scan(): 41b 4i w 00e70001 @10 -> + 00000000 @10
Debug: 2646 434 riscv-013.c:404 scan():  hartsello=231 dmactive -> 
Debug: 2647 434 riscv-013.c:393 scan(): 41b 4i - 00000000 @10 -> + 00e70001 @10
Debug: 2648 435 riscv-013.c:404 scan():  ->  hartsello=231 dmactive
Debug: 2649 435 riscv-013.c:393 scan(): 41b 4i r 00000000 @11 -> + 00000000 @10
Debug: 2650 435 riscv-013.c:393 scan(): 41b 4i - 00000000 @11 -> + 00003082 @11
Debug: 2651 435 riscv-013.c:404 scan():  ->  allunavail anyunavail authenticated version=2
Debug: 2652 435 riscv-013.c:393 scan(): 41b 4i r 00000000 @10 -> + 00000000 @11
Debug: 2653 436 riscv-013.c:393 scan(): 41b 4i - 00000000 @10 -> + 00e70001 @10
Debug: 2654 436 riscv-013.c:404 scan():  ->  hartsello=231 dmactive
Debug: 2655 436 riscv-013.c:393 scan(): 41b 4i w 00e80001 @10 -> + 00000000 @10
Debug: 2656 436 riscv-013.c:404 scan():  hartsello=232 dmactive -> 
Debug: 2657 436 riscv-013.c:393 scan(): 41b 4i - 00000000 @10 -> + 00e80001 @10
Debug: 2658 436 riscv-013.c:404 scan():  ->  hartsello=232 dmactive
Debug: 2659 436 riscv-013.c:393 scan(): 41b 4i r 00000000 @11 -> + 00000000 @10
Debug: 2660 437 riscv-013.c:393 scan(): 41b 4i - 00000000 @11 -> + 00003082 @11
Debug: 2661 437 riscv-013.c:404 scan():  ->  allunavail anyunavail authenticated version=2
Debug: 2662 437 riscv-013.c:393 scan(): 41b 4i r 00000000 @10 -> + 00000000 @11
Debug: 2663 437 riscv-013.c:393 scan(): 41b 4i - 00000000 @10 -> + 00e80001 @10
Debug: 2664 437 riscv-013.c:404 scan():  ->  hartsello=232 dmactive
Debug: 2665 437 riscv-013.c:393 scan(): 41b 4i w 00e90001 @10 -> + 00000000 @10
Debug: 2666 438 riscv-013.c:404 scan():  hartsello=233 dmactive -> 
Debug: 2667 438 riscv-013.c:393 scan(): 41b 4i - 00000000 @10 -> + 00e90001 @10
Debug: 2668 438 riscv-013.c:404 scan():  ->  hartsello=233 dmactive
Debug: 2669 438 riscv-013.c:393 scan(): 41b 4i r 00000000 @11 -> + 00000000 @10
Debug: 2670 438 riscv-013.c:393 scan(): 41b 4i - 00000000 @11 -> + 00003082 @11
Debug: 2671 438 riscv-013.c:404 scan():  ->  allunavail anyunavail authenticated version=2
Debug: 2672 439 riscv-013.c:393 scan(): 41b 4i r 00000000 @10 -> + 00000000 @11
Debug: 2673 439 riscv-013.c:393 scan(): 41b 4i - 00000000 @10 -> + 00e90001 @10
Debug: 2674 439 riscv-013.c:404 scan():  ->  hartsello=233 dmactive
Debug: 2675 439 riscv-013.c:393 scan(): 41b 4i w 00ea0001 @10 -> + 00000000 @10
Debug: 2676 439 riscv-013.c:404 scan():  hartsello=234 dmactive -> 
Debug: 2677 440 riscv-013.c:393 scan(): 41b 4i - 00000000 @10 -> + 00ea0001 @10
Debug: 2678 440 riscv-013.c:404 scan():  ->  hartsello=234 dmactive
Debug: 2679 440 riscv-013.c:393 scan(): 41b 4i r 00000000 @11 -> + 00000000 @10
Debug: 2680 440 riscv-013.c:393 scan(): 41b 4i - 00000000 @11 -> + 00003082 @11
Debug: 2681 440 riscv-013.c:404 scan():  ->  allunavail anyunavail authenticated version=2
Debug: 2682 441 riscv-013.c:393 scan(): 41b 4i r 00000000 @10 -> + 00000000 @11
Debug: 2683 441 riscv-013.c:393 scan(): 41b 4i - 00000000 @10 -> + 00ea0001 @10
Debug: 2684 441 riscv-013.c:404 scan():  ->  hartsello=234 dmactive
Debug: 2685 441 riscv-013.c:393 scan(): 41b 4i w 00eb0001 @10 -> + 00000000 @10
Debug: 2686 441 riscv-013.c:404 scan():  hartsello=235 dmactive -> 
Debug: 2687 441 riscv-013.c:393 scan(): 41b 4i - 00000000 @10 -> + 00eb0001 @10
Debug: 2688 441 riscv-013.c:404 scan():  ->  hartsello=235 dmactive
Debug: 2689 442 riscv-013.c:393 scan(): 41b 4i r 00000000 @11 -> + 00000000 @10
Debug: 2690 442 riscv-013.c:393 scan(): 41b 4i - 00000000 @11 -> + 00003082 @11
Debug: 2691 442 riscv-013.c:404 scan():  ->  allunavail anyunavail authenticated version=2
Debug: 2692 442 riscv-013.c:393 scan(): 41b 4i r 00000000 @10 -> + 00000000 @11
Debug: 2693 443 riscv-013.c:393 scan(): 41b 4i - 00000000 @10 -> + 00eb0001 @10
Debug: 2694 443 riscv-013.c:404 scan():  ->  hartsello=235 dmactive
Debug: 2695 443 riscv-013.c:393 scan(): 41b 4i w 00ec0001 @10 -> + 00000000 @10
Debug: 2696 443 riscv-013.c:404 scan():  hartsello=236 dmactive -> 
Debug: 2697 443 riscv-013.c:393 scan(): 41b 4i - 00000000 @10 -> + 00ec0001 @10
Debug: 2698 443 riscv-013.c:404 scan():  ->  hartsello=236 dmactive
Debug: 2699 443 riscv-013.c:393 scan(): 41b 4i r 00000000 @11 -> + 00000000 @10
Debug: 2700 444 riscv-013.c:393 scan(): 41b 4i - 00000000 @11 -> + 00003082 @11
Debug: 2701 444 riscv-013.c:404 scan():  ->  allunavail anyunavail authenticated version=2
Debug: 2702 444 riscv-013.c:393 scan(): 41b 4i r 00000000 @10 -> + 00000000 @11
Debug: 2703 444 riscv-013.c:393 scan(): 41b 4i - 00000000 @10 -> + 00ec0001 @10
Debug: 2704 444 riscv-013.c:404 scan():  ->  hartsello=236 dmactive
Debug: 2705 445 riscv-013.c:393 scan(): 41b 4i w 00ed0001 @10 -> + 00000000 @10
Debug: 2706 445 riscv-013.c:404 scan():  hartsello=237 dmactive -> 
Debug: 2707 445 riscv-013.c:393 scan(): 41b 4i - 00000000 @10 -> + 00ed0001 @10
Debug: 2708 445 riscv-013.c:404 scan():  ->  hartsello=237 dmactive
Debug: 2709 445 riscv-013.c:393 scan(): 41b 4i r 00000000 @11 -> + 00000000 @10
Debug: 2710 445 riscv-013.c:393 scan(): 41b 4i - 00000000 @11 -> + 00003082 @11
Debug: 2711 445 riscv-013.c:404 scan():  ->  allunavail anyunavail authenticated version=2
Debug: 2712 446 riscv-013.c:393 scan(): 41b 4i r 00000000 @10 -> + 00000000 @11
Debug: 2713 446 riscv-013.c:393 scan(): 41b 4i - 00000000 @10 -> + 00ed0001 @10
Debug: 2714 446 riscv-013.c:404 scan():  ->  hartsello=237 dmactive
Debug: 2715 446 riscv-013.c:393 scan(): 41b 4i w 00ee0001 @10 -> + 00000000 @10
Debug: 2716 446 riscv-013.c:404 scan():  hartsello=238 dmactive -> 
Debug: 2717 446 riscv-013.c:393 scan(): 41b 4i - 00000000 @10 -> + 00ee0001 @10
Debug: 2718 446 riscv-013.c:404 scan():  ->  hartsello=238 dmactive
Debug: 2719 447 riscv-013.c:393 scan(): 41b 4i r 00000000 @11 -> + 00000000 @10
Debug: 2720 447 riscv-013.c:393 scan(): 41b 4i - 00000000 @11 -> + 00003082 @11
Debug: 2721 447 riscv-013.c:404 scan():  ->  allunavail anyunavail authenticated version=2
Debug: 2722 447 riscv-013.c:393 scan(): 41b 4i r 00000000 @10 -> + 00000000 @11
Debug: 2723 448 riscv-013.c:393 scan(): 41b 4i - 00000000 @10 -> + 00ee0001 @10
Debug: 2724 448 riscv-013.c:404 scan():  ->  hartsello=238 dmactive
Debug: 2725 448 riscv-013.c:393 scan(): 41b 4i w 00ef0001 @10 -> + 00000000 @10
Debug: 2726 448 riscv-013.c:404 scan():  hartsello=239 dmactive -> 
Debug: 2727 448 riscv-013.c:393 scan(): 41b 4i - 00000000 @10 -> + 00ef0001 @10
Debug: 2728 448 riscv-013.c:404 scan():  ->  hartsello=239 dmactive
Debug: 2729 449 riscv-013.c:393 scan(): 41b 4i r 00000000 @11 -> + 00000000 @10
Debug: 2730 449 riscv-013.c:393 scan(): 41b 4i - 00000000 @11 -> + 00003082 @11
Debug: 2731 449 riscv-013.c:404 scan():  ->  allunavail anyunavail authenticated version=2
Debug: 2732 449 riscv-013.c:393 scan(): 41b 4i r 00000000 @10 -> + 00000000 @11
Debug: 2733 450 riscv-013.c:393 scan(): 41b 4i - 00000000 @10 -> + 00ef0001 @10
Debug: 2734 450 riscv-013.c:404 scan():  ->  hartsello=239 dmactive
Debug: 2735 450 riscv-013.c:393 scan(): 41b 4i w 00f00001 @10 -> + 00000000 @10
Debug: 2736 450 riscv-013.c:404 scan():  hartsello=240 dmactive -> 
Debug: 2737 450 riscv-013.c:393 scan(): 41b 4i - 00000000 @10 -> + 00f00001 @10
Debug: 2738 450 riscv-013.c:404 scan():  ->  hartsello=240 dmactive
Debug: 2739 450 riscv-013.c:393 scan(): 41b 4i r 00000000 @11 -> + 00000000 @10
Debug: 2740 451 riscv-013.c:393 scan(): 41b 4i - 00000000 @11 -> + 00003082 @11
Debug: 2741 451 riscv-013.c:404 scan():  ->  allunavail anyunavail authenticated version=2
Debug: 2742 451 riscv-013.c:393 scan(): 41b 4i r 00000000 @10 -> + 00000000 @11
Debug: 2743 451 riscv-013.c:393 scan(): 41b 4i - 00000000 @10 -> + 00f00001 @10
Debug: 2744 451 riscv-013.c:404 scan():  ->  hartsello=240 dmactive
Debug: 2745 451 riscv-013.c:393 scan(): 41b 4i w 00f10001 @10 -> + 00000000 @10
Debug: 2746 451 riscv-013.c:404 scan():  hartsello=241 dmactive -> 
Debug: 2747 452 riscv-013.c:393 scan(): 41b 4i - 00000000 @10 -> + 00f10001 @10
Debug: 2748 452 riscv-013.c:404 scan():  ->  hartsello=241 dmactive
Debug: 2749 452 riscv-013.c:393 scan(): 41b 4i r 00000000 @11 -> + 00000000 @10
Debug: 2750 452 riscv-013.c:393 scan(): 41b 4i - 00000000 @11 -> + 00003082 @11
Debug: 2751 452 riscv-013.c:404 scan():  ->  allunavail anyunavail authenticated version=2
Debug: 2752 453 riscv-013.c:393 scan(): 41b 4i r 00000000 @10 -> + 00000000 @11
Debug: 2753 453 riscv-013.c:393 scan(): 41b 4i - 00000000 @10 -> + 00f10001 @10
Debug: 2754 453 riscv-013.c:404 scan():  ->  hartsello=241 dmactive
Debug: 2755 453 riscv-013.c:393 scan(): 41b 4i w 00f20001 @10 -> + 00000000 @10
Debug: 2756 453 riscv-013.c:404 scan():  hartsello=242 dmactive -> 
Debug: 2757 453 riscv-013.c:393 scan(): 41b 4i - 00000000 @10 -> + 00f20001 @10
Debug: 2758 453 riscv-013.c:404 scan():  ->  hartsello=242 dmactive
Debug: 2759 454 riscv-013.c:393 scan(): 41b 4i r 00000000 @11 -> + 00000000 @10
Debug: 2760 454 riscv-013.c:393 scan(): 41b 4i - 00000000 @11 -> + 00003082 @11
Debug: 2761 454 riscv-013.c:404 scan():  ->  allunavail anyunavail authenticated version=2
Debug: 2762 454 riscv-013.c:393 scan(): 41b 4i r 00000000 @10 -> + 00000000 @11
Debug: 2763 454 riscv-013.c:393 scan(): 41b 4i - 00000000 @10 -> + 00f20001 @10
Debug: 2764 454 riscv-013.c:404 scan():  ->  hartsello=242 dmactive
Debug: 2765 455 riscv-013.c:393 scan(): 41b 4i w 00f30001 @10 -> + 00000000 @10
Debug: 2766 455 riscv-013.c:404 scan():  hartsello=243 dmactive -> 
Debug: 2767 455 riscv-013.c:393 scan(): 41b 4i - 00000000 @10 -> + 00f30001 @10
Debug: 2768 455 riscv-013.c:404 scan():  ->  hartsello=243 dmactive
Debug: 2769 455 riscv-013.c:393 scan(): 41b 4i r 00000000 @11 -> + 00000000 @10
Debug: 2770 455 riscv-013.c:393 scan(): 41b 4i - 00000000 @11 -> + 00003082 @11
Debug: 2771 455 riscv-013.c:404 scan():  ->  allunavail anyunavail authenticated version=2
Debug: 2772 456 riscv-013.c:393 scan(): 41b 4i r 00000000 @10 -> + 00000000 @11
Debug: 2773 456 riscv-013.c:393 scan(): 41b 4i - 00000000 @10 -> + 00f30001 @10
Debug: 2774 456 riscv-013.c:404 scan():  ->  hartsello=243 dmactive
Debug: 2775 456 riscv-013.c:393 scan(): 41b 4i w 00f40001 @10 -> + 00000000 @10
Debug: 2776 456 riscv-013.c:404 scan():  hartsello=244 dmactive -> 
Debug: 2777 456 riscv-013.c:393 scan(): 41b 4i - 00000000 @10 -> + 00f40001 @10
Debug: 2778 456 riscv-013.c:404 scan():  ->  hartsello=244 dmactive
Debug: 2779 457 riscv-013.c:393 scan(): 41b 4i r 00000000 @11 -> + 00000000 @10
Debug: 2780 457 riscv-013.c:393 scan(): 41b 4i - 00000000 @11 -> + 00003082 @11
Debug: 2781 457 riscv-013.c:404 scan():  ->  allunavail anyunavail authenticated version=2
Debug: 2782 457 riscv-013.c:393 scan(): 41b 4i r 00000000 @10 -> + 00000000 @11
Debug: 2783 457 riscv-013.c:393 scan(): 41b 4i - 00000000 @10 -> + 00f40001 @10
Debug: 2784 457 riscv-013.c:404 scan():  ->  hartsello=244 dmactive
Debug: 2785 458 riscv-013.c:393 scan(): 41b 4i w 00f50001 @10 -> + 00000000 @10
Debug: 2786 458 riscv-013.c:404 scan():  hartsello=245 dmactive -> 
Debug: 2787 458 riscv-013.c:393 scan(): 41b 4i - 00000000 @10 -> + 00f50001 @10
Debug: 2788 458 riscv-013.c:404 scan():  ->  hartsello=245 dmactive
Debug: 2789 458 riscv-013.c:393 scan(): 41b 4i r 00000000 @11 -> + 00000000 @10
Debug: 2790 458 riscv-013.c:393 scan(): 41b 4i - 00000000 @11 -> + 00003082 @11
Debug: 2791 458 riscv-013.c:404 scan():  ->  allunavail anyunavail authenticated version=2
Debug: 2792 459 riscv-013.c:393 scan(): 41b 4i r 00000000 @10 -> + 00000000 @11
Debug: 2793 459 riscv-013.c:393 scan(): 41b 4i - 00000000 @10 -> + 00f50001 @10
Debug: 2794 459 riscv-013.c:404 scan():  ->  hartsello=245 dmactive
Debug: 2795 459 riscv-013.c:393 scan(): 41b 4i w 00f60001 @10 -> + 00000000 @10
Debug: 2796 459 riscv-013.c:404 scan():  hartsello=246 dmactive -> 
Debug: 2797 459 riscv-013.c:393 scan(): 41b 4i - 00000000 @10 -> + 00f60001 @10
Debug: 2798 459 riscv-013.c:404 scan():  ->  hartsello=246 dmactive
Debug: 2799 460 riscv-013.c:393 scan(): 41b 4i r 00000000 @11 -> + 00000000 @10
Debug: 2800 460 riscv-013.c:393 scan(): 41b 4i - 00000000 @11 -> + 00003082 @11
Debug: 2801 460 riscv-013.c:404 scan():  ->  allunavail anyunavail authenticated version=2
Debug: 2802 460 riscv-013.c:393 scan(): 41b 4i r 00000000 @10 -> + 00000000 @11
Debug: 2803 460 riscv-013.c:393 scan(): 41b 4i - 00000000 @10 -> + 00f60001 @10
Debug: 2804 460 riscv-013.c:404 scan():  ->  hartsello=246 dmactive
Debug: 2805 461 riscv-013.c:393 scan(): 41b 4i w 00f70001 @10 -> + 00000000 @10
Debug: 2806 461 riscv-013.c:404 scan():  hartsello=247 dmactive -> 
Debug: 2807 461 riscv-013.c:393 scan(): 41b 4i - 00000000 @10 -> + 00f70001 @10
Debug: 2808 461 riscv-013.c:404 scan():  ->  hartsello=247 dmactive
Debug: 2809 461 riscv-013.c:393 scan(): 41b 4i r 00000000 @11 -> + 00000000 @10
Debug: 2810 461 riscv-013.c:393 scan(): 41b 4i - 00000000 @11 -> + 00003082 @11
Debug: 2811 461 riscv-013.c:404 scan():  ->  allunavail anyunavail authenticated version=2
Debug: 2812 462 riscv-013.c:393 scan(): 41b 4i r 00000000 @10 -> + 00000000 @11
Debug: 2813 462 riscv-013.c:393 scan(): 41b 4i - 00000000 @10 -> + 00f70001 @10
Debug: 2814 462 riscv-013.c:404 scan():  ->  hartsello=247 dmactive
Debug: 2815 462 riscv-013.c:393 scan(): 41b 4i w 00f80001 @10 -> + 00000000 @10
Debug: 2816 462 riscv-013.c:404 scan():  hartsello=248 dmactive -> 
Debug: 2817 462 riscv-013.c:393 scan(): 41b 4i - 00000000 @10 -> + 00f80001 @10
Debug: 2818 462 riscv-013.c:404 scan():  ->  hartsello=248 dmactive
Debug: 2819 463 riscv-013.c:393 scan(): 41b 4i r 00000000 @11 -> + 00000000 @10
Debug: 2820 463 riscv-013.c:393 scan(): 41b 4i - 00000000 @11 -> + 00003082 @11
Debug: 2821 463 riscv-013.c:404 scan():  ->  allunavail anyunavail authenticated version=2
Debug: 2822 463 riscv-013.c:393 scan(): 41b 4i r 00000000 @10 -> + 00000000 @11
Debug: 2823 463 riscv-013.c:393 scan(): 41b 4i - 00000000 @10 -> + 00f80001 @10
Debug: 2824 463 riscv-013.c:404 scan():  ->  hartsello=248 dmactive
Debug: 2825 464 riscv-013.c:393 scan(): 41b 4i w 00f90001 @10 -> + 00000000 @10
Debug: 2826 464 riscv-013.c:404 scan():  hartsello=249 dmactive -> 
Debug: 2827 464 riscv-013.c:393 scan(): 41b 4i - 00000000 @10 -> + 00f90001 @10
Debug: 2828 464 riscv-013.c:404 scan():  ->  hartsello=249 dmactive
Debug: 2829 464 riscv-013.c:393 scan(): 41b 4i r 00000000 @11 -> + 00000000 @10
Debug: 2830 464 riscv-013.c:393 scan(): 41b 4i - 00000000 @11 -> + 00003082 @11
Debug: 2831 464 riscv-013.c:404 scan():  ->  allunavail anyunavail authenticated version=2
Debug: 2832 465 riscv-013.c:393 scan(): 41b 4i r 00000000 @10 -> + 00000000 @11
Debug: 2833 465 riscv-013.c:393 scan(): 41b 4i - 00000000 @10 -> + 00f90001 @10
Debug: 2834 465 riscv-013.c:404 scan():  ->  hartsello=249 dmactive
Debug: 2835 465 riscv-013.c:393 scan(): 41b 4i w 00fa0001 @10 -> + 00000000 @10
Debug: 2836 465 riscv-013.c:404 scan():  hartsello=250 dmactive -> 
Debug: 2837 465 riscv-013.c:393 scan(): 41b 4i - 00000000 @10 -> + 00fa0001 @10
Debug: 2838 465 riscv-013.c:404 scan():  ->  hartsello=250 dmactive
Debug: 2839 466 riscv-013.c:393 scan(): 41b 4i r 00000000 @11 -> + 00000000 @10
Debug: 2840 466 riscv-013.c:393 scan(): 41b 4i - 00000000 @11 -> + 00003082 @11
Debug: 2841 466 riscv-013.c:404 scan():  ->  allunavail anyunavail authenticated version=2
Debug: 2842 466 riscv-013.c:393 scan(): 41b 4i r 00000000 @10 -> + 00000000 @11
Debug: 2843 466 riscv-013.c:393 scan(): 41b 4i - 00000000 @10 -> + 00fa0001 @10
Debug: 2844 466 riscv-013.c:404 scan():  ->  hartsello=250 dmactive
Debug: 2845 467 riscv-013.c:393 scan(): 41b 4i w 00fb0001 @10 -> + 00000000 @10
Debug: 2846 467 riscv-013.c:404 scan():  hartsello=251 dmactive -> 
Debug: 2847 467 riscv-013.c:393 scan(): 41b 4i - 00000000 @10 -> + 00fb0001 @10
Debug: 2848 467 riscv-013.c:404 scan():  ->  hartsello=251 dmactive
Debug: 2849 467 riscv-013.c:393 scan(): 41b 4i r 00000000 @11 -> + 00000000 @10
Debug: 2850 467 riscv-013.c:393 scan(): 41b 4i - 00000000 @11 -> + 00003082 @11
Debug: 2851 467 riscv-013.c:404 scan():  ->  allunavail anyunavail authenticated version=2
Debug: 2852 468 riscv-013.c:393 scan(): 41b 4i r 00000000 @10 -> + 00000000 @11
Debug: 2853 468 riscv-013.c:393 scan(): 41b 4i - 00000000 @10 -> + 00fb0001 @10
Debug: 2854 468 riscv-013.c:404 scan():  ->  hartsello=251 dmactive
Debug: 2855 468 riscv-013.c:393 scan(): 41b 4i w 00fc0001 @10 -> + 00000000 @10
Debug: 2856 468 riscv-013.c:404 scan():  hartsello=252 dmactive -> 
Debug: 2857 468 riscv-013.c:393 scan(): 41b 4i - 00000000 @10 -> + 00fc0001 @10
Debug: 2858 468 riscv-013.c:404 scan():  ->  hartsello=252 dmactive
Debug: 2859 469 riscv-013.c:393 scan(): 41b 4i r 00000000 @11 -> + 00000000 @10
Debug: 2860 469 riscv-013.c:393 scan(): 41b 4i - 00000000 @11 -> + 00003082 @11
Debug: 2861 469 riscv-013.c:404 scan():  ->  allunavail anyunavail authenticated version=2
Debug: 2862 469 riscv-013.c:393 scan(): 41b 4i r 00000000 @10 -> + 00000000 @11
Debug: 2863 469 riscv-013.c:393 scan(): 41b 4i - 00000000 @10 -> + 00fc0001 @10
Debug: 2864 469 riscv-013.c:404 scan():  ->  hartsello=252 dmactive
Debug: 2865 470 riscv-013.c:393 scan(): 41b 4i w 00fd0001 @10 -> + 00000000 @10
Debug: 2866 470 riscv-013.c:404 scan():  hartsello=253 dmactive -> 
Debug: 2867 470 riscv-013.c:393 scan(): 41b 4i - 00000000 @10 -> + 00fd0001 @10
Debug: 2868 470 riscv-013.c:404 scan():  ->  hartsello=253 dmactive
Debug: 2869 470 riscv-013.c:393 scan(): 41b 4i r 00000000 @11 -> + 00000000 @10
Debug: 2870 470 riscv-013.c:393 scan(): 41b 4i - 00000000 @11 -> + 00003082 @11
Debug: 2871 470 riscv-013.c:404 scan():  ->  allunavail anyunavail authenticated version=2
Debug: 2872 471 riscv-013.c:393 scan(): 41b 4i r 00000000 @10 -> + 00000000 @11
Debug: 2873 471 riscv-013.c:393 scan(): 41b 4i - 00000000 @10 -> + 00fd0001 @10
Debug: 2874 471 riscv-013.c:404 scan():  ->  hartsello=253 dmactive
Debug: 2875 471 riscv-013.c:393 scan(): 41b 4i w 00fe0001 @10 -> + 00000000 @10
Debug: 2876 471 riscv-013.c:404 scan():  hartsello=254 dmactive -> 
Debug: 2877 471 riscv-013.c:393 scan(): 41b 4i - 00000000 @10 -> + 00fe0001 @10
Debug: 2878 471 riscv-013.c:404 scan():  ->  hartsello=254 dmactive
Debug: 2879 472 riscv-013.c:393 scan(): 41b 4i r 00000000 @11 -> + 00000000 @10
Debug: 2880 472 riscv-013.c:393 scan(): 41b 4i - 00000000 @11 -> + 00003082 @11
Debug: 2881 472 riscv-013.c:404 scan():  ->  allunavail anyunavail authenticated version=2
Debug: 2882 472 riscv-013.c:393 scan(): 41b 4i r 00000000 @10 -> + 00000000 @11
Debug: 2883 472 riscv-013.c:393 scan(): 41b 4i - 00000000 @10 -> + 00fe0001 @10
Debug: 2884 472 riscv-013.c:404 scan():  ->  hartsello=254 dmactive
Debug: 2885 473 riscv-013.c:393 scan(): 41b 4i w 00ff0001 @10 -> + 00000000 @10
Debug: 2886 473 riscv-013.c:404 scan():  hartsello=255 dmactive -> 
Debug: 2887 473 riscv-013.c:393 scan(): 41b 4i - 00000000 @10 -> + 00ff0001 @10
Debug: 2888 473 riscv-013.c:404 scan():  ->  hartsello=255 dmactive
Debug: 2889 473 riscv-013.c:393 scan(): 41b 4i r 00000000 @11 -> + 00000000 @10
Debug: 2890 474 riscv-013.c:393 scan(): 41b 4i - 00000000 @11 -> + 00003082 @11
Debug: 2891 474 riscv-013.c:404 scan():  ->  allunavail anyunavail authenticated version=2
Debug: 2892 474 riscv-013.c:393 scan(): 41b 4i r 00000000 @10 -> + 00000000 @11
Debug: 2893 474 riscv-013.c:393 scan(): 41b 4i - 00000000 @10 -> + 00ff0001 @10
Debug: 2894 474 riscv-013.c:404 scan():  ->  hartsello=255 dmactive
Debug: 2895 474 riscv-013.c:393 scan(): 41b 4i w 01000001 @10 -> + 00000000 @10
Debug: 2896 474 riscv-013.c:404 scan():  hartsello=256 dmactive -> 
Debug: 2897 475 riscv-013.c:393 scan(): 41b 4i - 00000000 @10 -> + 01000001 @10
Debug: 2898 475 riscv-013.c:404 scan():  ->  hartsello=256 dmactive
Debug: 2899 475 riscv-013.c:393 scan(): 41b 4i r 00000000 @11 -> + 00000000 @10
Debug: 2900 475 riscv-013.c:393 scan(): 41b 4i - 00000000 @11 -> + 00003082 @11
Debug: 2901 475 riscv-013.c:404 scan():  ->  allunavail anyunavail authenticated version=2
Debug: 2902 475 riscv-013.c:393 scan(): 41b 4i r 00000000 @10 -> + 00000000 @11
Debug: 2903 476 riscv-013.c:393 scan(): 41b 4i - 00000000 @10 -> + 01000001 @10
Debug: 2904 476 riscv-013.c:404 scan():  ->  hartsello=256 dmactive
Debug: 2905 476 riscv-013.c:393 scan(): 41b 4i w 01010001 @10 -> + 00000000 @10
Debug: 2906 476 riscv-013.c:404 scan():  hartsello=257 dmactive -> 
Debug: 2907 476 riscv-013.c:393 scan(): 41b 4i - 00000000 @10 -> + 01010001 @10
Debug: 2908 476 riscv-013.c:404 scan():  ->  hartsello=257 dmactive
Debug: 2909 476 riscv-013.c:393 scan(): 41b 4i r 00000000 @11 -> + 00000000 @10
Debug: 2910 477 riscv-013.c:393 scan(): 41b 4i - 00000000 @11 -> + 00003082 @11
Debug: 2911 477 riscv-013.c:404 scan():  ->  allunavail anyunavail authenticated version=2
Debug: 2912 477 riscv-013.c:393 scan(): 41b 4i r 00000000 @10 -> + 00000000 @11
Debug: 2913 477 riscv-013.c:393 scan(): 41b 4i - 00000000 @10 -> + 01010001 @10
Debug: 2914 477 riscv-013.c:404 scan():  ->  hartsello=257 dmactive
Debug: 2915 477 riscv-013.c:393 scan(): 41b 4i w 01020001 @10 -> + 00000000 @10
Debug: 2916 477 riscv-013.c:404 scan():  hartsello=258 dmactive -> 
Debug: 2917 477 riscv-013.c:393 scan(): 41b 4i - 00000000 @10 -> + 01020001 @10
Debug: 2918 477 riscv-013.c:404 scan():  ->  hartsello=258 dmactive
Debug: 2919 478 riscv-013.c:393 scan(): 41b 4i r 00000000 @11 -> + 00000000 @10
Debug: 2920 478 riscv-013.c:393 scan(): 41b 4i - 00000000 @11 -> + 00003082 @11
Debug: 2921 478 riscv-013.c:404 scan():  ->  allunavail anyunavail authenticated version=2
Debug: 2922 478 riscv-013.c:393 scan(): 41b 4i r 00000000 @10 -> + 00000000 @11
Debug: 2923 478 riscv-013.c:393 scan(): 41b 4i - 00000000 @10 -> + 01020001 @10
Debug: 2924 478 riscv-013.c:404 scan():  ->  hartsello=258 dmactive
Debug: 2925 479 riscv-013.c:393 scan(): 41b 4i w 01030001 @10 -> + 00000000 @10
Debug: 2926 479 riscv-013.c:404 scan():  hartsello=259 dmactive -> 
Debug: 2927 479 riscv-013.c:393 scan(): 41b 4i - 00000000 @10 -> + 01030001 @10
Debug: 2928 479 riscv-013.c:404 scan():  ->  hartsello=259 dmactive
Debug: 2929 479 riscv-013.c:393 scan(): 41b 4i r 00000000 @11 -> + 00000000 @10
Debug: 2930 479 riscv-013.c:393 scan(): 41b 4i - 00000000 @11 -> + 00003082 @11
Debug: 2931 479 riscv-013.c:404 scan():  ->  allunavail anyunavail authenticated version=2
Debug: 2932 480 riscv-013.c:393 scan(): 41b 4i r 00000000 @10 -> + 00000000 @11
Debug: 2933 480 riscv-013.c:393 scan(): 41b 4i - 00000000 @10 -> + 01030001 @10
Debug: 2934 480 riscv-013.c:404 scan():  ->  hartsello=259 dmactive
Debug: 2935 480 riscv-013.c:393 scan(): 41b 4i w 01040001 @10 -> + 00000000 @10
Debug: 2936 480 riscv-013.c:404 scan():  hartsello=260 dmactive -> 
Debug: 2937 481 riscv-013.c:393 scan(): 41b 4i - 00000000 @10 -> + 01040001 @10
Debug: 2938 481 riscv-013.c:404 scan():  ->  hartsello=260 dmactive
Debug: 2939 481 riscv-013.c:393 scan(): 41b 4i r 00000000 @11 -> + 00000000 @10
Debug: 2940 481 riscv-013.c:393 scan(): 41b 4i - 00000000 @11 -> + 00003082 @11
Debug: 2941 481 riscv-013.c:404 scan():  ->  allunavail anyunavail authenticated version=2
Debug: 2942 481 riscv-013.c:393 scan(): 41b 4i r 00000000 @10 -> + 00000000 @11
Debug: 2943 482 riscv-013.c:393 scan(): 41b 4i - 00000000 @10 -> + 01040001 @10
Debug: 2944 482 riscv-013.c:404 scan():  ->  hartsello=260 dmactive
Debug: 2945 482 riscv-013.c:393 scan(): 41b 4i w 01050001 @10 -> + 00000000 @10
Debug: 2946 482 riscv-013.c:404 scan():  hartsello=261 dmactive -> 
Debug: 2947 482 riscv-013.c:393 scan(): 41b 4i - 00000000 @10 -> + 01050001 @10
Debug: 2948 482 riscv-013.c:404 scan():  ->  hartsello=261 dmactive
Debug: 2949 482 riscv-013.c:393 scan(): 41b 4i r 00000000 @11 -> + 00000000 @10
Debug: 2950 483 riscv-013.c:393 scan(): 41b 4i - 00000000 @11 -> + 00003082 @11
Debug: 2951 483 riscv-013.c:404 scan():  ->  allunavail anyunavail authenticated version=2
Debug: 2952 483 riscv-013.c:393 scan(): 41b 4i r 00000000 @10 -> + 00000000 @11
Debug: 2953 483 riscv-013.c:393 scan(): 41b 4i - 00000000 @10 -> + 01050001 @10
Debug: 2954 483 riscv-013.c:404 scan():  ->  hartsello=261 dmactive
Debug: 2955 483 riscv-013.c:393 scan(): 41b 4i w 01060001 @10 -> + 00000000 @10
Debug: 2956 483 riscv-013.c:404 scan():  hartsello=262 dmactive -> 
Debug: 2957 484 riscv-013.c:393 scan(): 41b 4i - 00000000 @10 -> + 01060001 @10
Debug: 2958 484 riscv-013.c:404 scan():  ->  hartsello=262 dmactive
Debug: 2959 484 riscv-013.c:393 scan(): 41b 4i r 00000000 @11 -> + 00000000 @10
Debug: 2960 484 riscv-013.c:393 scan(): 41b 4i - 00000000 @11 -> + 00003082 @11
Debug: 2961 484 riscv-013.c:404 scan():  ->  allunavail anyunavail authenticated version=2
Debug: 2962 484 riscv-013.c:393 scan(): 41b 4i r 00000000 @10 -> + 00000000 @11
Debug: 2963 485 riscv-013.c:393 scan(): 41b 4i - 00000000 @10 -> + 01060001 @10
Debug: 2964 485 riscv-013.c:404 scan():  ->  hartsello=262 dmactive
Debug: 2965 485 riscv-013.c:393 scan(): 41b 4i w 01070001 @10 -> + 00000000 @10
Debug: 2966 485 riscv-013.c:404 scan():  hartsello=263 dmactive -> 
Debug: 2967 485 riscv-013.c:393 scan(): 41b 4i - 00000000 @10 -> + 01070001 @10
Debug: 2968 485 riscv-013.c:404 scan():  ->  hartsello=263 dmactive
Debug: 2969 485 riscv-013.c:393 scan(): 41b 4i r 00000000 @11 -> + 00000000 @10
Debug: 2970 486 riscv-013.c:393 scan(): 41b 4i - 00000000 @11 -> + 00003082 @11
Debug: 2971 486 riscv-013.c:404 scan():  ->  allunavail anyunavail authenticated version=2
Debug: 2972 486 riscv-013.c:393 scan(): 41b 4i r 00000000 @10 -> + 00000000 @11
Debug: 2973 486 riscv-013.c:393 scan(): 41b 4i - 00000000 @10 -> + 01070001 @10
Debug: 2974 486 riscv-013.c:404 scan():  ->  hartsello=263 dmactive
Debug: 2975 486 riscv-013.c:393 scan(): 41b 4i w 01080001 @10 -> + 00000000 @10
Debug: 2976 486 riscv-013.c:404 scan():  hartsello=264 dmactive -> 
Debug: 2977 487 riscv-013.c:393 scan(): 41b 4i - 00000000 @10 -> + 01080001 @10
Debug: 2978 487 riscv-013.c:404 scan():  ->  hartsello=264 dmactive
Debug: 2979 487 riscv-013.c:393 scan(): 41b 4i r 00000000 @11 -> + 00000000 @10
Debug: 2980 487 riscv-013.c:393 scan(): 41b 4i - 00000000 @11 -> + 00003082 @11
Debug: 2981 487 riscv-013.c:404 scan():  ->  allunavail anyunavail authenticated version=2
Debug: 2982 488 riscv-013.c:393 scan(): 41b 4i r 00000000 @10 -> + 00000000 @11
Debug: 2983 488 riscv-013.c:393 scan(): 41b 4i - 00000000 @10 -> + 01080001 @10
Debug: 2984 488 riscv-013.c:404 scan():  ->  hartsello=264 dmactive
Debug: 2985 488 riscv-013.c:393 scan(): 41b 4i w 01090001 @10 -> + 00000000 @10
Debug: 2986 488 riscv-013.c:404 scan():  hartsello=265 dmactive -> 
Debug: 2987 488 riscv-013.c:393 scan(): 41b 4i - 00000000 @10 -> + 01090001 @10
Debug: 2988 488 riscv-013.c:404 scan():  ->  hartsello=265 dmactive
Debug: 2989 489 riscv-013.c:393 scan(): 41b 4i r 00000000 @11 -> + 00000000 @10
Debug: 2990 489 riscv-013.c:393 scan(): 41b 4i - 00000000 @11 -> + 00003082 @11
Debug: 2991 489 riscv-013.c:404 scan():  ->  allunavail anyunavail authenticated version=2
Debug: 2992 489 riscv-013.c:393 scan(): 41b 4i r 00000000 @10 -> + 00000000 @11
Debug: 2993 489 riscv-013.c:393 scan(): 41b 4i - 00000000 @10 -> + 01090001 @10
Debug: 2994 489 riscv-013.c:404 scan():  ->  hartsello=265 dmactive
Debug: 2995 490 riscv-013.c:393 scan(): 41b 4i w 010a0001 @10 -> + 00000000 @10
Debug: 2996 490 riscv-013.c:404 scan():  hartsello=266 dmactive -> 
Debug: 2997 490 riscv-013.c:393 scan(): 41b 4i - 00000000 @10 -> + 010a0001 @10
Debug: 2998 490 riscv-013.c:404 scan():  ->  hartsello=266 dmactive
Debug: 2999 490 riscv-013.c:393 scan(): 41b 4i r 00000000 @11 -> + 00000000 @10
Debug: 3000 490 riscv-013.c:393 scan(): 41b 4i - 00000000 @11 -> + 00003082 @11
Debug: 3001 490 riscv-013.c:404 scan():  ->  allunavail anyunavail authenticated version=2
Debug: 3002 491 riscv-013.c:393 scan(): 41b 4i r 00000000 @10 -> + 00000000 @11
Debug: 3003 491 riscv-013.c:393 scan(): 41b 4i - 00000000 @10 -> + 010a0001 @10
Debug: 3004 491 riscv-013.c:404 scan():  ->  hartsello=266 dmactive
Debug: 3005 491 riscv-013.c:393 scan(): 41b 4i w 010b0001 @10 -> + 00000000 @10
Debug: 3006 491 riscv-013.c:404 scan():  hartsello=267 dmactive -> 
Debug: 3007 492 riscv-013.c:393 scan(): 41b 4i - 00000000 @10 -> + 010b0001 @10
Debug: 3008 492 riscv-013.c:404 scan():  ->  hartsello=267 dmactive
Debug: 3009 492 riscv-013.c:393 scan(): 41b 4i r 00000000 @11 -> + 00000000 @10
Debug: 3010 492 riscv-013.c:393 scan(): 41b 4i - 00000000 @11 -> + 00003082 @11
Debug: 3011 492 riscv-013.c:404 scan():  ->  allunavail anyunavail authenticated version=2
Debug: 3012 492 riscv-013.c:393 scan(): 41b 4i r 00000000 @10 -> + 00000000 @11
Debug: 3013 492 riscv-013.c:393 scan(): 41b 4i - 00000000 @10 -> + 010b0001 @10
Debug: 3014 492 riscv-013.c:404 scan():  ->  hartsello=267 dmactive
Debug: 3015 493 riscv-013.c:393 scan(): 41b 4i w 010c0001 @10 -> + 00000000 @10
Debug: 3016 493 riscv-013.c:404 scan():  hartsello=268 dmactive -> 
Debug: 3017 493 riscv-013.c:393 scan(): 41b 4i - 00000000 @10 -> + 010c0001 @10
Debug: 3018 493 riscv-013.c:404 scan():  ->  hartsello=268 dmactive
Debug: 3019 493 riscv-013.c:393 scan(): 41b 4i r 00000000 @11 -> + 00000000 @10
Debug: 3020 494 riscv-013.c:393 scan(): 41b 4i - 00000000 @11 -> + 00003082 @11
Debug: 3021 494 riscv-013.c:404 scan():  ->  allunavail anyunavail authenticated version=2
Debug: 3022 494 riscv-013.c:393 scan(): 41b 4i r 00000000 @10 -> + 00000000 @11
Debug: 3023 494 riscv-013.c:393 scan(): 41b 4i - 00000000 @10 -> + 010c0001 @10
Debug: 3024 494 riscv-013.c:404 scan():  ->  hartsello=268 dmactive
Debug: 3025 494 riscv-013.c:393 scan(): 41b 4i w 010d0001 @10 -> + 00000000 @10
Debug: 3026 494 riscv-013.c:404 scan():  hartsello=269 dmactive -> 
Debug: 3027 495 riscv-013.c:393 scan(): 41b 4i - 00000000 @10 -> + 010d0001 @10
Debug: 3028 495 riscv-013.c:404 scan():  ->  hartsello=269 dmactive
Debug: 3029 495 riscv-013.c:393 scan(): 41b 4i r 00000000 @11 -> + 00000000 @10
Debug: 3030 495 riscv-013.c:393 scan(): 41b 4i - 00000000 @11 -> + 00003082 @11
Debug: 3031 495 riscv-013.c:404 scan():  ->  allunavail anyunavail authenticated version=2
Debug: 3032 495 riscv-013.c:393 scan(): 41b 4i r 00000000 @10 -> + 00000000 @11
Debug: 3033 496 riscv-013.c:393 scan(): 41b 4i - 00000000 @10 -> + 010d0001 @10
Debug: 3034 496 riscv-013.c:404 scan():  ->  hartsello=269 dmactive
Debug: 3035 496 riscv-013.c:393 scan(): 41b 4i w 010e0001 @10 -> + 00000000 @10
Debug: 3036 496 riscv-013.c:404 scan():  hartsello=270 dmactive -> 
Debug: 3037 496 riscv-013.c:393 scan(): 41b 4i - 00000000 @10 -> + 010e0001 @10
Debug: 3038 496 riscv-013.c:404 scan():  ->  hartsello=270 dmactive
Debug: 3039 496 riscv-013.c:393 scan(): 41b 4i r 00000000 @11 -> + 00000000 @10
Debug: 3040 497 riscv-013.c:393 scan(): 41b 4i - 00000000 @11 -> + 00003082 @11
Debug: 3041 497 riscv-013.c:404 scan():  ->  allunavail anyunavail authenticated version=2
Debug: 3042 497 riscv-013.c:393 scan(): 41b 4i r 00000000 @10 -> + 00000000 @11
Debug: 3043 497 riscv-013.c:393 scan(): 41b 4i - 00000000 @10 -> + 010e0001 @10
Debug: 3044 497 riscv-013.c:404 scan():  ->  hartsello=270 dmactive
Debug: 3045 497 riscv-013.c:393 scan(): 41b 4i w 010f0001 @10 -> + 00000000 @10
Debug: 3046 497 riscv-013.c:404 scan():  hartsello=271 dmactive -> 
Debug: 3047 498 riscv-013.c:393 scan(): 41b 4i - 00000000 @10 -> + 010f0001 @10
Debug: 3048 498 riscv-013.c:404 scan():  ->  hartsello=271 dmactive
Debug: 3049 498 riscv-013.c:393 scan(): 41b 4i r 00000000 @11 -> + 00000000 @10
Debug: 3050 498 riscv-013.c:393 scan(): 41b 4i - 00000000 @11 -> + 00003082 @11
Debug: 3051 498 riscv-013.c:404 scan():  ->  allunavail anyunavail authenticated version=2
Debug: 3052 498 riscv-013.c:393 scan(): 41b 4i r 00000000 @10 -> + 00000000 @11
Debug: 3053 499 riscv-013.c:393 scan(): 41b 4i - 00000000 @10 -> + 010f0001 @10
Debug: 3054 499 riscv-013.c:404 scan():  ->  hartsello=271 dmactive
Debug: 3055 499 riscv-013.c:393 scan(): 41b 4i w 01100001 @10 -> + 00000000 @10
Debug: 3056 499 riscv-013.c:404 scan():  hartsello=272 dmactive -> 
Debug: 3057 499 riscv-013.c:393 scan(): 41b 4i - 00000000 @10 -> + 01100001 @10
Debug: 3058 499 riscv-013.c:404 scan():  ->  hartsello=272 dmactive
Debug: 3059 499 riscv-013.c:393 scan(): 41b 4i r 00000000 @11 -> + 00000000 @10
Debug: 3060 499 riscv-013.c:393 scan(): 41b 4i - 00000000 @11 -> + 00003082 @11
Debug: 3061 499 riscv-013.c:404 scan():  ->  allunavail anyunavail authenticated version=2
Debug: 3062 500 riscv-013.c:393 scan(): 41b 4i r 00000000 @10 -> + 00000000 @11
Debug: 3063 500 riscv-013.c:393 scan(): 41b 4i - 00000000 @10 -> + 01100001 @10
Debug: 3064 500 riscv-013.c:404 scan():  ->  hartsello=272 dmactive
Debug: 3065 500 riscv-013.c:393 scan(): 41b 4i w 01110001 @10 -> + 00000000 @10
Debug: 3066 500 riscv-013.c:404 scan():  hartsello=273 dmactive -> 
Debug: 3067 501 riscv-013.c:393 scan(): 41b 4i - 00000000 @10 -> + 01110001 @10
Debug: 3068 501 riscv-013.c:404 scan():  ->  hartsello=273 dmactive
Debug: 3070 501 riscv-013.c:393 scan(): 41b 4i r 00000000 @11 -> + 00000000 @10
Debug: 3071 501 riscv-013.c:393 scan(): 41b 4i - 00000000 @11 -> + 00003082 @11
Debug: 3072 501 riscv-013.c:404 scan():  ->  allunavail anyunavail authenticated version=2
Debug: 3073 501 riscv-013.c:393 scan(): 41b 4i r 00000000 @10 -> + 00000000 @11
Debug: 3074 502 riscv-013.c:393 scan(): 41b 4i - 00000000 @10 -> + 01110001 @10
Debug: 3075 502 riscv-013.c:404 scan():  ->  hartsello=273 dmactive
Debug: 3076 502 riscv-013.c:393 scan(): 41b 4i w 01120001 @10 -> + 00000000 @10
Debug: 3077 502 riscv-013.c:404 scan():  hartsello=274 dmactive -> 
Debug: 3078 502 riscv-013.c:393 scan(): 41b 4i - 00000000 @10 -> + 01120001 @10
Debug: 3079 502 riscv-013.c:404 scan():  ->  hartsello=274 dmactive
Debug: 3080 502 riscv-013.c:393 scan(): 41b 4i r 00000000 @11 -> + 00000000 @10
Debug: 3081 503 riscv-013.c:393 scan(): 41b 4i - 00000000 @11 -> + 00003082 @11
Debug: 3082 503 riscv-013.c:404 scan():  ->  allunavail anyunavail authenticated version=2
Debug: 3083 503 riscv-013.c:393 scan(): 41b 4i r 00000000 @10 -> + 00000000 @11
Debug: 3084 503 riscv-013.c:393 scan(): 41b 4i - 00000000 @10 -> + 01120001 @10
Debug: 3085 503 riscv-013.c:404 scan():  ->  hartsello=274 dmactive
Debug: 3086 503 riscv-013.c:393 scan(): 41b 4i w 01130001 @10 -> + 00000000 @10
Debug: 3087 503 riscv-013.c:404 scan():  hartsello=275 dmactive -> 
Debug: 3088 504 riscv-013.c:393 scan(): 41b 4i - 00000000 @10 -> + 01130001 @10
Debug: 3089 504 riscv-013.c:404 scan():  ->  hartsello=275 dmactive
Debug: 3090 504 riscv-013.c:393 scan(): 41b 4i r 00000000 @11 -> + 00000000 @10
Debug: 3091 504 riscv-013.c:393 scan(): 41b 4i - 00000000 @11 -> + 00003082 @11
Debug: 3092 504 riscv-013.c:404 scan():  ->  allunavail anyunavail authenticated version=2
Debug: 3093 504 riscv-013.c:393 scan(): 41b 4i r 00000000 @10 -> + 00000000 @11
Debug: 3094 505 riscv-013.c:393 scan(): 41b 4i - 00000000 @10 -> + 01130001 @10
Debug: 3095 505 riscv-013.c:404 scan():  ->  hartsello=275 dmactive
Debug: 3096 505 riscv-013.c:393 scan(): 41b 4i w 01140001 @10 -> + 00000000 @10
Debug: 3097 505 riscv-013.c:404 scan():  hartsello=276 dmactive -> 
Debug: 3098 505 riscv-013.c:393 scan(): 41b 4i - 00000000 @10 -> + 01140001 @10
Debug: 3099 505 riscv-013.c:404 scan():  ->  hartsello=276 dmactive
Debug: 3100 506 riscv-013.c:393 scan(): 41b 4i r 00000000 @11 -> + 00000000 @10
Debug: 3101 506 riscv-013.c:393 scan(): 41b 4i - 00000000 @11 -> + 00003082 @11
Debug: 3102 506 riscv-013.c:404 scan():  ->  allunavail anyunavail authenticated version=2
Debug: 3103 506 riscv-013.c:393 scan(): 41b 4i r 00000000 @10 -> + 00000000 @11
Debug: 3104 506 riscv-013.c:393 scan(): 41b 4i - 00000000 @10 -> + 01140001 @10
Debug: 3105 506 riscv-013.c:404 scan():  ->  hartsello=276 dmactive
Debug: 3106 507 riscv-013.c:393 scan(): 41b 4i w 01150001 @10 -> + 00000000 @10
Debug: 3107 507 riscv-013.c:404 scan():  hartsello=277 dmactive -> 
Debug: 3108 507 riscv-013.c:393 scan(): 41b 4i - 00000000 @10 -> + 01150001 @10
Debug: 3109 507 riscv-013.c:404 scan():  ->  hartsello=277 dmactive
Debug: 3110 508 riscv-013.c:393 scan(): 41b 4i r 00000000 @11 -> + 00000000 @10
Debug: 3111 508 riscv-013.c:393 scan(): 41b 4i - 00000000 @11 -> + 00003082 @11
Debug: 3112 508 riscv-013.c:404 scan():  ->  allunavail anyunavail authenticated version=2
Debug: 3113 508 riscv-013.c:393 scan(): 41b 4i r 00000000 @10 -> + 00000000 @11
Debug: 3114 508 riscv-013.c:393 scan(): 41b 4i - 00000000 @10 -> + 01150001 @10
Debug: 3115 508 riscv-013.c:404 scan():  ->  hartsello=277 dmactive
Debug: 3116 509 riscv-013.c:393 scan(): 41b 4i w 01160001 @10 -> + 00000000 @10
Debug: 3117 509 riscv-013.c:404 scan():  hartsello=278 dmactive -> 
Debug: 3118 509 riscv-013.c:393 scan(): 41b 4i - 00000000 @10 -> + 01160001 @10
Debug: 3119 509 riscv-013.c:404 scan():  ->  hartsello=278 dmactive
Debug: 3120 509 riscv-013.c:393 scan(): 41b 4i r 00000000 @11 -> + 00000000 @10
Debug: 3121 510 riscv-013.c:393 scan(): 41b 4i - 00000000 @11 -> + 00003082 @11
Debug: 3122 510 riscv-013.c:404 scan():  ->  allunavail anyunavail authenticated version=2
Debug: 3123 510 riscv-013.c:393 scan(): 41b 4i r 00000000 @10 -> + 00000000 @11
Debug: 3124 510 riscv-013.c:393 scan(): 41b 4i - 00000000 @10 -> + 01160001 @10
Debug: 3125 510 riscv-013.c:404 scan():  ->  hartsello=278 dmactive
Debug: 3126 511 riscv-013.c:393 scan(): 41b 4i w 01170001 @10 -> + 00000000 @10
Debug: 3127 511 riscv-013.c:404 scan():  hartsello=279 dmactive -> 
Debug: 3128 511 riscv-013.c:393 scan(): 41b 4i - 00000000 @10 -> + 01170001 @10
Debug: 3129 511 riscv-013.c:404 scan():  ->  hartsello=279 dmactive
Debug: 3130 511 riscv-013.c:393 scan(): 41b 4i r 00000000 @11 -> + 00000000 @10
Debug: 3131 511 riscv-013.c:393 scan(): 41b 4i - 00000000 @11 -> + 00003082 @11
Debug: 3132 511 riscv-013.c:404 scan():  ->  allunavail anyunavail authenticated version=2
Debug: 3133 512 riscv-013.c:393 scan(): 41b 4i r 00000000 @10 -> + 00000000 @11
Debug: 3134 512 riscv-013.c:393 scan(): 41b 4i - 00000000 @10 -> + 01170001 @10
Debug: 3135 512 riscv-013.c:404 scan():  ->  hartsello=279 dmactive
Debug: 3136 512 riscv-013.c:393 scan(): 41b 4i w 01180001 @10 -> + 00000000 @10
Debug: 3137 512 riscv-013.c:404 scan():  hartsello=280 dmactive -> 
Debug: 3138 512 riscv-013.c:393 scan(): 41b 4i - 00000000 @10 -> + 01180001 @10
Debug: 3139 513 riscv-013.c:404 scan():  ->  hartsello=280 dmactive
Debug: 3140 513 riscv-013.c:393 scan(): 41b 4i r 00000000 @11 -> + 00000000 @10
Debug: 3141 513 riscv-013.c:393 scan(): 41b 4i - 00000000 @11 -> + 00003082 @11
Debug: 3142 513 riscv-013.c:404 scan():  ->  allunavail anyunavail authenticated version=2
Debug: 3143 513 riscv-013.c:393 scan(): 41b 4i r 00000000 @10 -> + 00000000 @11
Debug: 3144 514 riscv-013.c:393 scan(): 41b 4i - 00000000 @10 -> + 01180001 @10
Debug: 3145 514 riscv-013.c:404 scan():  ->  hartsello=280 dmactive
Debug: 3146 514 riscv-013.c:393 scan(): 41b 4i w 01190001 @10 -> + 00000000 @10
Debug: 3147 514 riscv-013.c:404 scan():  hartsello=281 dmactive -> 
Debug: 3148 514 riscv-013.c:393 scan(): 41b 4i - 00000000 @10 -> + 01190001 @10
Debug: 3149 514 riscv-013.c:404 scan():  ->  hartsello=281 dmactive
Debug: 3150 515 riscv-013.c:393 scan(): 41b 4i r 00000000 @11 -> + 00000000 @10
Debug: 3151 515 riscv-013.c:393 scan(): 41b 4i - 00000000 @11 -> + 00003082 @11
Debug: 3152 515 riscv-013.c:404 scan():  ->  allunavail anyunavail authenticated version=2
Debug: 3153 515 riscv-013.c:393 scan(): 41b 4i r 00000000 @10 -> + 00000000 @11
Debug: 3154 515 riscv-013.c:393 scan(): 41b 4i - 00000000 @10 -> + 01190001 @10
Debug: 3155 515 riscv-013.c:404 scan():  ->  hartsello=281 dmactive
Debug: 3156 516 riscv-013.c:393 scan(): 41b 4i w 011a0001 @10 -> + 00000000 @10
Debug: 3157 516 riscv-013.c:404 scan():  hartsello=282 dmactive -> 
Debug: 3158 516 riscv-013.c:393 scan(): 41b 4i - 00000000 @10 -> + 011a0001 @10
Debug: 3159 516 riscv-013.c:404 scan():  ->  hartsello=282 dmactive
Debug: 3160 517 riscv-013.c:393 scan(): 41b 4i r 00000000 @11 -> + 00000000 @10
Debug: 3161 517 riscv-013.c:393 scan(): 41b 4i - 00000000 @11 -> + 00003082 @11
Debug: 3162 517 riscv-013.c:404 scan():  ->  allunavail anyunavail authenticated version=2
Debug: 3163 517 riscv-013.c:393 scan(): 41b 4i r 00000000 @10 -> + 00000000 @11
Debug: 3164 517 riscv-013.c:393 scan(): 41b 4i - 00000000 @10 -> + 011a0001 @10
Debug: 3165 517 riscv-013.c:404 scan():  ->  hartsello=282 dmactive
Debug: 3166 518 riscv-013.c:393 scan(): 41b 4i w 011b0001 @10 -> + 00000000 @10
Debug: 3167 518 riscv-013.c:404 scan():  hartsello=283 dmactive -> 
Debug: 3168 518 riscv-013.c:393 scan(): 41b 4i - 00000000 @10 -> + 011b0001 @10
Debug: 3169 518 riscv-013.c:404 scan():  ->  hartsello=283 dmactive
Debug: 3170 518 riscv-013.c:393 scan(): 41b 4i r 00000000 @11 -> + 00000000 @10
Debug: 3171 518 riscv-013.c:393 scan(): 41b 4i - 00000000 @11 -> + 00003082 @11
Debug: 3172 518 riscv-013.c:404 scan():  ->  allunavail anyunavail authenticated version=2
Debug: 3173 519 riscv-013.c:393 scan(): 41b 4i r 00000000 @10 -> + 00000000 @11
Debug: 3174 519 riscv-013.c:393 scan(): 41b 4i - 00000000 @10 -> + 011b0001 @10
Debug: 3175 519 riscv-013.c:404 scan():  ->  hartsello=283 dmactive
Debug: 3176 519 riscv-013.c:393 scan(): 41b 4i w 011c0001 @10 -> + 00000000 @10
Debug: 3177 519 riscv-013.c:404 scan():  hartsello=284 dmactive -> 
Debug: 3178 520 riscv-013.c:393 scan(): 41b 4i - 00000000 @10 -> + 011c0001 @10
Debug: 3179 520 riscv-013.c:404 scan():  ->  hartsello=284 dmactive
Debug: 3180 520 riscv-013.c:393 scan(): 41b 4i r 00000000 @11 -> + 00000000 @10
Debug: 3181 520 riscv-013.c:393 scan(): 41b 4i - 00000000 @11 -> + 00003082 @11
Debug: 3182 520 riscv-013.c:404 scan():  ->  allunavail anyunavail authenticated version=2
Debug: 3183 520 riscv-013.c:393 scan(): 41b 4i r 00000000 @10 -> + 00000000 @11
Debug: 3184 521 riscv-013.c:393 scan(): 41b 4i - 00000000 @10 -> + 011c0001 @10
Debug: 3185 521 riscv-013.c:404 scan():  ->  hartsello=284 dmactive
Debug: 3186 521 riscv-013.c:393 scan(): 41b 4i w 011d0001 @10 -> + 00000000 @10
Debug: 3187 521 riscv-013.c:404 scan():  hartsello=285 dmactive -> 
Debug: 3188 521 riscv-013.c:393 scan(): 41b 4i - 00000000 @10 -> + 011d0001 @10
Debug: 3189 521 riscv-013.c:404 scan():  ->  hartsello=285 dmactive
Debug: 3190 521 riscv-013.c:393 scan(): 41b 4i r 00000000 @11 -> + 00000000 @10
Debug: 3191 522 riscv-013.c:393 scan(): 41b 4i - 00000000 @11 -> + 00003082 @11
Debug: 3192 522 riscv-013.c:404 scan():  ->  allunavail anyunavail authenticated version=2
Debug: 3193 522 riscv-013.c:393 scan(): 41b 4i r 00000000 @10 -> + 00000000 @11
Debug: 3194 522 riscv-013.c:393 scan(): 41b 4i - 00000000 @10 -> + 011d0001 @10
Debug: 3195 522 riscv-013.c:404 scan():  ->  hartsello=285 dmactive
Debug: 3196 523 riscv-013.c:393 scan(): 41b 4i w 011e0001 @10 -> + 00000000 @10
Debug: 3197 523 riscv-013.c:404 scan():  hartsello=286 dmactive -> 
Debug: 3198 523 riscv-013.c:393 scan(): 41b 4i - 00000000 @10 -> + 011e0001 @10
Debug: 3199 523 riscv-013.c:404 scan():  ->  hartsello=286 dmactive
Debug: 3200 523 riscv-013.c:393 scan(): 41b 4i r 00000000 @11 -> + 00000000 @10
Debug: 3201 523 riscv-013.c:393 scan(): 41b 4i - 00000000 @11 -> + 00003082 @11
Debug: 3202 523 riscv-013.c:404 scan():  ->  allunavail anyunavail authenticated version=2
Debug: 3203 524 riscv-013.c:393 scan(): 41b 4i r 00000000 @10 -> + 00000000 @11
Debug: 3204 524 riscv-013.c:393 scan(): 41b 4i - 00000000 @10 -> + 011e0001 @10
Debug: 3205 524 riscv-013.c:404 scan():  ->  hartsello=286 dmactive
Debug: 3206 524 riscv-013.c:393 scan(): 41b 4i w 011f0001 @10 -> + 00000000 @10
Debug: 3207 524 riscv-013.c:404 scan():  hartsello=287 dmactive -> 
Debug: 3208 524 riscv-013.c:393 scan(): 41b 4i - 00000000 @10 -> + 011f0001 @10
Debug: 3209 525 riscv-013.c:404 scan():  ->  hartsello=287 dmactive
Debug: 3210 525 riscv-013.c:393 scan(): 41b 4i r 00000000 @11 -> + 00000000 @10
Debug: 3211 525 riscv-013.c:393 scan(): 41b 4i - 00000000 @11 -> + 00003082 @11
Debug: 3212 525 riscv-013.c:404 scan():  ->  allunavail anyunavail authenticated version=2
Debug: 3213 525 riscv-013.c:393 scan(): 41b 4i r 00000000 @10 -> + 00000000 @11
Debug: 3214 526 riscv-013.c:393 scan(): 41b 4i - 00000000 @10 -> + 011f0001 @10
Debug: 3215 526 riscv-013.c:404 scan():  ->  hartsello=287 dmactive
Debug: 3216 526 riscv-013.c:393 scan(): 41b 4i w 01200001 @10 -> + 00000000 @10
Debug: 3217 526 riscv-013.c:404 scan():  hartsello=288 dmactive -> 
Debug: 3218 526 riscv-013.c:393 scan(): 41b 4i - 00000000 @10 -> + 01200001 @10
Debug: 3219 526 riscv-013.c:404 scan():  ->  hartsello=288 dmactive
Debug: 3220 527 riscv-013.c:393 scan(): 41b 4i r 00000000 @11 -> + 00000000 @10
Debug: 3221 527 riscv-013.c:393 scan(): 41b 4i - 00000000 @11 -> + 00003082 @11
Debug: 3222 527 riscv-013.c:404 scan():  ->  allunavail anyunavail authenticated version=2
Debug: 3223 527 riscv-013.c:393 scan(): 41b 4i r 00000000 @10 -> + 00000000 @11
Debug: 3224 527 riscv-013.c:393 scan(): 41b 4i - 00000000 @10 -> + 01200001 @10
Debug: 3225 527 riscv-013.c:404 scan():  ->  hartsello=288 dmactive
Debug: 3226 528 riscv-013.c:393 scan(): 41b 4i w 01210001 @10 -> + 00000000 @10
Debug: 3227 528 riscv-013.c:404 scan():  hartsello=289 dmactive -> 
Debug: 3228 528 riscv-013.c:393 scan(): 41b 4i - 00000000 @10 -> + 01210001 @10
Debug: 3229 528 riscv-013.c:404 scan():  ->  hartsello=289 dmactive
Debug: 3230 528 riscv-013.c:393 scan(): 41b 4i r 00000000 @11 -> + 00000000 @10
Debug: 3231 528 riscv-013.c:393 scan(): 41b 4i - 00000000 @11 -> + 00003082 @11
Debug: 3232 528 riscv-013.c:404 scan():  ->  allunavail anyunavail authenticated version=2
Debug: 3233 529 riscv-013.c:393 scan(): 41b 4i r 00000000 @10 -> + 00000000 @11
Debug: 3234 529 riscv-013.c:393 scan(): 41b 4i - 00000000 @10 -> + 01210001 @10
Debug: 3235 529 riscv-013.c:404 scan():  ->  hartsello=289 dmactive
Debug: 3236 529 riscv-013.c:393 scan(): 41b 4i w 01220001 @10 -> + 00000000 @10
Debug: 3237 529 riscv-013.c:404 scan():  hartsello=290 dmactive -> 
Debug: 3238 530 riscv-013.c:393 scan(): 41b 4i - 00000000 @10 -> + 01220001 @10
Debug: 3239 530 riscv-013.c:404 scan():  ->  hartsello=290 dmactive
Debug: 3240 530 riscv-013.c:393 scan(): 41b 4i r 00000000 @11 -> + 00000000 @10
Debug: 3241 530 riscv-013.c:393 scan(): 41b 4i - 00000000 @11 -> + 00003082 @11
Debug: 3242 530 riscv-013.c:404 scan():  ->  allunavail anyunavail authenticated version=2
Debug: 3243 530 riscv-013.c:393 scan(): 41b 4i r 00000000 @10 -> + 00000000 @11
Debug: 3244 531 riscv-013.c:393 scan(): 41b 4i - 00000000 @10 -> + 01220001 @10
Debug: 3245 531 riscv-013.c:404 scan():  ->  hartsello=290 dmactive
Debug: 3246 531 riscv-013.c:393 scan(): 41b 4i w 01230001 @10 -> + 00000000 @10
Debug: 3247 531 riscv-013.c:404 scan():  hartsello=291 dmactive -> 
Debug: 3248 531 riscv-013.c:393 scan(): 41b 4i - 00000000 @10 -> + 01230001 @10
Debug: 3249 531 riscv-013.c:404 scan():  ->  hartsello=291 dmactive
Debug: 3250 531 riscv-013.c:393 scan(): 41b 4i r 00000000 @11 -> + 00000000 @10
Debug: 3251 532 riscv-013.c:393 scan(): 41b 4i - 00000000 @11 -> + 00003082 @11
Debug: 3252 532 riscv-013.c:404 scan():  ->  allunavail anyunavail authenticated version=2
Debug: 3253 532 riscv-013.c:393 scan(): 41b 4i r 00000000 @10 -> + 00000000 @11
Debug: 3254 532 riscv-013.c:393 scan(): 41b 4i - 00000000 @10 -> + 01230001 @10
Debug: 3255 532 riscv-013.c:404 scan():  ->  hartsello=291 dmactive
Debug: 3256 533 riscv-013.c:393 scan(): 41b 4i w 01240001 @10 -> + 00000000 @10
Debug: 3257 533 riscv-013.c:404 scan():  hartsello=292 dmactive -> 
Debug: 3258 533 riscv-013.c:393 scan(): 41b 4i - 00000000 @10 -> + 01240001 @10
Debug: 3259 533 riscv-013.c:404 scan():  ->  hartsello=292 dmactive
Debug: 3260 533 riscv-013.c:393 scan(): 41b 4i r 00000000 @11 -> + 00000000 @10
Debug: 3261 533 riscv-013.c:393 scan(): 41b 4i - 00000000 @11 -> + 00003082 @11
Debug: 3262 533 riscv-013.c:404 scan():  ->  allunavail anyunavail authenticated version=2
Debug: 3263 534 riscv-013.c:393 scan(): 41b 4i r 00000000 @10 -> + 00000000 @11
Debug: 3264 534 riscv-013.c:393 scan(): 41b 4i - 00000000 @10 -> + 01240001 @10
Debug: 3265 534 riscv-013.c:404 scan():  ->  hartsello=292 dmactive
Debug: 3266 534 riscv-013.c:393 scan(): 41b 4i w 01250001 @10 -> + 00000000 @10
Debug: 3267 534 riscv-013.c:404 scan():  hartsello=293 dmactive -> 
Debug: 3268 535 riscv-013.c:393 scan(): 41b 4i - 00000000 @10 -> + 01250001 @10
Debug: 3269 535 riscv-013.c:404 scan():  ->  hartsello=293 dmactive
Debug: 3270 535 riscv-013.c:393 scan(): 41b 4i r 00000000 @11 -> + 00000000 @10
Debug: 3271 535 riscv-013.c:393 scan(): 41b 4i - 00000000 @11 -> + 00003082 @11
Debug: 3272 535 riscv-013.c:404 scan():  ->  allunavail anyunavail authenticated version=2
Debug: 3273 535 riscv-013.c:393 scan(): 41b 4i r 00000000 @10 -> + 00000000 @11
Debug: 3274 536 riscv-013.c:393 scan(): 41b 4i - 00000000 @10 -> + 01250001 @10
Debug: 3275 536 riscv-013.c:404 scan():  ->  hartsello=293 dmactive
Debug: 3276 536 riscv-013.c:393 scan(): 41b 4i w 01260001 @10 -> + 00000000 @10
Debug: 3277 536 riscv-013.c:404 scan():  hartsello=294 dmactive -> 
Debug: 3278 536 riscv-013.c:393 scan(): 41b 4i - 00000000 @10 -> + 01260001 @10
Debug: 3279 536 riscv-013.c:404 scan():  ->  hartsello=294 dmactive
Debug: 3280 537 riscv-013.c:393 scan(): 41b 4i r 00000000 @11 -> + 00000000 @10
Debug: 3281 537 riscv-013.c:393 scan(): 41b 4i - 00000000 @11 -> + 00003082 @11
Debug: 3282 537 riscv-013.c:404 scan():  ->  allunavail anyunavail authenticated version=2
Debug: 3283 537 riscv-013.c:393 scan(): 41b 4i r 00000000 @10 -> + 00000000 @11
Debug: 3284 537 riscv-013.c:393 scan(): 41b 4i - 00000000 @10 -> + 01260001 @10
Debug: 3285 537 riscv-013.c:404 scan():  ->  hartsello=294 dmactive
Debug: 3286 538 riscv-013.c:393 scan(): 41b 4i w 01270001 @10 -> + 00000000 @10
Debug: 3287 538 riscv-013.c:404 scan():  hartsello=295 dmactive -> 
Debug: 3288 538 riscv-013.c:393 scan(): 41b 4i - 00000000 @10 -> + 01270001 @10
Debug: 3289 538 riscv-013.c:404 scan():  ->  hartsello=295 dmactive
Debug: 3290 538 riscv-013.c:393 scan(): 41b 4i r 00000000 @11 -> + 00000000 @10
Debug: 3291 538 riscv-013.c:393 scan(): 41b 4i - 00000000 @11 -> + 00003082 @11
Debug: 3292 539 riscv-013.c:404 scan():  ->  allunavail anyunavail authenticated version=2
Debug: 3293 539 riscv-013.c:393 scan(): 41b 4i r 00000000 @10 -> + 00000000 @11
Debug: 3294 539 riscv-013.c:393 scan(): 41b 4i - 00000000 @10 -> + 01270001 @10
Debug: 3295 539 riscv-013.c:404 scan():  ->  hartsello=295 dmactive
Debug: 3296 539 riscv-013.c:393 scan(): 41b 4i w 01280001 @10 -> + 00000000 @10
Debug: 3297 539 riscv-013.c:404 scan():  hartsello=296 dmactive -> 
Debug: 3298 540 riscv-013.c:393 scan(): 41b 4i - 00000000 @10 -> + 01280001 @10
Debug: 3299 540 riscv-013.c:404 scan():  ->  hartsello=296 dmactive
Debug: 3300 540 riscv-013.c:393 scan(): 41b 4i r 00000000 @11 -> + 00000000 @10
Debug: 3301 540 riscv-013.c:393 scan(): 41b 4i - 00000000 @11 -> + 00003082 @11
Debug: 3302 540 riscv-013.c:404 scan():  ->  allunavail anyunavail authenticated version=2
Debug: 3303 541 riscv-013.c:393 scan(): 41b 4i r 00000000 @10 -> + 00000000 @11
Debug: 3304 541 riscv-013.c:393 scan(): 41b 4i - 00000000 @10 -> + 01280001 @10
Debug: 3305 541 riscv-013.c:404 scan():  ->  hartsello=296 dmactive
Debug: 3306 541 riscv-013.c:393 scan(): 41b 4i w 01290001 @10 -> + 00000000 @10
Debug: 3307 541 riscv-013.c:404 scan():  hartsello=297 dmactive -> 
Debug: 3308 541 riscv-013.c:393 scan(): 41b 4i - 00000000 @10 -> + 01290001 @10
Debug: 3309 541 riscv-013.c:404 scan():  ->  hartsello=297 dmactive
Debug: 3310 542 riscv-013.c:393 scan(): 41b 4i r 00000000 @11 -> + 00000000 @10
Debug: 3311 542 riscv-013.c:393 scan(): 41b 4i - 00000000 @11 -> + 00003082 @11
Debug: 3312 542 riscv-013.c:404 scan():  ->  allunavail anyunavail authenticated version=2
Debug: 3313 542 riscv-013.c:393 scan(): 41b 4i r 00000000 @10 -> + 00000000 @11
Debug: 3314 543 riscv-013.c:393 scan(): 41b 4i - 00000000 @10 -> + 01290001 @10
Debug: 3315 543 riscv-013.c:404 scan():  ->  hartsello=297 dmactive
Debug: 3316 543 riscv-013.c:393 scan(): 41b 4i w 012a0001 @10 -> + 00000000 @10
Debug: 3317 543 riscv-013.c:404 scan():  hartsello=298 dmactive -> 
Debug: 3318 543 riscv-013.c:393 scan(): 41b 4i - 00000000 @10 -> + 012a0001 @10
Debug: 3319 543 riscv-013.c:404 scan():  ->  hartsello=298 dmactive
Debug: 3320 543 riscv-013.c:393 scan(): 41b 4i r 00000000 @11 -> + 00000000 @10
Debug: 3321 544 riscv-013.c:393 scan(): 41b 4i - 00000000 @11 -> + 00003082 @11
Debug: 3322 544 riscv-013.c:404 scan():  ->  allunavail anyunavail authenticated version=2
Debug: 3323 544 riscv-013.c:393 scan(): 41b 4i r 00000000 @10 -> + 00000000 @11
Debug: 3324 544 riscv-013.c:393 scan(): 41b 4i - 00000000 @10 -> + 012a0001 @10
Debug: 3325 544 riscv-013.c:404 scan():  ->  hartsello=298 dmactive
Debug: 3326 545 riscv-013.c:393 scan(): 41b 4i w 012b0001 @10 -> + 00000000 @10
Debug: 3327 545 riscv-013.c:404 scan():  hartsello=299 dmactive -> 
Debug: 3328 545 riscv-013.c:393 scan(): 41b 4i - 00000000 @10 -> + 012b0001 @10
Debug: 3329 545 riscv-013.c:404 scan():  ->  hartsello=299 dmactive
Debug: 3330 545 riscv-013.c:393 scan(): 41b 4i r 00000000 @11 -> + 00000000 @10
Debug: 3331 545 riscv-013.c:393 scan(): 41b 4i - 00000000 @11 -> + 00003082 @11
Debug: 3332 545 riscv-013.c:404 scan():  ->  allunavail anyunavail authenticated version=2
Debug: 3333 546 riscv-013.c:393 scan(): 41b 4i r 00000000 @10 -> + 00000000 @11
Debug: 3334 546 riscv-013.c:393 scan(): 41b 4i - 00000000 @10 -> + 012b0001 @10
Debug: 3335 546 riscv-013.c:404 scan():  ->  hartsello=299 dmactive
Debug: 3336 546 riscv-013.c:393 scan(): 41b 4i w 012c0001 @10 -> + 00000000 @10
Debug: 3337 546 riscv-013.c:404 scan():  hartsello=300 dmactive -> 
Debug: 3338 546 riscv-013.c:393 scan(): 41b 4i - 00000000 @10 -> + 012c0001 @10
Debug: 3339 546 riscv-013.c:404 scan():  ->  hartsello=300 dmactive
Debug: 3340 547 riscv-013.c:393 scan(): 41b 4i r 00000000 @11 -> + 00000000 @10
Debug: 3341 547 riscv-013.c:393 scan(): 41b 4i - 00000000 @11 -> + 00003082 @11
Debug: 3342 547 riscv-013.c:404 scan():  ->  allunavail anyunavail authenticated version=2
Debug: 3343 548 riscv-013.c:393 scan(): 41b 4i r 00000000 @10 -> + 00000000 @11
Debug: 3344 548 riscv-013.c:393 scan(): 41b 4i - 00000000 @10 -> + 012c0001 @10
Debug: 3345 548 riscv-013.c:404 scan():  ->  hartsello=300 dmactive
Debug: 3346 548 riscv-013.c:393 scan(): 41b 4i w 012d0001 @10 -> + 00000000 @10
Debug: 3347 548 riscv-013.c:404 scan():  hartsello=301 dmactive -> 
Debug: 3348 548 riscv-013.c:393 scan(): 41b 4i - 00000000 @10 -> + 012d0001 @10
Debug: 3349 548 riscv-013.c:404 scan():  ->  hartsello=301 dmactive
Debug: 3350 549 riscv-013.c:393 scan(): 41b 4i r 00000000 @11 -> + 00000000 @10
Debug: 3351 549 riscv-013.c:393 scan(): 41b 4i - 00000000 @11 -> + 00003082 @11
Debug: 3352 549 riscv-013.c:404 scan():  ->  allunavail anyunavail authenticated version=2
Debug: 3353 549 riscv-013.c:393 scan(): 41b 4i r 00000000 @10 -> + 00000000 @11
Debug: 3354 550 riscv-013.c:393 scan(): 41b 4i - 00000000 @10 -> + 012d0001 @10
Debug: 3355 550 riscv-013.c:404 scan():  ->  hartsello=301 dmactive
Debug: 3356 550 riscv-013.c:393 scan(): 41b 4i w 012e0001 @10 -> + 00000000 @10
Debug: 3357 550 riscv-013.c:404 scan():  hartsello=302 dmactive -> 
Debug: 3358 550 riscv-013.c:393 scan(): 41b 4i - 00000000 @10 -> + 012e0001 @10
Debug: 3359 550 riscv-013.c:404 scan():  ->  hartsello=302 dmactive
Debug: 3360 550 riscv-013.c:393 scan(): 41b 4i r 00000000 @11 -> + 00000000 @10
Debug: 3361 551 riscv-013.c:393 scan(): 41b 4i - 00000000 @11 -> + 00003082 @11
Debug: 3362 551 riscv-013.c:404 scan():  ->  allunavail anyunavail authenticated version=2
Debug: 3363 551 riscv-013.c:393 scan(): 41b 4i r 00000000 @10 -> + 00000000 @11
Debug: 3364 551 riscv-013.c:393 scan(): 41b 4i - 00000000 @10 -> + 012e0001 @10
Debug: 3365 551 riscv-013.c:404 scan():  ->  hartsello=302 dmactive
Debug: 3366 551 riscv-013.c:393 scan(): 41b 4i w 012f0001 @10 -> + 00000000 @10
Debug: 3367 552 riscv-013.c:404 scan():  hartsello=303 dmactive -> 
Debug: 3368 552 riscv-013.c:393 scan(): 41b 4i - 00000000 @10 -> + 012f0001 @10
Debug: 3369 552 riscv-013.c:404 scan():  ->  hartsello=303 dmactive
Debug: 3370 552 riscv-013.c:393 scan(): 41b 4i r 00000000 @11 -> + 00000000 @10
Debug: 3371 552 riscv-013.c:393 scan(): 41b 4i - 00000000 @11 -> + 00003082 @11
Debug: 3372 552 riscv-013.c:404 scan():  ->  allunavail anyunavail authenticated version=2
Debug: 3373 552 riscv-013.c:393 scan(): 41b 4i r 00000000 @10 -> + 00000000 @11
Debug: 3374 553 riscv-013.c:393 scan(): 41b 4i - 00000000 @10 -> + 012f0001 @10
Debug: 3375 553 riscv-013.c:404 scan():  ->  hartsello=303 dmactive
Debug: 3376 553 riscv-013.c:393 scan(): 41b 4i w 01300001 @10 -> + 00000000 @10
Debug: 3377 553 riscv-013.c:404 scan():  hartsello=304 dmactive -> 
Debug: 3378 553 riscv-013.c:393 scan(): 41b 4i - 00000000 @10 -> + 01300001 @10
Debug: 3379 553 riscv-013.c:404 scan():  ->  hartsello=304 dmactive
Debug: 3380 553 riscv-013.c:393 scan(): 41b 4i r 00000000 @11 -> + 00000000 @10
Debug: 3381 554 riscv-013.c:393 scan(): 41b 4i - 00000000 @11 -> + 00003082 @11
Debug: 3382 554 riscv-013.c:404 scan():  ->  allunavail anyunavail authenticated version=2
Debug: 3383 554 riscv-013.c:393 scan(): 41b 4i r 00000000 @10 -> + 00000000 @11
Debug: 3384 554 riscv-013.c:393 scan(): 41b 4i - 00000000 @10 -> + 01300001 @10
Debug: 3385 554 riscv-013.c:404 scan():  ->  hartsello=304 dmactive
Debug: 3386 554 riscv-013.c:393 scan(): 41b 4i w 01310001 @10 -> + 00000000 @10
Debug: 3387 555 riscv-013.c:404 scan():  hartsello=305 dmactive -> 
Debug: 3388 555 riscv-013.c:393 scan(): 41b 4i - 00000000 @10 -> + 01310001 @10
Debug: 3389 555 riscv-013.c:404 scan():  ->  hartsello=305 dmactive
Debug: 3390 555 riscv-013.c:393 scan(): 41b 4i r 00000000 @11 -> + 00000000 @10
Debug: 3391 555 riscv-013.c:393 scan(): 41b 4i - 00000000 @11 -> + 00003082 @11
Debug: 3392 555 riscv-013.c:404 scan():  ->  allunavail anyunavail authenticated version=2
Debug: 3393 556 riscv-013.c:393 scan(): 41b 4i r 00000000 @10 -> + 00000000 @11
Debug: 3394 556 riscv-013.c:393 scan(): 41b 4i - 00000000 @10 -> + 01310001 @10
Debug: 3395 556 riscv-013.c:404 scan():  ->  hartsello=305 dmactive
Debug: 3396 556 riscv-013.c:393 scan(): 41b 4i w 01320001 @10 -> + 00000000 @10
Debug: 3397 556 riscv-013.c:404 scan():  hartsello=306 dmactive -> 
Debug: 3398 556 riscv-013.c:393 scan(): 41b 4i - 00000000 @10 -> + 01320001 @10
Debug: 3399 556 riscv-013.c:404 scan():  ->  hartsello=306 dmactive
Debug: 3400 557 riscv-013.c:393 scan(): 41b 4i r 00000000 @11 -> + 00000000 @10
Debug: 3401 557 riscv-013.c:393 scan(): 41b 4i - 00000000 @11 -> + 00003082 @11
Debug: 3402 557 riscv-013.c:404 scan():  ->  allunavail anyunavail authenticated version=2
Debug: 3403 557 riscv-013.c:393 scan(): 41b 4i r 00000000 @10 -> + 00000000 @11
Debug: 3404 557 riscv-013.c:393 scan(): 41b 4i - 00000000 @10 -> + 01320001 @10
Debug: 3405 557 riscv-013.c:404 scan():  ->  hartsello=306 dmactive
Debug: 3406 557 riscv-013.c:393 scan(): 41b 4i w 01330001 @10 -> + 00000000 @10
Debug: 3407 558 riscv-013.c:404 scan():  hartsello=307 dmactive -> 
Debug: 3408 558 riscv-013.c:393 scan(): 41b 4i - 00000000 @10 -> + 01330001 @10
Debug: 3409 558 riscv-013.c:404 scan():  ->  hartsello=307 dmactive
Debug: 3410 558 riscv-013.c:393 scan(): 41b 4i r 00000000 @11 -> + 00000000 @10
Debug: 3411 558 riscv-013.c:393 scan(): 41b 4i - 00000000 @11 -> + 00003082 @11
Debug: 3412 558 riscv-013.c:404 scan():  ->  allunavail anyunavail authenticated version=2
Debug: 3413 559 riscv-013.c:393 scan(): 41b 4i r 00000000 @10 -> + 00000000 @11
Debug: 3414 559 riscv-013.c:393 scan(): 41b 4i - 00000000 @10 -> + 01330001 @10
Debug: 3415 559 riscv-013.c:404 scan():  ->  hartsello=307 dmactive
Debug: 3416 559 riscv-013.c:393 scan(): 41b 4i w 01340001 @10 -> + 00000000 @10
Debug: 3417 559 riscv-013.c:404 scan():  hartsello=308 dmactive -> 
Debug: 3418 560 riscv-013.c:393 scan(): 41b 4i - 00000000 @10 -> + 01340001 @10
Debug: 3419 560 riscv-013.c:404 scan():  ->  hartsello=308 dmactive
Debug: 3420 560 riscv-013.c:393 scan(): 41b 4i r 00000000 @11 -> + 00000000 @10
Debug: 3421 560 riscv-013.c:393 scan(): 41b 4i - 00000000 @11 -> + 00003082 @11
Debug: 3422 560 riscv-013.c:404 scan():  ->  allunavail anyunavail authenticated version=2
Debug: 3423 561 riscv-013.c:393 scan(): 41b 4i r 00000000 @10 -> + 00000000 @11
Debug: 3424 561 riscv-013.c:393 scan(): 41b 4i - 00000000 @10 -> + 01340001 @10
Debug: 3425 561 riscv-013.c:404 scan():  ->  hartsello=308 dmactive
Debug: 3426 561 riscv-013.c:393 scan(): 41b 4i w 01350001 @10 -> + 00000000 @10
Debug: 3427 561 riscv-013.c:404 scan():  hartsello=309 dmactive -> 
Debug: 3428 561 riscv-013.c:393 scan(): 41b 4i - 00000000 @10 -> + 01350001 @10
Debug: 3429 561 riscv-013.c:404 scan():  ->  hartsello=309 dmactive
Debug: 3430 562 riscv-013.c:393 scan(): 41b 4i r 00000000 @11 -> + 00000000 @10
Debug: 3431 562 riscv-013.c:393 scan(): 41b 4i - 00000000 @11 -> + 00003082 @11
Debug: 3432 562 riscv-013.c:404 scan():  ->  allunavail anyunavail authenticated version=2
Debug: 3433 562 riscv-013.c:393 scan(): 41b 4i r 00000000 @10 -> + 00000000 @11
Debug: 3434 562 riscv-013.c:393 scan(): 41b 4i - 00000000 @10 -> + 01350001 @10
Debug: 3435 562 riscv-013.c:404 scan():  ->  hartsello=309 dmactive
Debug: 3436 563 riscv-013.c:393 scan(): 41b 4i w 01360001 @10 -> + 00000000 @10
Debug: 3437 563 riscv-013.c:404 scan():  hartsello=310 dmactive -> 
Debug: 3438 563 riscv-013.c:393 scan(): 41b 4i - 00000000 @10 -> + 01360001 @10
Debug: 3439 563 riscv-013.c:404 scan():  ->  hartsello=310 dmactive
Debug: 3440 563 riscv-013.c:393 scan(): 41b 4i r 00000000 @11 -> + 00000000 @10
Debug: 3441 564 riscv-013.c:393 scan(): 41b 4i - 00000000 @11 -> + 00003082 @11
Debug: 3442 564 riscv-013.c:404 scan():  ->  allunavail anyunavail authenticated version=2
Debug: 3443 564 riscv-013.c:393 scan(): 41b 4i r 00000000 @10 -> + 00000000 @11
Debug: 3444 564 riscv-013.c:393 scan(): 41b 4i - 00000000 @10 -> + 01360001 @10
Debug: 3445 564 riscv-013.c:404 scan():  ->  hartsello=310 dmactive
Debug: 3446 565 riscv-013.c:393 scan(): 41b 4i w 01370001 @10 -> + 00000000 @10
Debug: 3447 565 riscv-013.c:404 scan():  hartsello=311 dmactive -> 
Debug: 3448 565 riscv-013.c:393 scan(): 41b 4i - 00000000 @10 -> + 01370001 @10
Debug: 3449 565 riscv-013.c:404 scan():  ->  hartsello=311 dmactive
Debug: 3450 565 riscv-013.c:393 scan(): 41b 4i r 00000000 @11 -> + 00000000 @10
Debug: 3451 565 riscv-013.c:393 scan(): 41b 4i - 00000000 @11 -> + 00003082 @11
Debug: 3452 565 riscv-013.c:404 scan():  ->  allunavail anyunavail authenticated version=2
Debug: 3453 566 riscv-013.c:393 scan(): 41b 4i r 00000000 @10 -> + 00000000 @11
Debug: 3454 566 riscv-013.c:393 scan(): 41b 4i - 00000000 @10 -> + 01370001 @10
Debug: 3455 566 riscv-013.c:404 scan():  ->  hartsello=311 dmactive
Debug: 3456 566 riscv-013.c:393 scan(): 41b 4i w 01380001 @10 -> + 00000000 @10
Debug: 3457 566 riscv-013.c:404 scan():  hartsello=312 dmactive -> 
Debug: 3458 566 riscv-013.c:393 scan(): 41b 4i - 00000000 @10 -> + 01380001 @10
Debug: 3459 566 riscv-013.c:404 scan():  ->  hartsello=312 dmactive
Debug: 3460 567 riscv-013.c:393 scan(): 41b 4i r 00000000 @11 -> + 00000000 @10
Debug: 3461 567 riscv-013.c:393 scan(): 41b 4i - 00000000 @11 -> + 00003082 @11
Debug: 3462 567 riscv-013.c:404 scan():  ->  allunavail anyunavail authenticated version=2
Debug: 3463 567 riscv-013.c:393 scan(): 41b 4i r 00000000 @10 -> + 00000000 @11
Debug: 3464 568 riscv-013.c:393 scan(): 41b 4i - 00000000 @10 -> + 01380001 @10
Debug: 3465 568 riscv-013.c:404 scan():  ->  hartsello=312 dmactive
Debug: 3466 568 riscv-013.c:393 scan(): 41b 4i w 01390001 @10 -> + 00000000 @10
Debug: 3467 568 riscv-013.c:404 scan():  hartsello=313 dmactive -> 
Debug: 3468 568 riscv-013.c:393 scan(): 41b 4i - 00000000 @10 -> + 01390001 @10
Debug: 3469 568 riscv-013.c:404 scan():  ->  hartsello=313 dmactive
Debug: 3470 569 riscv-013.c:393 scan(): 41b 4i r 00000000 @11 -> + 00000000 @10
Debug: 3471 569 riscv-013.c:393 scan(): 41b 4i - 00000000 @11 -> + 00003082 @11
Debug: 3472 569 riscv-013.c:404 scan():  ->  allunavail anyunavail authenticated version=2
Debug: 3473 569 riscv-013.c:393 scan(): 41b 4i r 00000000 @10 -> + 00000000 @11
Debug: 3474 569 riscv-013.c:393 scan(): 41b 4i - 00000000 @10 -> + 01390001 @10
Debug: 3475 570 riscv-013.c:404 scan():  ->  hartsello=313 dmactive
Debug: 3476 570 riscv-013.c:393 scan(): 41b 4i w 013a0001 @10 -> + 00000000 @10
Debug: 3477 570 riscv-013.c:404 scan():  hartsello=314 dmactive -> 
Debug: 3478 570 riscv-013.c:393 scan(): 41b 4i - 00000000 @10 -> + 013a0001 @10
Debug: 3479 570 riscv-013.c:404 scan():  ->  hartsello=314 dmactive
Debug: 3480 570 riscv-013.c:393 scan(): 41b 4i r 00000000 @11 -> + 00000000 @10
Debug: 3481 571 riscv-013.c:393 scan(): 41b 4i - 00000000 @11 -> + 00003082 @11
Debug: 3482 571 riscv-013.c:404 scan():  ->  allunavail anyunavail authenticated version=2
Debug: 3483 571 riscv-013.c:393 scan(): 41b 4i r 00000000 @10 -> + 00000000 @11
Debug: 3484 571 riscv-013.c:393 scan(): 41b 4i - 00000000 @10 -> + 013a0001 @10
Debug: 3485 571 riscv-013.c:404 scan():  ->  hartsello=314 dmactive
Debug: 3486 572 riscv-013.c:393 scan(): 41b 4i w 013b0001 @10 -> + 00000000 @10
Debug: 3487 572 riscv-013.c:404 scan():  hartsello=315 dmactive -> 
Debug: 3488 572 riscv-013.c:393 scan(): 41b 4i - 00000000 @10 -> + 013b0001 @10
Debug: 3489 572 riscv-013.c:404 scan():  ->  hartsello=315 dmactive
Debug: 3490 572 riscv-013.c:393 scan(): 41b 4i r 00000000 @11 -> + 00000000 @10
Debug: 3491 573 riscv-013.c:393 scan(): 41b 4i - 00000000 @11 -> + 00003082 @11
Debug: 3492 573 riscv-013.c:404 scan():  ->  allunavail anyunavail authenticated version=2
Debug: 3493 573 riscv-013.c:393 scan(): 41b 4i r 00000000 @10 -> + 00000000 @11
Debug: 3494 573 riscv-013.c:393 scan(): 41b 4i - 00000000 @10 -> + 013b0001 @10
Debug: 3495 573 riscv-013.c:404 scan():  ->  hartsello=315 dmactive
Debug: 3496 573 riscv-013.c:393 scan(): 41b 4i w 013c0001 @10 -> + 00000000 @10
Debug: 3497 573 riscv-013.c:404 scan():  hartsello=316 dmactive -> 
Debug: 3498 574 riscv-013.c:393 scan(): 41b 4i - 00000000 @10 -> + 013c0001 @10
Debug: 3499 574 riscv-013.c:404 scan():  ->  hartsello=316 dmactive
Debug: 3500 574 riscv-013.c:393 scan(): 41b 4i r 00000000 @11 -> + 00000000 @10
Debug: 3501 574 riscv-013.c:393 scan(): 41b 4i - 00000000 @11 -> + 00003082 @11
Debug: 3502 574 riscv-013.c:404 scan():  ->  allunavail anyunavail authenticated version=2
Debug: 3503 574 riscv-013.c:393 scan(): 41b 4i r 00000000 @10 -> + 00000000 @11
Debug: 3504 575 riscv-013.c:393 scan(): 41b 4i - 00000000 @10 -> + 013c0001 @10
Debug: 3505 575 riscv-013.c:404 scan():  ->  hartsello=316 dmactive
Debug: 3506 575 riscv-013.c:393 scan(): 41b 4i w 013d0001 @10 -> + 00000000 @10
Debug: 3507 575 riscv-013.c:404 scan():  hartsello=317 dmactive -> 
Debug: 3508 575 riscv-013.c:393 scan(): 41b 4i - 00000000 @10 -> + 013d0001 @10
Debug: 3509 575 riscv-013.c:404 scan():  ->  hartsello=317 dmactive
Debug: 3510 576 riscv-013.c:393 scan(): 41b 4i r 00000000 @11 -> + 00000000 @10
Debug: 3511 576 riscv-013.c:393 scan(): 41b 4i - 00000000 @11 -> + 00003082 @11
Debug: 3512 576 riscv-013.c:404 scan():  ->  allunavail anyunavail authenticated version=2
Debug: 3513 576 riscv-013.c:393 scan(): 41b 4i r 00000000 @10 -> + 00000000 @11
Debug: 3514 576 riscv-013.c:393 scan(): 41b 4i - 00000000 @10 -> + 013d0001 @10
Debug: 3515 576 riscv-013.c:404 scan():  ->  hartsello=317 dmactive
Debug: 3516 577 riscv-013.c:393 scan(): 41b 4i w 013e0001 @10 -> + 00000000 @10
Debug: 3517 577 riscv-013.c:404 scan():  hartsello=318 dmactive -> 
Debug: 3518 577 riscv-013.c:393 scan(): 41b 4i - 00000000 @10 -> + 013e0001 @10
Debug: 3519 577 riscv-013.c:404 scan():  ->  hartsello=318 dmactive
Debug: 3520 577 riscv-013.c:393 scan(): 41b 4i r 00000000 @11 -> + 00000000 @10
Debug: 3521 578 riscv-013.c:393 scan(): 41b 4i - 00000000 @11 -> + 00003082 @11
Debug: 3522 578 riscv-013.c:404 scan():  ->  allunavail anyunavail authenticated version=2
Debug: 3523 578 riscv-013.c:393 scan(): 41b 4i r 00000000 @10 -> + 00000000 @11
Debug: 3524 578 riscv-013.c:393 scan(): 41b 4i - 00000000 @10 -> + 013e0001 @10
Debug: 3525 578 riscv-013.c:404 scan():  ->  hartsello=318 dmactive
Debug: 3526 578 riscv-013.c:393 scan(): 41b 4i w 013f0001 @10 -> + 00000000 @10
Debug: 3527 578 riscv-013.c:404 scan():  hartsello=319 dmactive -> 
Debug: 3528 579 riscv-013.c:393 scan(): 41b 4i - 00000000 @10 -> + 013f0001 @10
Debug: 3529 579 riscv-013.c:404 scan():  ->  hartsello=319 dmactive
Debug: 3530 579 riscv-013.c:393 scan(): 41b 4i r 00000000 @11 -> + 00000000 @10
Debug: 3531 579 riscv-013.c:393 scan(): 41b 4i - 00000000 @11 -> + 00003082 @11
Debug: 3532 579 riscv-013.c:404 scan():  ->  allunavail anyunavail authenticated version=2
Debug: 3533 580 riscv-013.c:393 scan(): 41b 4i r 00000000 @10 -> + 00000000 @11
Debug: 3534 580 riscv-013.c:393 scan(): 41b 4i - 00000000 @10 -> + 013f0001 @10
Debug: 3535 580 riscv-013.c:404 scan():  ->  hartsello=319 dmactive
Debug: 3536 580 riscv-013.c:393 scan(): 41b 4i w 01400001 @10 -> + 00000000 @10
Debug: 3537 580 riscv-013.c:404 scan():  hartsello=320 dmactive -> 
Debug: 3538 580 riscv-013.c:393 scan(): 41b 4i - 00000000 @10 -> + 01400001 @10
Debug: 3539 580 riscv-013.c:404 scan():  ->  hartsello=320 dmactive
Debug: 3540 581 riscv-013.c:393 scan(): 41b 4i r 00000000 @11 -> + 00000000 @10
Debug: 3541 581 riscv-013.c:393 scan(): 41b 4i - 00000000 @11 -> + 00003082 @11
Debug: 3542 581 riscv-013.c:404 scan():  ->  allunavail anyunavail authenticated version=2
Debug: 3543 581 riscv-013.c:393 scan(): 41b 4i r 00000000 @10 -> + 00000000 @11
Debug: 3544 582 riscv-013.c:393 scan(): 41b 4i - 00000000 @10 -> + 01400001 @10
Debug: 3545 582 riscv-013.c:404 scan():  ->  hartsello=320 dmactive
Debug: 3546 582 riscv-013.c:393 scan(): 41b 4i w 01410001 @10 -> + 00000000 @10
Debug: 3547 582 riscv-013.c:404 scan():  hartsello=321 dmactive -> 
Debug: 3548 582 riscv-013.c:393 scan(): 41b 4i - 00000000 @10 -> + 01410001 @10
Debug: 3549 582 riscv-013.c:404 scan():  ->  hartsello=321 dmactive
Debug: 3550 583 riscv-013.c:393 scan(): 41b 4i r 00000000 @11 -> + 00000000 @10
Debug: 3551 583 riscv-013.c:393 scan(): 41b 4i - 00000000 @11 -> + 00003082 @11
Debug: 3552 583 riscv-013.c:404 scan():  ->  allunavail anyunavail authenticated version=2
Debug: 3553 583 riscv-013.c:393 scan(): 41b 4i r 00000000 @10 -> + 00000000 @11
Debug: 3554 583 riscv-013.c:393 scan(): 41b 4i - 00000000 @10 -> + 01410001 @10
Debug: 3555 583 riscv-013.c:404 scan():  ->  hartsello=321 dmactive
Debug: 3556 584 riscv-013.c:393 scan(): 41b 4i w 01420001 @10 -> + 00000000 @10
Debug: 3557 584 riscv-013.c:404 scan():  hartsello=322 dmactive -> 
Debug: 3558 584 riscv-013.c:393 scan(): 41b 4i - 00000000 @10 -> + 01420001 @10
Debug: 3559 584 riscv-013.c:404 scan():  ->  hartsello=322 dmactive
Debug: 3560 584 riscv-013.c:393 scan(): 41b 4i r 00000000 @11 -> + 00000000 @10
Debug: 3561 584 riscv-013.c:393 scan(): 41b 4i - 00000000 @11 -> + 00003082 @11
Debug: 3562 585 riscv-013.c:404 scan():  ->  allunavail anyunavail authenticated version=2
Debug: 3563 585 riscv-013.c:393 scan(): 41b 4i r 00000000 @10 -> + 00000000 @11
Debug: 3564 585 riscv-013.c:393 scan(): 41b 4i - 00000000 @10 -> + 01420001 @10
Debug: 3565 585 riscv-013.c:404 scan():  ->  hartsello=322 dmactive
Debug: 3566 585 riscv-013.c:393 scan(): 41b 4i w 01430001 @10 -> + 00000000 @10
Debug: 3567 585 riscv-013.c:404 scan():  hartsello=323 dmactive -> 
Debug: 3568 585 riscv-013.c:393 scan(): 41b 4i - 00000000 @10 -> + 01430001 @10
Debug: 3569 585 riscv-013.c:404 scan():  ->  hartsello=323 dmactive
Debug: 3570 586 riscv-013.c:393 scan(): 41b 4i r 00000000 @11 -> + 00000000 @10
Debug: 3571 586 riscv-013.c:393 scan(): 41b 4i - 00000000 @11 -> + 00003082 @11
Debug: 3572 586 riscv-013.c:404 scan():  ->  allunavail anyunavail authenticated version=2
Debug: 3573 586 riscv-013.c:393 scan(): 41b 4i r 00000000 @10 -> + 00000000 @11
Debug: 3574 587 riscv-013.c:393 scan(): 41b 4i - 00000000 @10 -> + 01430001 @10
Debug: 3575 587 riscv-013.c:404 scan():  ->  hartsello=323 dmactive
Debug: 3576 587 riscv-013.c:393 scan(): 41b 4i w 01440001 @10 -> + 00000000 @10
Debug: 3577 587 riscv-013.c:404 scan():  hartsello=324 dmactive -> 
Debug: 3578 587 riscv-013.c:393 scan(): 41b 4i - 00000000 @10 -> + 01440001 @10
Debug: 3579 587 riscv-013.c:404 scan():  ->  hartsello=324 dmactive
Debug: 3580 587 riscv-013.c:393 scan(): 41b 4i r 00000000 @11 -> + 00000000 @10
Debug: 3581 588 riscv-013.c:393 scan(): 41b 4i - 00000000 @11 -> + 00003082 @11
Debug: 3582 588 riscv-013.c:404 scan():  ->  allunavail anyunavail authenticated version=2
Debug: 3583 588 riscv-013.c:393 scan(): 41b 4i r 00000000 @10 -> + 00000000 @11
Debug: 3584 588 riscv-013.c:393 scan(): 41b 4i - 00000000 @10 -> + 01440001 @10
Debug: 3585 588 riscv-013.c:404 scan():  ->  hartsello=324 dmactive
Debug: 3586 588 riscv-013.c:393 scan(): 41b 4i w 01450001 @10 -> + 00000000 @10
Debug: 3587 588 riscv-013.c:404 scan():  hartsello=325 dmactive -> 
Debug: 3588 589 riscv-013.c:393 scan(): 41b 4i - 00000000 @10 -> + 01450001 @10
Debug: 3589 589 riscv-013.c:404 scan():  ->  hartsello=325 dmactive
Debug: 3590 589 riscv-013.c:393 scan(): 41b 4i r 00000000 @11 -> + 00000000 @10
Debug: 3591 589 riscv-013.c:393 scan(): 41b 4i - 00000000 @11 -> + 00003082 @11
Debug: 3592 589 riscv-013.c:404 scan():  ->  allunavail anyunavail authenticated version=2
Debug: 3593 589 riscv-013.c:393 scan(): 41b 4i r 00000000 @10 -> + 00000000 @11
Debug: 3594 589 riscv-013.c:393 scan(): 41b 4i - 00000000 @10 -> + 01450001 @10
Debug: 3595 589 riscv-013.c:404 scan():  ->  hartsello=325 dmactive
Debug: 3596 590 riscv-013.c:393 scan(): 41b 4i w 01460001 @10 -> + 00000000 @10
Debug: 3597 590 riscv-013.c:404 scan():  hartsello=326 dmactive -> 
Debug: 3598 590 riscv-013.c:393 scan(): 41b 4i - 00000000 @10 -> + 01460001 @10
Debug: 3599 590 riscv-013.c:404 scan():  ->  hartsello=326 dmactive
Debug: 3600 590 riscv-013.c:393 scan(): 41b 4i r 00000000 @11 -> + 00000000 @10
Debug: 3601 590 riscv-013.c:393 scan(): 41b 4i - 00000000 @11 -> + 00003082 @11
Debug: 3602 590 riscv-013.c:404 scan():  ->  allunavail anyunavail authenticated version=2
Debug: 3603 591 riscv-013.c:393 scan(): 41b 4i r 00000000 @10 -> + 00000000 @11
Debug: 3604 591 riscv-013.c:393 scan(): 41b 4i - 00000000 @10 -> + 01460001 @10
Debug: 3605 591 riscv-013.c:404 scan():  ->  hartsello=326 dmactive
Debug: 3606 591 riscv-013.c:393 scan(): 41b 4i w 01470001 @10 -> + 00000000 @10
Debug: 3607 591 riscv-013.c:404 scan():  hartsello=327 dmactive -> 
Debug: 3608 591 riscv-013.c:393 scan(): 41b 4i - 00000000 @10 -> + 01470001 @10
Debug: 3609 591 riscv-013.c:404 scan():  ->  hartsello=327 dmactive
Debug: 3610 592 riscv-013.c:393 scan(): 41b 4i r 00000000 @11 -> + 00000000 @10
Debug: 3611 592 riscv-013.c:393 scan(): 41b 4i - 00000000 @11 -> + 00003082 @11
Debug: 3612 592 riscv-013.c:404 scan():  ->  allunavail anyunavail authenticated version=2
Debug: 3613 592 riscv-013.c:393 scan(): 41b 4i r 00000000 @10 -> + 00000000 @11
Debug: 3614 592 riscv-013.c:393 scan(): 41b 4i - 00000000 @10 -> + 01470001 @10
Debug: 3615 593 riscv-013.c:404 scan():  ->  hartsello=327 dmactive
Debug: 3616 593 riscv-013.c:393 scan(): 41b 4i w 01480001 @10 -> + 00000000 @10
Debug: 3617 593 riscv-013.c:404 scan():  hartsello=328 dmactive -> 
Debug: 3618 593 riscv-013.c:393 scan(): 41b 4i - 00000000 @10 -> + 01480001 @10
Debug: 3619 593 riscv-013.c:404 scan():  ->  hartsello=328 dmactive
Debug: 3620 594 riscv-013.c:393 scan(): 41b 4i r 00000000 @11 -> + 00000000 @10
Debug: 3621 594 riscv-013.c:393 scan(): 41b 4i - 00000000 @11 -> + 00003082 @11
Debug: 3622 594 riscv-013.c:404 scan():  ->  allunavail anyunavail authenticated version=2
Debug: 3623 594 riscv-013.c:393 scan(): 41b 4i r 00000000 @10 -> + 00000000 @11
Debug: 3624 595 riscv-013.c:393 scan(): 41b 4i - 00000000 @10 -> + 01480001 @10
Debug: 3625 595 riscv-013.c:404 scan():  ->  hartsello=328 dmactive
Debug: 3626 595 riscv-013.c:393 scan(): 41b 4i w 01490001 @10 -> + 00000000 @10
Debug: 3627 595 riscv-013.c:404 scan():  hartsello=329 dmactive -> 
Debug: 3628 595 riscv-013.c:393 scan(): 41b 4i - 00000000 @10 -> + 01490001 @10
Debug: 3629 595 riscv-013.c:404 scan():  ->  hartsello=329 dmactive
Debug: 3630 596 riscv-013.c:393 scan(): 41b 4i r 00000000 @11 -> + 00000000 @10
Debug: 3631 596 riscv-013.c:393 scan(): 41b 4i - 00000000 @11 -> + 00003082 @11
Debug: 3632 596 riscv-013.c:404 scan():  ->  allunavail anyunavail authenticated version=2
Debug: 3633 596 riscv-013.c:393 scan(): 41b 4i r 00000000 @10 -> + 00000000 @11
Debug: 3634 597 riscv-013.c:393 scan(): 41b 4i - 00000000 @10 -> + 01490001 @10
Debug: 3635 597 riscv-013.c:404 scan():  ->  hartsello=329 dmactive
Debug: 3636 597 riscv-013.c:393 scan(): 41b 4i w 014a0001 @10 -> + 00000000 @10
Debug: 3637 597 riscv-013.c:404 scan():  hartsello=330 dmactive -> 
Debug: 3638 597 riscv-013.c:393 scan(): 41b 4i - 00000000 @10 -> + 014a0001 @10
Debug: 3639 597 riscv-013.c:404 scan():  ->  hartsello=330 dmactive
Debug: 3640 597 riscv-013.c:393 scan(): 41b 4i r 00000000 @11 -> + 00000000 @10
Debug: 3641 598 riscv-013.c:393 scan(): 41b 4i - 00000000 @11 -> + 00003082 @11
Debug: 3642 598 riscv-013.c:404 scan():  ->  allunavail anyunavail authenticated version=2
Debug: 3643 598 riscv-013.c:393 scan(): 41b 4i r 00000000 @10 -> + 00000000 @11
Debug: 3644 598 riscv-013.c:393 scan(): 41b 4i - 00000000 @10 -> + 014a0001 @10
Debug: 3645 598 riscv-013.c:404 scan():  ->  hartsello=330 dmactive
Debug: 3646 598 riscv-013.c:393 scan(): 41b 4i w 014b0001 @10 -> + 00000000 @10
Debug: 3647 598 riscv-013.c:404 scan():  hartsello=331 dmactive -> 
Debug: 3648 598 riscv-013.c:393 scan(): 41b 4i - 00000000 @10 -> + 014b0001 @10
Debug: 3649 598 riscv-013.c:404 scan():  ->  hartsello=331 dmactive
Debug: 3650 599 riscv-013.c:393 scan(): 41b 4i r 00000000 @11 -> + 00000000 @10
Debug: 3651 599 riscv-013.c:393 scan(): 41b 4i - 00000000 @11 -> + 00003082 @11
Debug: 3652 599 riscv-013.c:404 scan():  ->  allunavail anyunavail authenticated version=2
Debug: 3653 599 riscv-013.c:393 scan(): 41b 4i r 00000000 @10 -> + 00000000 @11
Debug: 3654 600 riscv-013.c:393 scan(): 41b 4i - 00000000 @10 -> + 014b0001 @10
Debug: 3655 600 riscv-013.c:404 scan():  ->  hartsello=331 dmactive
Debug: 3656 600 riscv-013.c:393 scan(): 41b 4i w 014c0001 @10 -> + 00000000 @10
Debug: 3657 600 riscv-013.c:404 scan():  hartsello=332 dmactive -> 
Debug: 3658 600 riscv-013.c:393 scan(): 41b 4i - 00000000 @10 -> + 014c0001 @10
Debug: 3659 600 riscv-013.c:404 scan():  ->  hartsello=332 dmactive
Debug: 3660 601 riscv-013.c:393 scan(): 41b 4i r 00000000 @11 -> + 00000000 @10
Debug: 3661 601 riscv-013.c:393 scan(): 41b 4i - 00000000 @11 -> + 00003082 @11
Debug: 3662 601 riscv-013.c:404 scan():  ->  allunavail anyunavail authenticated version=2
Debug: 3663 601 riscv-013.c:393 scan(): 41b 4i r 00000000 @10 -> + 00000000 @11
Debug: 3664 601 riscv-013.c:393 scan(): 41b 4i - 00000000 @10 -> + 014c0001 @10
Debug: 3665 601 riscv-013.c:404 scan():  ->  hartsello=332 dmactive
Debug: 3666 602 riscv-013.c:393 scan(): 41b 4i w 014d0001 @10 -> + 00000000 @10
Debug: 3667 602 riscv-013.c:404 scan():  hartsello=333 dmactive -> 
Debug: 3668 602 riscv-013.c:393 scan(): 41b 4i - 00000000 @10 -> + 014d0001 @10
Debug: 3669 602 riscv-013.c:404 scan():  ->  hartsello=333 dmactive
Debug: 3670 602 riscv-013.c:393 scan(): 41b 4i r 00000000 @11 -> + 00000000 @10
Debug: 3671 603 riscv-013.c:393 scan(): 41b 4i - 00000000 @11 -> + 00003082 @11
Debug: 3672 603 riscv-013.c:404 scan():  ->  allunavail anyunavail authenticated version=2
Debug: 3673 603 riscv-013.c:393 scan(): 41b 4i r 00000000 @10 -> + 00000000 @11
Debug: 3674 603 riscv-013.c:393 scan(): 41b 4i - 00000000 @10 -> + 014d0001 @10
Debug: 3675 603 riscv-013.c:404 scan():  ->  hartsello=333 dmactive
Debug: 3676 603 riscv-013.c:393 scan(): 41b 4i w 014e0001 @10 -> + 00000000 @10
Debug: 3677 603 riscv-013.c:404 scan():  hartsello=334 dmactive -> 
Debug: 3678 604 riscv-013.c:393 scan(): 41b 4i - 00000000 @10 -> + 014e0001 @10
Debug: 3679 604 riscv-013.c:404 scan():  ->  hartsello=334 dmactive
Debug: 3680 604 riscv-013.c:393 scan(): 41b 4i r 00000000 @11 -> + 00000000 @10
Debug: 3681 604 riscv-013.c:393 scan(): 41b 4i - 00000000 @11 -> + 00003082 @11
Debug: 3682 604 riscv-013.c:404 scan():  ->  allunavail anyunavail authenticated version=2
Debug: 3683 604 riscv-013.c:393 scan(): 41b 4i r 00000000 @10 -> + 00000000 @11
Debug: 3684 605 riscv-013.c:393 scan(): 41b 4i - 00000000 @10 -> + 014e0001 @10
Debug: 3685 605 riscv-013.c:404 scan():  ->  hartsello=334 dmactive
Debug: 3686 605 riscv-013.c:393 scan(): 41b 4i w 014f0001 @10 -> + 00000000 @10
Debug: 3687 605 riscv-013.c:404 scan():  hartsello=335 dmactive -> 
Debug: 3688 605 riscv-013.c:393 scan(): 41b 4i - 00000000 @10 -> + 014f0001 @10
Debug: 3689 605 riscv-013.c:404 scan():  ->  hartsello=335 dmactive
Debug: 3690 606 riscv-013.c:393 scan(): 41b 4i r 00000000 @11 -> + 00000000 @10
Debug: 3691 606 riscv-013.c:393 scan(): 41b 4i - 00000000 @11 -> + 00003082 @11
Debug: 3692 606 riscv-013.c:404 scan():  ->  allunavail anyunavail authenticated version=2
Debug: 3693 606 riscv-013.c:393 scan(): 41b 4i r 00000000 @10 -> + 00000000 @11
Debug: 3694 606 riscv-013.c:393 scan(): 41b 4i - 00000000 @10 -> + 014f0001 @10
Debug: 3695 606 riscv-013.c:404 scan():  ->  hartsello=335 dmactive
Debug: 3696 606 riscv-013.c:393 scan(): 41b 4i w 01500001 @10 -> + 00000000 @10
Debug: 3697 607 riscv-013.c:404 scan():  hartsello=336 dmactive -> 
Debug: 3698 607 riscv-013.c:393 scan(): 41b 4i - 00000000 @10 -> + 01500001 @10
Debug: 3699 607 riscv-013.c:404 scan():  ->  hartsello=336 dmactive
Debug: 3700 607 riscv-013.c:393 scan(): 41b 4i r 00000000 @11 -> + 00000000 @10
Debug: 3701 607 riscv-013.c:393 scan(): 41b 4i - 00000000 @11 -> + 00003082 @11
Debug: 3702 607 riscv-013.c:404 scan():  ->  allunavail anyunavail authenticated version=2
Debug: 3703 607 riscv-013.c:393 scan(): 41b 4i r 00000000 @10 -> + 00000000 @11
Debug: 3704 608 riscv-013.c:393 scan(): 41b 4i - 00000000 @10 -> + 01500001 @10
Debug: 3705 608 riscv-013.c:404 scan():  ->  hartsello=336 dmactive
Debug: 3706 608 riscv-013.c:393 scan(): 41b 4i w 01510001 @10 -> + 00000000 @10
Debug: 3707 608 riscv-013.c:404 scan():  hartsello=337 dmactive -> 
Debug: 3708 608 riscv-013.c:393 scan(): 41b 4i - 00000000 @10 -> + 01510001 @10
Debug: 3709 608 riscv-013.c:404 scan():  ->  hartsello=337 dmactive
Debug: 3710 609 riscv-013.c:393 scan(): 41b 4i r 00000000 @11 -> + 00000000 @10
Debug: 3711 609 riscv-013.c:393 scan(): 41b 4i - 00000000 @11 -> + 00003082 @11
Debug: 3712 609 riscv-013.c:404 scan():  ->  allunavail anyunavail authenticated version=2
Debug: 3713 609 riscv-013.c:393 scan(): 41b 4i r 00000000 @10 -> + 00000000 @11
Debug: 3714 609 riscv-013.c:393 scan(): 41b 4i - 00000000 @10 -> + 01510001 @10
Debug: 3715 609 riscv-013.c:404 scan():  ->  hartsello=337 dmactive
Debug: 3716 610 riscv-013.c:393 scan(): 41b 4i w 01520001 @10 -> + 00000000 @10
Debug: 3717 610 riscv-013.c:404 scan():  hartsello=338 dmactive -> 
Debug: 3718 610 riscv-013.c:393 scan(): 41b 4i - 00000000 @10 -> + 01520001 @10
Debug: 3719 610 riscv-013.c:404 scan():  ->  hartsello=338 dmactive
Debug: 3720 610 riscv-013.c:393 scan(): 41b 4i r 00000000 @11 -> + 00000000 @10
Debug: 3721 610 riscv-013.c:393 scan(): 41b 4i - 00000000 @11 -> + 00003082 @11
Debug: 3722 610 riscv-013.c:404 scan():  ->  allunavail anyunavail authenticated version=2
Debug: 3723 610 riscv-013.c:393 scan(): 41b 4i r 00000000 @10 -> + 00000000 @11
Debug: 3724 611 riscv-013.c:393 scan(): 41b 4i - 00000000 @10 -> + 01520001 @10
Debug: 3725 611 riscv-013.c:404 scan():  ->  hartsello=338 dmactive
Debug: 3726 611 riscv-013.c:393 scan(): 41b 4i w 01530001 @10 -> + 00000000 @10
Debug: 3727 611 riscv-013.c:404 scan():  hartsello=339 dmactive -> 
Debug: 3728 611 riscv-013.c:393 scan(): 41b 4i - 00000000 @10 -> + 01530001 @10
Debug: 3729 611 riscv-013.c:404 scan():  ->  hartsello=339 dmactive
Debug: 3730 611 riscv-013.c:393 scan(): 41b 4i r 00000000 @11 -> + 00000000 @10
Debug: 3731 611 riscv-013.c:393 scan(): 41b 4i - 00000000 @11 -> + 00003082 @11
Debug: 3732 611 riscv-013.c:404 scan():  ->  allunavail anyunavail authenticated version=2
Debug: 3733 612 riscv-013.c:393 scan(): 41b 4i r 00000000 @10 -> + 00000000 @11
Debug: 3734 612 riscv-013.c:393 scan(): 41b 4i - 00000000 @10 -> + 01530001 @10
Debug: 3735 612 riscv-013.c:404 scan():  ->  hartsello=339 dmactive
Debug: 3736 612 riscv-013.c:393 scan(): 41b 4i w 01540001 @10 -> + 00000000 @10
Debug: 3737 612 riscv-013.c:404 scan():  hartsello=340 dmactive -> 
Debug: 3738 613 riscv-013.c:393 scan(): 41b 4i - 00000000 @10 -> + 01540001 @10
Debug: 3739 613 riscv-013.c:404 scan():  ->  hartsello=340 dmactive
Debug: 3740 613 riscv-013.c:393 scan(): 41b 4i r 00000000 @11 -> + 00000000 @10
Debug: 3741 613 riscv-013.c:393 scan(): 41b 4i - 00000000 @11 -> + 00003082 @11
Debug: 3742 613 riscv-013.c:404 scan():  ->  allunavail anyunavail authenticated version=2
Debug: 3743 613 riscv-013.c:393 scan(): 41b 4i r 00000000 @10 -> + 00000000 @11
Debug: 3744 614 riscv-013.c:393 scan(): 41b 4i - 00000000 @10 -> + 01540001 @10
Debug: 3745 614 riscv-013.c:404 scan():  ->  hartsello=340 dmactive
Debug: 3746 614 riscv-013.c:393 scan(): 41b 4i w 01550001 @10 -> + 00000000 @10
Debug: 3747 614 riscv-013.c:404 scan():  hartsello=341 dmactive -> 
Debug: 3748 614 riscv-013.c:393 scan(): 41b 4i - 00000000 @10 -> + 01550001 @10
Debug: 3749 614 riscv-013.c:404 scan():  ->  hartsello=341 dmactive
Debug: 3750 614 riscv-013.c:393 scan(): 41b 4i r 00000000 @11 -> + 00000000 @10
Debug: 3751 615 riscv-013.c:393 scan(): 41b 4i - 00000000 @11 -> + 00003082 @11
Debug: 3752 615 riscv-013.c:404 scan():  ->  allunavail anyunavail authenticated version=2
Debug: 3753 615 riscv-013.c:393 scan(): 41b 4i r 00000000 @10 -> + 00000000 @11
Debug: 3754 615 riscv-013.c:393 scan(): 41b 4i - 00000000 @10 -> + 01550001 @10
Debug: 3755 615 riscv-013.c:404 scan():  ->  hartsello=341 dmactive
Debug: 3756 616 riscv-013.c:393 scan(): 41b 4i w 01560001 @10 -> + 00000000 @10
Debug: 3757 616 riscv-013.c:404 scan():  hartsello=342 dmactive -> 
Debug: 3758 616 riscv-013.c:393 scan(): 41b 4i - 00000000 @10 -> + 01560001 @10
Debug: 3759 616 riscv-013.c:404 scan():  ->  hartsello=342 dmactive
Debug: 3760 616 riscv-013.c:393 scan(): 41b 4i r 00000000 @11 -> + 00000000 @10
Debug: 3761 616 riscv-013.c:393 scan(): 41b 4i - 00000000 @11 -> + 00003082 @11
Debug: 3762 617 riscv-013.c:404 scan():  ->  allunavail anyunavail authenticated version=2
Debug: 3763 617 riscv-013.c:393 scan(): 41b 4i r 00000000 @10 -> + 00000000 @11
Debug: 3764 617 riscv-013.c:393 scan(): 41b 4i - 00000000 @10 -> + 01560001 @10
Debug: 3765 617 riscv-013.c:404 scan():  ->  hartsello=342 dmactive
Debug: 3766 617 riscv-013.c:393 scan(): 41b 4i w 01570001 @10 -> + 00000000 @10
Debug: 3767 617 riscv-013.c:404 scan():  hartsello=343 dmactive -> 
Debug: 3768 618 riscv-013.c:393 scan(): 41b 4i - 00000000 @10 -> + 01570001 @10
Debug: 3769 618 riscv-013.c:404 scan():  ->  hartsello=343 dmactive
Debug: 3770 618 riscv-013.c:393 scan(): 41b 4i r 00000000 @11 -> + 00000000 @10
Debug: 3771 618 riscv-013.c:393 scan(): 41b 4i - 00000000 @11 -> + 00003082 @11
Debug: 3772 618 riscv-013.c:404 scan():  ->  allunavail anyunavail authenticated version=2
Debug: 3773 618 riscv-013.c:393 scan(): 41b 4i r 00000000 @10 -> + 00000000 @11
Debug: 3774 619 riscv-013.c:393 scan(): 41b 4i - 00000000 @10 -> + 01570001 @10
Debug: 3775 619 riscv-013.c:404 scan():  ->  hartsello=343 dmactive
Debug: 3776 619 riscv-013.c:393 scan(): 41b 4i w 01580001 @10 -> + 00000000 @10
Debug: 3777 619 riscv-013.c:404 scan():  hartsello=344 dmactive -> 
Debug: 3778 619 riscv-013.c:393 scan(): 41b 4i - 00000000 @10 -> + 01580001 @10
Debug: 3779 619 riscv-013.c:404 scan():  ->  hartsello=344 dmactive
Debug: 3780 620 riscv-013.c:393 scan(): 41b 4i r 00000000 @11 -> + 00000000 @10
Debug: 3781 620 riscv-013.c:393 scan(): 41b 4i - 00000000 @11 -> + 00003082 @11
Debug: 3782 620 riscv-013.c:404 scan():  ->  allunavail anyunavail authenticated version=2
Debug: 3783 620 riscv-013.c:393 scan(): 41b 4i r 00000000 @10 -> + 00000000 @11
Debug: 3784 621 riscv-013.c:393 scan(): 41b 4i - 00000000 @10 -> + 01580001 @10
Debug: 3785 621 riscv-013.c:404 scan():  ->  hartsello=344 dmactive
Debug: 3786 621 riscv-013.c:393 scan(): 41b 4i w 01590001 @10 -> + 00000000 @10
Debug: 3787 621 riscv-013.c:404 scan():  hartsello=345 dmactive -> 
Debug: 3788 621 riscv-013.c:393 scan(): 41b 4i - 00000000 @10 -> + 01590001 @10
Debug: 3789 621 riscv-013.c:404 scan():  ->  hartsello=345 dmactive
Debug: 3790 621 riscv-013.c:393 scan(): 41b 4i r 00000000 @11 -> + 00000000 @10
Debug: 3791 622 riscv-013.c:393 scan(): 41b 4i - 00000000 @11 -> + 00003082 @11
Debug: 3792 622 riscv-013.c:404 scan():  ->  allunavail anyunavail authenticated version=2
Debug: 3793 622 riscv-013.c:393 scan(): 41b 4i r 00000000 @10 -> + 00000000 @11
Debug: 3794 622 riscv-013.c:393 scan(): 41b 4i - 00000000 @10 -> + 01590001 @10
Debug: 3795 622 riscv-013.c:404 scan():  ->  hartsello=345 dmactive
Debug: 3796 622 riscv-013.c:393 scan(): 41b 4i w 015a0001 @10 -> + 00000000 @10
Debug: 3797 622 riscv-013.c:404 scan():  hartsello=346 dmactive -> 
Debug: 3798 623 riscv-013.c:393 scan(): 41b 4i - 00000000 @10 -> + 015a0001 @10
Debug: 3799 623 riscv-013.c:404 scan():  ->  hartsello=346 dmactive
Debug: 3800 623 riscv-013.c:393 scan(): 41b 4i r 00000000 @11 -> + 00000000 @10
Debug: 3801 623 riscv-013.c:393 scan(): 41b 4i - 00000000 @11 -> + 00003082 @11
Debug: 3802 623 riscv-013.c:404 scan():  ->  allunavail anyunavail authenticated version=2
Debug: 3803 624 riscv-013.c:393 scan(): 41b 4i r 00000000 @10 -> + 00000000 @11
Debug: 3804 624 riscv-013.c:393 scan(): 41b 4i - 00000000 @10 -> + 015a0001 @10
Debug: 3805 624 riscv-013.c:404 scan():  ->  hartsello=346 dmactive
Debug: 3806 624 riscv-013.c:393 scan(): 41b 4i w 015b0001 @10 -> + 00000000 @10
Debug: 3807 624 riscv-013.c:404 scan():  hartsello=347 dmactive -> 
Debug: 3808 625 riscv-013.c:393 scan(): 41b 4i - 00000000 @10 -> + 015b0001 @10
Debug: 3809 625 riscv-013.c:404 scan():  ->  hartsello=347 dmactive
Debug: 3810 625 riscv-013.c:393 scan(): 41b 4i r 00000000 @11 -> + 00000000 @10
Debug: 3811 625 riscv-013.c:393 scan(): 41b 4i - 00000000 @11 -> + 00003082 @11
Debug: 3812 625 riscv-013.c:404 scan():  ->  allunavail anyunavail authenticated version=2
Debug: 3813 625 riscv-013.c:393 scan(): 41b 4i r 00000000 @10 -> + 00000000 @11
Debug: 3814 626 riscv-013.c:393 scan(): 41b 4i - 00000000 @10 -> + 015b0001 @10
Debug: 3815 626 riscv-013.c:404 scan():  ->  hartsello=347 dmactive
Debug: 3816 626 riscv-013.c:393 scan(): 41b 4i w 015c0001 @10 -> + 00000000 @10
Debug: 3817 626 riscv-013.c:404 scan():  hartsello=348 dmactive -> 
Debug: 3818 626 riscv-013.c:393 scan(): 41b 4i - 00000000 @10 -> + 015c0001 @10
Debug: 3819 626 riscv-013.c:404 scan():  ->  hartsello=348 dmactive
Debug: 3820 626 riscv-013.c:393 scan(): 41b 4i r 00000000 @11 -> + 00000000 @10
Debug: 3821 627 riscv-013.c:393 scan(): 41b 4i - 00000000 @11 -> + 00003082 @11
Debug: 3822 627 riscv-013.c:404 scan():  ->  allunavail anyunavail authenticated version=2
Debug: 3823 627 riscv-013.c:393 scan(): 41b 4i r 00000000 @10 -> + 00000000 @11
Debug: 3824 628 riscv-013.c:393 scan(): 41b 4i - 00000000 @10 -> + 015c0001 @10
Debug: 3825 628 riscv-013.c:404 scan():  ->  hartsello=348 dmactive
Debug: 3826 628 riscv-013.c:393 scan(): 41b 4i w 015d0001 @10 -> + 00000000 @10
Debug: 3827 628 riscv-013.c:404 scan():  hartsello=349 dmactive -> 
Debug: 3828 628 riscv-013.c:393 scan(): 41b 4i - 00000000 @10 -> + 015d0001 @10
Debug: 3829 628 riscv-013.c:404 scan():  ->  hartsello=349 dmactive
Debug: 3830 628 riscv-013.c:393 scan(): 41b 4i r 00000000 @11 -> + 00000000 @10
Debug: 3831 629 riscv-013.c:393 scan(): 41b 4i - 00000000 @11 -> + 00003082 @11
Debug: 3832 629 riscv-013.c:404 scan():  ->  allunavail anyunavail authenticated version=2
Debug: 3833 629 riscv-013.c:393 scan(): 41b 4i r 00000000 @10 -> + 00000000 @11
Debug: 3834 629 riscv-013.c:393 scan(): 41b 4i - 00000000 @10 -> + 015d0001 @10
Debug: 3835 629 riscv-013.c:404 scan():  ->  hartsello=349 dmactive
Debug: 3836 629 riscv-013.c:393 scan(): 41b 4i w 015e0001 @10 -> + 00000000 @10
Debug: 3837 629 riscv-013.c:404 scan():  hartsello=350 dmactive -> 
Debug: 3838 630 riscv-013.c:393 scan(): 41b 4i - 00000000 @10 -> + 015e0001 @10
Debug: 3839 630 riscv-013.c:404 scan():  ->  hartsello=350 dmactive
Debug: 3840 630 riscv-013.c:393 scan(): 41b 4i r 00000000 @11 -> + 00000000 @10
Debug: 3841 630 riscv-013.c:393 scan(): 41b 4i - 00000000 @11 -> + 00003082 @11
Debug: 3842 630 riscv-013.c:404 scan():  ->  allunavail anyunavail authenticated version=2
Debug: 3843 630 riscv-013.c:393 scan(): 41b 4i r 00000000 @10 -> + 00000000 @11
Debug: 3844 631 riscv-013.c:393 scan(): 41b 4i - 00000000 @10 -> + 015e0001 @10
Debug: 3845 631 riscv-013.c:404 scan():  ->  hartsello=350 dmactive
Debug: 3846 631 riscv-013.c:393 scan(): 41b 4i w 015f0001 @10 -> + 00000000 @10
Debug: 3847 631 riscv-013.c:404 scan():  hartsello=351 dmactive -> 
Debug: 3848 631 riscv-013.c:393 scan(): 41b 4i - 00000000 @10 -> + 015f0001 @10
Debug: 3849 631 riscv-013.c:404 scan():  ->  hartsello=351 dmactive
Debug: 3850 632 riscv-013.c:393 scan(): 41b 4i r 00000000 @11 -> + 00000000 @10
Debug: 3851 632 riscv-013.c:393 scan(): 41b 4i - 00000000 @11 -> + 00003082 @11
Debug: 3852 632 riscv-013.c:404 scan():  ->  allunavail anyunavail authenticated version=2
Debug: 3853 632 riscv-013.c:393 scan(): 41b 4i r 00000000 @10 -> + 00000000 @11
Debug: 3854 632 riscv-013.c:393 scan(): 41b 4i - 00000000 @10 -> + 015f0001 @10
Debug: 3855 632 riscv-013.c:404 scan():  ->  hartsello=351 dmactive
Debug: 3856 633 riscv-013.c:393 scan(): 41b 4i w 01600001 @10 -> + 00000000 @10
Debug: 3857 633 riscv-013.c:404 scan():  hartsello=352 dmactive -> 
Debug: 3858 633 riscv-013.c:393 scan(): 41b 4i - 00000000 @10 -> + 01600001 @10
Debug: 3859 633 riscv-013.c:404 scan():  ->  hartsello=352 dmactive
Debug: 3860 633 riscv-013.c:393 scan(): 41b 4i r 00000000 @11 -> + 00000000 @10
Debug: 3861 633 riscv-013.c:393 scan(): 41b 4i - 00000000 @11 -> + 00003082 @11
Debug: 3862 633 riscv-013.c:404 scan():  ->  allunavail anyunavail authenticated version=2
Debug: 3863 634 riscv-013.c:393 scan(): 41b 4i r 00000000 @10 -> + 00000000 @11
Debug: 3864 634 riscv-013.c:393 scan(): 41b 4i - 00000000 @10 -> + 01600001 @10
Debug: 3865 634 riscv-013.c:404 scan():  ->  hartsello=352 dmactive
Debug: 3866 634 riscv-013.c:393 scan(): 41b 4i w 01610001 @10 -> + 00000000 @10
Debug: 3867 634 riscv-013.c:404 scan():  hartsello=353 dmactive -> 
Debug: 3868 635 riscv-013.c:393 scan(): 41b 4i - 00000000 @10 -> + 01610001 @10
Debug: 3869 635 riscv-013.c:404 scan():  ->  hartsello=353 dmactive
Debug: 3870 635 riscv-013.c:393 scan(): 41b 4i r 00000000 @11 -> + 00000000 @10
Debug: 3871 635 riscv-013.c:393 scan(): 41b 4i - 00000000 @11 -> + 00003082 @11
Debug: 3872 635 riscv-013.c:404 scan():  ->  allunavail anyunavail authenticated version=2
Debug: 3873 636 riscv-013.c:393 scan(): 41b 4i r 00000000 @10 -> + 00000000 @11
Debug: 3874 636 riscv-013.c:393 scan(): 41b 4i - 00000000 @10 -> + 01610001 @10
Debug: 3875 636 riscv-013.c:404 scan():  ->  hartsello=353 dmactive
Debug: 3876 636 riscv-013.c:393 scan(): 41b 4i w 01620001 @10 -> + 00000000 @10
Debug: 3877 636 riscv-013.c:404 scan():  hartsello=354 dmactive -> 
Debug: 3878 636 riscv-013.c:393 scan(): 41b 4i - 00000000 @10 -> + 01620001 @10
Debug: 3879 636 riscv-013.c:404 scan():  ->  hartsello=354 dmactive
Debug: 3880 637 riscv-013.c:393 scan(): 41b 4i r 00000000 @11 -> + 00000000 @10
Debug: 3881 637 riscv-013.c:393 scan(): 41b 4i - 00000000 @11 -> + 00003082 @11
Debug: 3882 637 riscv-013.c:404 scan():  ->  allunavail anyunavail authenticated version=2
Debug: 3883 637 riscv-013.c:393 scan(): 41b 4i r 00000000 @10 -> + 00000000 @11
Debug: 3884 638 riscv-013.c:393 scan(): 41b 4i - 00000000 @10 -> + 01620001 @10
Debug: 3885 638 riscv-013.c:404 scan():  ->  hartsello=354 dmactive
Debug: 3886 638 riscv-013.c:393 scan(): 41b 4i w 01630001 @10 -> + 00000000 @10
Debug: 3887 638 riscv-013.c:404 scan():  hartsello=355 dmactive -> 
Debug: 3888 638 riscv-013.c:393 scan(): 41b 4i - 00000000 @10 -> + 01630001 @10
Debug: 3889 638 riscv-013.c:404 scan():  ->  hartsello=355 dmactive
Debug: 3890 639 riscv-013.c:393 scan(): 41b 4i r 00000000 @11 -> + 00000000 @10
Debug: 3891 639 riscv-013.c:393 scan(): 41b 4i - 00000000 @11 -> + 00003082 @11
Debug: 3892 639 riscv-013.c:404 scan():  ->  allunavail anyunavail authenticated version=2
Debug: 3893 639 riscv-013.c:393 scan(): 41b 4i r 00000000 @10 -> + 00000000 @11
Debug: 3894 639 riscv-013.c:393 scan(): 41b 4i - 00000000 @10 -> + 01630001 @10
Debug: 3895 639 riscv-013.c:404 scan():  ->  hartsello=355 dmactive
Debug: 3896 640 riscv-013.c:393 scan(): 41b 4i w 01640001 @10 -> + 00000000 @10
Debug: 3897 640 riscv-013.c:404 scan():  hartsello=356 dmactive -> 
Debug: 3898 640 riscv-013.c:393 scan(): 41b 4i - 00000000 @10 -> + 01640001 @10
Debug: 3899 640 riscv-013.c:404 scan():  ->  hartsello=356 dmactive
Debug: 3900 640 riscv-013.c:393 scan(): 41b 4i r 00000000 @11 -> + 00000000 @10
Debug: 3901 640 riscv-013.c:393 scan(): 41b 4i - 00000000 @11 -> + 00003082 @11
Debug: 3902 641 riscv-013.c:404 scan():  ->  allunavail anyunavail authenticated version=2
Debug: 3903 641 riscv-013.c:393 scan(): 41b 4i r 00000000 @10 -> + 00000000 @11
Debug: 3904 641 riscv-013.c:393 scan(): 41b 4i - 00000000 @10 -> + 01640001 @10
Debug: 3905 641 riscv-013.c:404 scan():  ->  hartsello=356 dmactive
Debug: 3906 641 riscv-013.c:393 scan(): 41b 4i w 01650001 @10 -> + 00000000 @10
Debug: 3907 641 riscv-013.c:404 scan():  hartsello=357 dmactive -> 
Debug: 3908 641 riscv-013.c:393 scan(): 41b 4i - 00000000 @10 -> + 01650001 @10
Debug: 3909 642 riscv-013.c:404 scan():  ->  hartsello=357 dmactive
Debug: 3910 642 riscv-013.c:393 scan(): 41b 4i r 00000000 @11 -> + 00000000 @10
Debug: 3911 642 riscv-013.c:393 scan(): 41b 4i - 00000000 @11 -> + 00003082 @11
Debug: 3912 642 riscv-013.c:404 scan():  ->  allunavail anyunavail authenticated version=2
Debug: 3913 642 riscv-013.c:393 scan(): 41b 4i r 00000000 @10 -> + 00000000 @11
Debug: 3914 643 riscv-013.c:393 scan(): 41b 4i - 00000000 @10 -> + 01650001 @10
Debug: 3915 643 riscv-013.c:404 scan():  ->  hartsello=357 dmactive
Debug: 3916 643 riscv-013.c:393 scan(): 41b 4i w 01660001 @10 -> + 00000000 @10
Debug: 3917 643 riscv-013.c:404 scan():  hartsello=358 dmactive -> 
Debug: 3918 643 riscv-013.c:393 scan(): 41b 4i - 00000000 @10 -> + 01660001 @10
Debug: 3919 643 riscv-013.c:404 scan():  ->  hartsello=358 dmactive
Debug: 3920 643 riscv-013.c:393 scan(): 41b 4i r 00000000 @11 -> + 00000000 @10
Debug: 3921 644 riscv-013.c:393 scan(): 41b 4i - 00000000 @11 -> + 00003082 @11
Debug: 3922 644 riscv-013.c:404 scan():  ->  allunavail anyunavail authenticated version=2
Debug: 3923 644 riscv-013.c:393 scan(): 41b 4i r 00000000 @10 -> + 00000000 @11
Debug: 3924 644 riscv-013.c:393 scan(): 41b 4i - 00000000 @10 -> + 01660001 @10
Debug: 3925 644 riscv-013.c:404 scan():  ->  hartsello=358 dmactive
Debug: 3926 645 riscv-013.c:393 scan(): 41b 4i w 01670001 @10 -> + 00000000 @10
Debug: 3927 645 riscv-013.c:404 scan():  hartsello=359 dmactive -> 
Debug: 3928 645 riscv-013.c:393 scan(): 41b 4i - 00000000 @10 -> + 01670001 @10
Debug: 3929 645 riscv-013.c:404 scan():  ->  hartsello=359 dmactive
Debug: 3930 645 riscv-013.c:393 scan(): 41b 4i r 00000000 @11 -> + 00000000 @10
Debug: 3931 645 riscv-013.c:393 scan(): 41b 4i - 00000000 @11 -> + 00003082 @11
Debug: 3932 645 riscv-013.c:404 scan():  ->  allunavail anyunavail authenticated version=2
Debug: 3933 646 riscv-013.c:393 scan(): 41b 4i r 00000000 @10 -> + 00000000 @11
Debug: 3934 646 riscv-013.c:393 scan(): 41b 4i - 00000000 @10 -> + 01670001 @10
Debug: 3935 646 riscv-013.c:404 scan():  ->  hartsello=359 dmactive
Debug: 3936 646 riscv-013.c:393 scan(): 41b 4i w 01680001 @10 -> + 00000000 @10
Debug: 3937 646 riscv-013.c:404 scan():  hartsello=360 dmactive -> 
Debug: 3938 647 riscv-013.c:393 scan(): 41b 4i - 00000000 @10 -> + 01680001 @10
Debug: 3939 647 riscv-013.c:404 scan():  ->  hartsello=360 dmactive
Debug: 3940 647 riscv-013.c:393 scan(): 41b 4i r 00000000 @11 -> + 00000000 @10
Debug: 3941 647 riscv-013.c:393 scan(): 41b 4i - 00000000 @11 -> + 00003082 @11
Debug: 3942 647 riscv-013.c:404 scan():  ->  allunavail anyunavail authenticated version=2
Debug: 3943 648 riscv-013.c:393 scan(): 41b 4i r 00000000 @10 -> + 00000000 @11
Debug: 3944 648 riscv-013.c:393 scan(): 41b 4i - 00000000 @10 -> + 01680001 @10
Debug: 3945 648 riscv-013.c:404 scan():  ->  hartsello=360 dmactive
Debug: 3946 648 riscv-013.c:393 scan(): 41b 4i w 01690001 @10 -> + 00000000 @10
Debug: 3947 648 riscv-013.c:404 scan():  hartsello=361 dmactive -> 
Debug: 3948 649 riscv-013.c:393 scan(): 41b 4i - 00000000 @10 -> + 01690001 @10
Debug: 3949 649 riscv-013.c:404 scan():  ->  hartsello=361 dmactive
Debug: 3950 649 riscv-013.c:393 scan(): 41b 4i r 00000000 @11 -> + 00000000 @10
Debug: 3951 649 riscv-013.c:393 scan(): 41b 4i - 00000000 @11 -> + 00003082 @11
Debug: 3952 649 riscv-013.c:404 scan():  ->  allunavail anyunavail authenticated version=2
Debug: 3953 650 riscv-013.c:393 scan(): 41b 4i r 00000000 @10 -> + 00000000 @11
Debug: 3954 650 riscv-013.c:393 scan(): 41b 4i - 00000000 @10 -> + 01690001 @10
Debug: 3955 650 riscv-013.c:404 scan():  ->  hartsello=361 dmactive
Debug: 3956 650 riscv-013.c:393 scan(): 41b 4i w 016a0001 @10 -> + 00000000 @10
Debug: 3957 650 riscv-013.c:404 scan():  hartsello=362 dmactive -> 
Debug: 3958 650 riscv-013.c:393 scan(): 41b 4i - 00000000 @10 -> + 016a0001 @10
Debug: 3959 650 riscv-013.c:404 scan():  ->  hartsello=362 dmactive
Debug: 3960 651 riscv-013.c:393 scan(): 41b 4i r 00000000 @11 -> + 00000000 @10
Debug: 3961 651 riscv-013.c:393 scan(): 41b 4i - 00000000 @11 -> + 00003082 @11
Debug: 3962 651 riscv-013.c:404 scan():  ->  allunavail anyunavail authenticated version=2
Debug: 3963 652 riscv-013.c:393 scan(): 41b 4i r 00000000 @10 -> + 00000000 @11
Debug: 3964 652 riscv-013.c:393 scan(): 41b 4i - 00000000 @10 -> + 016a0001 @10
Debug: 3965 652 riscv-013.c:404 scan():  ->  hartsello=362 dmactive
Debug: 3966 652 riscv-013.c:393 scan(): 41b 4i w 016b0001 @10 -> + 00000000 @10
Debug: 3967 652 riscv-013.c:404 scan():  hartsello=363 dmactive -> 
Debug: 3968 653 riscv-013.c:393 scan(): 41b 4i - 00000000 @10 -> + 016b0001 @10
Debug: 3969 653 riscv-013.c:404 scan():  ->  hartsello=363 dmactive
Debug: 3970 653 riscv-013.c:393 scan(): 41b 4i r 00000000 @11 -> + 00000000 @10
Debug: 3971 653 riscv-013.c:393 scan(): 41b 4i - 00000000 @11 -> + 00003082 @11
Debug: 3972 653 riscv-013.c:404 scan():  ->  allunavail anyunavail authenticated version=2
Debug: 3973 654 riscv-013.c:393 scan(): 41b 4i r 00000000 @10 -> + 00000000 @11
Debug: 3974 654 riscv-013.c:393 scan(): 41b 4i - 00000000 @10 -> + 016b0001 @10
Debug: 3975 654 riscv-013.c:404 scan():  ->  hartsello=363 dmactive
Debug: 3976 654 riscv-013.c:393 scan(): 41b 4i w 016c0001 @10 -> + 00000000 @10
Debug: 3977 654 riscv-013.c:404 scan():  hartsello=364 dmactive -> 
Debug: 3978 654 riscv-013.c:393 scan(): 41b 4i - 00000000 @10 -> + 016c0001 @10
Debug: 3979 654 riscv-013.c:404 scan():  ->  hartsello=364 dmactive
Debug: 3980 655 riscv-013.c:393 scan(): 41b 4i r 00000000 @11 -> + 00000000 @10
Debug: 3981 655 riscv-013.c:393 scan(): 41b 4i - 00000000 @11 -> + 00003082 @11
Debug: 3982 655 riscv-013.c:404 scan():  ->  allunavail anyunavail authenticated version=2
Debug: 3983 655 riscv-013.c:393 scan(): 41b 4i r 00000000 @10 -> + 00000000 @11
Debug: 3984 656 riscv-013.c:393 scan(): 41b 4i - 00000000 @10 -> + 016c0001 @10
Debug: 3985 656 riscv-013.c:404 scan():  ->  hartsello=364 dmactive
Debug: 3986 656 riscv-013.c:393 scan(): 41b 4i w 016d0001 @10 -> + 00000000 @10
Debug: 3987 656 riscv-013.c:404 scan():  hartsello=365 dmactive -> 
Debug: 3988 656 riscv-013.c:393 scan(): 41b 4i - 00000000 @10 -> + 016d0001 @10
Debug: 3989 656 riscv-013.c:404 scan():  ->  hartsello=365 dmactive
Debug: 3990 656 riscv-013.c:393 scan(): 41b 4i r 00000000 @11 -> + 00000000 @10
Debug: 3991 657 riscv-013.c:393 scan(): 41b 4i - 00000000 @11 -> + 00003082 @11
Debug: 3992 657 riscv-013.c:404 scan():  ->  allunavail anyunavail authenticated version=2
Debug: 3993 657 riscv-013.c:393 scan(): 41b 4i r 00000000 @10 -> + 00000000 @11
Debug: 3994 657 riscv-013.c:393 scan(): 41b 4i - 00000000 @10 -> + 016d0001 @10
Debug: 3995 657 riscv-013.c:404 scan():  ->  hartsello=365 dmactive
Debug: 3996 658 riscv-013.c:393 scan(): 41b 4i w 016e0001 @10 -> + 00000000 @10
Debug: 3997 658 riscv-013.c:404 scan():  hartsello=366 dmactive -> 
Debug: 3998 658 riscv-013.c:393 scan(): 41b 4i - 00000000 @10 -> + 016e0001 @10
Debug: 3999 658 riscv-013.c:404 scan():  ->  hartsello=366 dmactive
Debug: 4000 658 riscv-013.c:393 scan(): 41b 4i r 00000000 @11 -> + 00000000 @10
Debug: 4001 658 riscv-013.c:393 scan(): 41b 4i - 00000000 @11 -> + 00003082 @11
Debug: 4002 658 riscv-013.c:404 scan():  ->  allunavail anyunavail authenticated version=2
Debug: 4003 659 riscv-013.c:393 scan(): 41b 4i r 00000000 @10 -> + 00000000 @11
Debug: 4004 659 riscv-013.c:393 scan(): 41b 4i - 00000000 @10 -> + 016e0001 @10
Debug: 4005 659 riscv-013.c:404 scan():  ->  hartsello=366 dmactive
Debug: 4006 659 riscv-013.c:393 scan(): 41b 4i w 016f0001 @10 -> + 00000000 @10
Debug: 4007 659 riscv-013.c:404 scan():  hartsello=367 dmactive -> 
Debug: 4008 660 riscv-013.c:393 scan(): 41b 4i - 00000000 @10 -> + 016f0001 @10
Debug: 4009 660 riscv-013.c:404 scan():  ->  hartsello=367 dmactive
Debug: 4010 660 riscv-013.c:393 scan(): 41b 4i r 00000000 @11 -> + 00000000 @10
Debug: 4011 660 riscv-013.c:393 scan(): 41b 4i - 00000000 @11 -> + 00003082 @11
Debug: 4012 660 riscv-013.c:404 scan():  ->  allunavail anyunavail authenticated version=2
Debug: 4013 660 riscv-013.c:393 scan(): 41b 4i r 00000000 @10 -> + 00000000 @11
Debug: 4014 661 riscv-013.c:393 scan(): 41b 4i - 00000000 @10 -> + 016f0001 @10
Debug: 4015 661 riscv-013.c:404 scan():  ->  hartsello=367 dmactive
Debug: 4016 661 riscv-013.c:393 scan(): 41b 4i w 01700001 @10 -> + 00000000 @10
Debug: 4017 661 riscv-013.c:404 scan():  hartsello=368 dmactive -> 
Debug: 4018 661 riscv-013.c:393 scan(): 41b 4i - 00000000 @10 -> + 01700001 @10
Debug: 4019 661 riscv-013.c:404 scan():  ->  hartsello=368 dmactive
Debug: 4020 661 riscv-013.c:393 scan(): 41b 4i r 00000000 @11 -> + 00000000 @10
Debug: 4021 662 riscv-013.c:393 scan(): 41b 4i - 00000000 @11 -> + 00003082 @11
Debug: 4022 662 riscv-013.c:404 scan():  ->  allunavail anyunavail authenticated version=2
Debug: 4023 662 riscv-013.c:393 scan(): 41b 4i r 00000000 @10 -> + 00000000 @11
Debug: 4024 662 riscv-013.c:393 scan(): 41b 4i - 00000000 @10 -> + 01700001 @10
Debug: 4025 662 riscv-013.c:404 scan():  ->  hartsello=368 dmactive
Debug: 4026 663 riscv-013.c:393 scan(): 41b 4i w 01710001 @10 -> + 00000000 @10
Debug: 4027 663 riscv-013.c:404 scan():  hartsello=369 dmactive -> 
Debug: 4028 663 riscv-013.c:393 scan(): 41b 4i - 00000000 @10 -> + 01710001 @10
Debug: 4029 663 riscv-013.c:404 scan():  ->  hartsello=369 dmactive
Debug: 4030 663 riscv-013.c:393 scan(): 41b 4i r 00000000 @11 -> + 00000000 @10
Debug: 4031 663 riscv-013.c:393 scan(): 41b 4i - 00000000 @11 -> + 00003082 @11
Debug: 4032 663 riscv-013.c:404 scan():  ->  allunavail anyunavail authenticated version=2
Debug: 4033 664 riscv-013.c:393 scan(): 41b 4i r 00000000 @10 -> + 00000000 @11
Debug: 4034 664 riscv-013.c:393 scan(): 41b 4i - 00000000 @10 -> + 01710001 @10
Debug: 4035 664 riscv-013.c:404 scan():  ->  hartsello=369 dmactive
Debug: 4036 664 riscv-013.c:393 scan(): 41b 4i w 01720001 @10 -> + 00000000 @10
Debug: 4037 664 riscv-013.c:404 scan():  hartsello=370 dmactive -> 
Debug: 4038 664 riscv-013.c:393 scan(): 41b 4i - 00000000 @10 -> + 01720001 @10
Debug: 4039 664 riscv-013.c:404 scan():  ->  hartsello=370 dmactive
Debug: 4040 665 riscv-013.c:393 scan(): 41b 4i r 00000000 @11 -> + 00000000 @10
Debug: 4041 665 riscv-013.c:393 scan(): 41b 4i - 00000000 @11 -> + 00003082 @11
Debug: 4042 665 riscv-013.c:404 scan():  ->  allunavail anyunavail authenticated version=2
Debug: 4043 665 riscv-013.c:393 scan(): 41b 4i r 00000000 @10 -> + 00000000 @11
Debug: 4044 665 riscv-013.c:393 scan(): 41b 4i - 00000000 @10 -> + 01720001 @10
Debug: 4045 665 riscv-013.c:404 scan():  ->  hartsello=370 dmactive
Debug: 4046 666 riscv-013.c:393 scan(): 41b 4i w 01730001 @10 -> + 00000000 @10
Debug: 4047 666 riscv-013.c:404 scan():  hartsello=371 dmactive -> 
Debug: 4048 666 riscv-013.c:393 scan(): 41b 4i - 00000000 @10 -> + 01730001 @10
Debug: 4049 666 riscv-013.c:404 scan():  ->  hartsello=371 dmactive
Debug: 4050 666 riscv-013.c:393 scan(): 41b 4i r 00000000 @11 -> + 00000000 @10
Debug: 4051 667 riscv-013.c:393 scan(): 41b 4i - 00000000 @11 -> + 00003082 @11
Debug: 4052 667 riscv-013.c:404 scan():  ->  allunavail anyunavail authenticated version=2
Debug: 4053 667 riscv-013.c:393 scan(): 41b 4i r 00000000 @10 -> + 00000000 @11
Debug: 4054 667 riscv-013.c:393 scan(): 41b 4i - 00000000 @10 -> + 01730001 @10
Debug: 4055 667 riscv-013.c:404 scan():  ->  hartsello=371 dmactive
Debug: 4056 668 riscv-013.c:393 scan(): 41b 4i w 01740001 @10 -> + 00000000 @10
Debug: 4057 668 riscv-013.c:404 scan():  hartsello=372 dmactive -> 
Debug: 4058 668 riscv-013.c:393 scan(): 41b 4i - 00000000 @10 -> + 01740001 @10
Debug: 4059 668 riscv-013.c:404 scan():  ->  hartsello=372 dmactive
Debug: 4060 668 riscv-013.c:393 scan(): 41b 4i r 00000000 @11 -> + 00000000 @10
Debug: 4061 668 riscv-013.c:393 scan(): 41b 4i - 00000000 @11 -> + 00003082 @11
Debug: 4062 668 riscv-013.c:404 scan():  ->  allunavail anyunavail authenticated version=2
Debug: 4063 669 riscv-013.c:393 scan(): 41b 4i r 00000000 @10 -> + 00000000 @11
Debug: 4064 669 riscv-013.c:393 scan(): 41b 4i - 00000000 @10 -> + 01740001 @10
Debug: 4065 669 riscv-013.c:404 scan():  ->  hartsello=372 dmactive
Debug: 4066 669 riscv-013.c:393 scan(): 41b 4i w 01750001 @10 -> + 00000000 @10
Debug: 4067 669 riscv-013.c:404 scan():  hartsello=373 dmactive -> 
Debug: 4068 670 riscv-013.c:393 scan(): 41b 4i - 00000000 @10 -> + 01750001 @10
Debug: 4069 670 riscv-013.c:404 scan():  ->  hartsello=373 dmactive
Debug: 4070 670 riscv-013.c:393 scan(): 41b 4i r 00000000 @11 -> + 00000000 @10
Debug: 4071 670 riscv-013.c:393 scan(): 41b 4i - 00000000 @11 -> + 00003082 @11
Debug: 4072 670 riscv-013.c:404 scan():  ->  allunavail anyunavail authenticated version=2
Debug: 4073 671 riscv-013.c:393 scan(): 41b 4i r 00000000 @10 -> + 00000000 @11
Debug: 4074 671 riscv-013.c:393 scan(): 41b 4i - 00000000 @10 -> + 01750001 @10
Debug: 4075 671 riscv-013.c:404 scan():  ->  hartsello=373 dmactive
Debug: 4076 671 riscv-013.c:393 scan(): 41b 4i w 01760001 @10 -> + 00000000 @10
Debug: 4077 671 riscv-013.c:404 scan():  hartsello=374 dmactive -> 
Debug: 4078 672 riscv-013.c:393 scan(): 41b 4i - 00000000 @10 -> + 01760001 @10
Debug: 4079 672 riscv-013.c:404 scan():  ->  hartsello=374 dmactive
Debug: 4080 672 riscv-013.c:393 scan(): 41b 4i r 00000000 @11 -> + 00000000 @10
Debug: 4081 672 riscv-013.c:393 scan(): 41b 4i - 00000000 @11 -> + 00003082 @11
Debug: 4082 672 riscv-013.c:404 scan():  ->  allunavail anyunavail authenticated version=2
Debug: 4083 673 riscv-013.c:393 scan(): 41b 4i r 00000000 @10 -> + 00000000 @11
Debug: 4084 673 riscv-013.c:393 scan(): 41b 4i - 00000000 @10 -> + 01760001 @10
Debug: 4085 673 riscv-013.c:404 scan():  ->  hartsello=374 dmactive
Debug: 4086 673 riscv-013.c:393 scan(): 41b 4i w 01770001 @10 -> + 00000000 @10
Debug: 4087 673 riscv-013.c:404 scan():  hartsello=375 dmactive -> 
Debug: 4088 673 riscv-013.c:393 scan(): 41b 4i - 00000000 @10 -> + 01770001 @10
Debug: 4089 673 riscv-013.c:404 scan():  ->  hartsello=375 dmactive
Debug: 4090 674 riscv-013.c:393 scan(): 41b 4i r 00000000 @11 -> + 00000000 @10
Debug: 4091 674 riscv-013.c:393 scan(): 41b 4i - 00000000 @11 -> + 00003082 @11
Debug: 4092 674 riscv-013.c:404 scan():  ->  allunavail anyunavail authenticated version=2
Debug: 4093 674 riscv-013.c:393 scan(): 41b 4i r 00000000 @10 -> + 00000000 @11
Debug: 4094 675 riscv-013.c:393 scan(): 41b 4i - 00000000 @10 -> + 01770001 @10
Debug: 4095 675 riscv-013.c:404 scan():  ->  hartsello=375 dmactive
Debug: 4096 675 riscv-013.c:393 scan(): 41b 4i w 01780001 @10 -> + 00000000 @10
Debug: 4097 675 riscv-013.c:404 scan():  hartsello=376 dmactive -> 
Debug: 4098 675 riscv-013.c:393 scan(): 41b 4i - 00000000 @10 -> + 01780001 @10
Debug: 4099 675 riscv-013.c:404 scan():  ->  hartsello=376 dmactive
Debug: 4100 675 riscv-013.c:393 scan(): 41b 4i r 00000000 @11 -> + 00000000 @10
Debug: 4101 676 riscv-013.c:393 scan(): 41b 4i - 00000000 @11 -> + 00003082 @11
Debug: 4102 676 riscv-013.c:404 scan():  ->  allunavail anyunavail authenticated version=2
Debug: 4103 676 riscv-013.c:393 scan(): 41b 4i r 00000000 @10 -> + 00000000 @11
Debug: 4104 676 riscv-013.c:393 scan(): 41b 4i - 00000000 @10 -> + 01780001 @10
Debug: 4105 676 riscv-013.c:404 scan():  ->  hartsello=376 dmactive
Debug: 4106 677 riscv-013.c:393 scan(): 41b 4i w 01790001 @10 -> + 00000000 @10
Debug: 4107 677 riscv-013.c:404 scan():  hartsello=377 dmactive -> 
Debug: 4108 677 riscv-013.c:393 scan(): 41b 4i - 00000000 @10 -> + 01790001 @10
Debug: 4109 677 riscv-013.c:404 scan():  ->  hartsello=377 dmactive
Debug: 4110 677 riscv-013.c:393 scan(): 41b 4i r 00000000 @11 -> + 00000000 @10
Debug: 4111 677 riscv-013.c:393 scan(): 41b 4i - 00000000 @11 -> + 00003082 @11
Debug: 4112 677 riscv-013.c:404 scan():  ->  allunavail anyunavail authenticated version=2
Debug: 4113 678 riscv-013.c:393 scan(): 41b 4i r 00000000 @10 -> + 00000000 @11
Debug: 4114 678 riscv-013.c:393 scan(): 41b 4i - 00000000 @10 -> + 01790001 @10
Debug: 4115 678 riscv-013.c:404 scan():  ->  hartsello=377 dmactive
Debug: 4116 678 riscv-013.c:393 scan(): 41b 4i w 017a0001 @10 -> + 00000000 @10
Debug: 4117 678 riscv-013.c:404 scan():  hartsello=378 dmactive -> 
Debug: 4118 678 riscv-013.c:393 scan(): 41b 4i - 00000000 @10 -> + 017a0001 @10
Debug: 4119 678 riscv-013.c:404 scan():  ->  hartsello=378 dmactive
Debug: 4120 679 riscv-013.c:393 scan(): 41b 4i r 00000000 @11 -> + 00000000 @10
Debug: 4121 679 riscv-013.c:393 scan(): 41b 4i - 00000000 @11 -> + 00003082 @11
Debug: 4122 679 riscv-013.c:404 scan():  ->  allunavail anyunavail authenticated version=2
Debug: 4123 679 riscv-013.c:393 scan(): 41b 4i r 00000000 @10 -> + 00000000 @11
Debug: 4124 680 riscv-013.c:393 scan(): 41b 4i - 00000000 @10 -> + 017a0001 @10
Debug: 4125 680 riscv-013.c:404 scan():  ->  hartsello=378 dmactive
Debug: 4126 680 riscv-013.c:393 scan(): 41b 4i w 017b0001 @10 -> + 00000000 @10
Debug: 4127 680 riscv-013.c:404 scan():  hartsello=379 dmactive -> 
Debug: 4128 680 riscv-013.c:393 scan(): 41b 4i - 00000000 @10 -> + 017b0001 @10
Debug: 4129 680 riscv-013.c:404 scan():  ->  hartsello=379 dmactive
Debug: 4130 680 riscv-013.c:393 scan(): 41b 4i r 00000000 @11 -> + 00000000 @10
Debug: 4131 681 riscv-013.c:393 scan(): 41b 4i - 00000000 @11 -> + 00003082 @11
Debug: 4132 681 riscv-013.c:404 scan():  ->  allunavail anyunavail authenticated version=2
Debug: 4133 681 riscv-013.c:393 scan(): 41b 4i r 00000000 @10 -> + 00000000 @11
Debug: 4134 681 riscv-013.c:393 scan(): 41b 4i - 00000000 @10 -> + 017b0001 @10
Debug: 4135 681 riscv-013.c:404 scan():  ->  hartsello=379 dmactive
Debug: 4136 682 riscv-013.c:393 scan(): 41b 4i w 017c0001 @10 -> + 00000000 @10
Debug: 4137 682 riscv-013.c:404 scan():  hartsello=380 dmactive -> 
Debug: 4138 682 riscv-013.c:393 scan(): 41b 4i - 00000000 @10 -> + 017c0001 @10
Debug: 4139 682 riscv-013.c:404 scan():  ->  hartsello=380 dmactive
Debug: 4140 682 riscv-013.c:393 scan(): 41b 4i r 00000000 @11 -> + 00000000 @10
Debug: 4141 682 riscv-013.c:393 scan(): 41b 4i - 00000000 @11 -> + 00003082 @11
Debug: 4142 682 riscv-013.c:404 scan():  ->  allunavail anyunavail authenticated version=2
Debug: 4143 683 riscv-013.c:393 scan(): 41b 4i r 00000000 @10 -> + 00000000 @11
Debug: 4144 683 riscv-013.c:393 scan(): 41b 4i - 00000000 @10 -> + 017c0001 @10
Debug: 4145 683 riscv-013.c:404 scan():  ->  hartsello=380 dmactive
Debug: 4146 683 riscv-013.c:393 scan(): 41b 4i w 017d0001 @10 -> + 00000000 @10
Debug: 4147 683 riscv-013.c:404 scan():  hartsello=381 dmactive -> 
Debug: 4148 684 riscv-013.c:393 scan(): 41b 4i - 00000000 @10 -> + 017d0001 @10
Debug: 4149 684 riscv-013.c:404 scan():  ->  hartsello=381 dmactive
Debug: 4150 684 riscv-013.c:393 scan(): 41b 4i r 00000000 @11 -> + 00000000 @10
Debug: 4151 684 riscv-013.c:393 scan(): 41b 4i - 00000000 @11 -> + 00003082 @11
Debug: 4152 684 riscv-013.c:404 scan():  ->  allunavail anyunavail authenticated version=2
Debug: 4153 684 riscv-013.c:393 scan(): 41b 4i r 00000000 @10 -> + 00000000 @11
Debug: 4154 685 riscv-013.c:393 scan(): 41b 4i - 00000000 @10 -> + 017d0001 @10
Debug: 4155 685 riscv-013.c:404 scan():  ->  hartsello=381 dmactive
Debug: 4156 685 riscv-013.c:393 scan(): 41b 4i w 017e0001 @10 -> + 00000000 @10
Debug: 4157 685 riscv-013.c:404 scan():  hartsello=382 dmactive -> 
Debug: 4158 685 riscv-013.c:393 scan(): 41b 4i - 00000000 @10 -> + 017e0001 @10
Debug: 4159 685 riscv-013.c:404 scan():  ->  hartsello=382 dmactive
Debug: 4160 685 riscv-013.c:393 scan(): 41b 4i r 00000000 @11 -> + 00000000 @10
Debug: 4161 686 riscv-013.c:393 scan(): 41b 4i - 00000000 @11 -> + 00003082 @11
Debug: 4162 686 riscv-013.c:404 scan():  ->  allunavail anyunavail authenticated version=2
Debug: 4163 686 riscv-013.c:393 scan(): 41b 4i r 00000000 @10 -> + 00000000 @11
Debug: 4164 686 riscv-013.c:393 scan(): 41b 4i - 00000000 @10 -> + 017e0001 @10
Debug: 4165 686 riscv-013.c:404 scan():  ->  hartsello=382 dmactive
Debug: 4166 686 riscv-013.c:393 scan(): 41b 4i w 017f0001 @10 -> + 00000000 @10
Debug: 4167 686 riscv-013.c:404 scan():  hartsello=383 dmactive -> 
Debug: 4168 687 riscv-013.c:393 scan(): 41b 4i - 00000000 @10 -> + 017f0001 @10
Debug: 4169 687 riscv-013.c:404 scan():  ->  hartsello=383 dmactive
Debug: 4170 687 riscv-013.c:393 scan(): 41b 4i r 00000000 @11 -> + 00000000 @10
Debug: 4171 687 riscv-013.c:393 scan(): 41b 4i - 00000000 @11 -> + 00003082 @11
Debug: 4172 687 riscv-013.c:404 scan():  ->  allunavail anyunavail authenticated version=2
Debug: 4173 687 riscv-013.c:393 scan(): 41b 4i r 00000000 @10 -> + 00000000 @11
Debug: 4174 688 riscv-013.c:393 scan(): 41b 4i - 00000000 @10 -> + 017f0001 @10
Debug: 4175 688 riscv-013.c:404 scan():  ->  hartsello=383 dmactive
Debug: 4176 688 riscv-013.c:393 scan(): 41b 4i w 01800001 @10 -> + 00000000 @10
Debug: 4177 688 riscv-013.c:404 scan():  hartsello=384 dmactive -> 
Debug: 4178 688 riscv-013.c:393 scan(): 41b 4i - 00000000 @10 -> + 01800001 @10
Debug: 4179 688 riscv-013.c:404 scan():  ->  hartsello=384 dmactive
Debug: 4180 688 riscv-013.c:393 scan(): 41b 4i r 00000000 @11 -> + 00000000 @10
Debug: 4181 689 riscv-013.c:393 scan(): 41b 4i - 00000000 @11 -> + 00003082 @11
Debug: 4182 689 riscv-013.c:404 scan():  ->  allunavail anyunavail authenticated version=2
Debug: 4183 689 riscv-013.c:393 scan(): 41b 4i r 00000000 @10 -> + 00000000 @11
Debug: 4184 689 riscv-013.c:393 scan(): 41b 4i - 00000000 @10 -> + 01800001 @10
Debug: 4185 689 riscv-013.c:404 scan():  ->  hartsello=384 dmactive
Debug: 4186 690 riscv-013.c:393 scan(): 41b 4i w 01810001 @10 -> + 00000000 @10
Debug: 4187 690 riscv-013.c:404 scan():  hartsello=385 dmactive -> 
Debug: 4188 690 riscv-013.c:393 scan(): 41b 4i - 00000000 @10 -> + 01810001 @10
Debug: 4189 690 riscv-013.c:404 scan():  ->  hartsello=385 dmactive
Debug: 4190 690 riscv-013.c:393 scan(): 41b 4i r 00000000 @11 -> + 00000000 @10
Debug: 4191 691 riscv-013.c:393 scan(): 41b 4i - 00000000 @11 -> + 00003082 @11
Debug: 4192 691 riscv-013.c:404 scan():  ->  allunavail anyunavail authenticated version=2
Debug: 4193 691 riscv-013.c:393 scan(): 41b 4i r 00000000 @10 -> + 00000000 @11
Debug: 4194 691 riscv-013.c:393 scan(): 41b 4i - 00000000 @10 -> + 01810001 @10
Debug: 4195 691 riscv-013.c:404 scan():  ->  hartsello=385 dmactive
Debug: 4196 692 riscv-013.c:393 scan(): 41b 4i w 01820001 @10 -> + 00000000 @10
Debug: 4197 692 riscv-013.c:404 scan():  hartsello=386 dmactive -> 
Debug: 4198 692 riscv-013.c:393 scan(): 41b 4i - 00000000 @10 -> + 01820001 @10
Debug: 4199 692 riscv-013.c:404 scan():  ->  hartsello=386 dmactive
Debug: 4200 692 riscv-013.c:393 scan(): 41b 4i r 00000000 @11 -> + 00000000 @10
Debug: 4201 692 riscv-013.c:393 scan(): 41b 4i - 00000000 @11 -> + 00003082 @11
Debug: 4202 692 riscv-013.c:404 scan():  ->  allunavail anyunavail authenticated version=2
Debug: 4203 693 riscv-013.c:393 scan(): 41b 4i r 00000000 @10 -> + 00000000 @11
Debug: 4204 693 riscv-013.c:393 scan(): 41b 4i - 00000000 @10 -> + 01820001 @10
Debug: 4205 693 riscv-013.c:404 scan():  ->  hartsello=386 dmactive
Debug: 4206 693 riscv-013.c:393 scan(): 41b 4i w 01830001 @10 -> + 00000000 @10
Debug: 4207 693 riscv-013.c:404 scan():  hartsello=387 dmactive -> 
Debug: 4208 693 riscv-013.c:393 scan(): 41b 4i - 00000000 @10 -> + 01830001 @10
Debug: 4209 693 riscv-013.c:404 scan():  ->  hartsello=387 dmactive
Debug: 4210 694 riscv-013.c:393 scan(): 41b 4i r 00000000 @11 -> + 00000000 @10
Debug: 4211 694 riscv-013.c:393 scan(): 41b 4i - 00000000 @11 -> + 00003082 @11
Debug: 4212 694 riscv-013.c:404 scan():  ->  allunavail anyunavail authenticated version=2
Debug: 4213 694 riscv-013.c:393 scan(): 41b 4i r 00000000 @10 -> + 00000000 @11
Debug: 4214 695 riscv-013.c:393 scan(): 41b 4i - 00000000 @10 -> + 01830001 @10
Debug: 4215 695 riscv-013.c:404 scan():  ->  hartsello=387 dmactive
Debug: 4216 695 riscv-013.c:393 scan(): 41b 4i w 01840001 @10 -> + 00000000 @10
Debug: 4217 695 riscv-013.c:404 scan():  hartsello=388 dmactive -> 
Debug: 4218 695 riscv-013.c:393 scan(): 41b 4i - 00000000 @10 -> + 01840001 @10
Debug: 4219 695 riscv-013.c:404 scan():  ->  hartsello=388 dmactive
Debug: 4220 696 riscv-013.c:393 scan(): 41b 4i r 00000000 @11 -> + 00000000 @10
Debug: 4221 696 riscv-013.c:393 scan(): 41b 4i - 00000000 @11 -> + 00003082 @11
Debug: 4222 696 riscv-013.c:404 scan():  ->  allunavail anyunavail authenticated version=2
Debug: 4223 696 riscv-013.c:393 scan(): 41b 4i r 00000000 @10 -> + 00000000 @11
Debug: 4224 696 riscv-013.c:393 scan(): 41b 4i - 00000000 @10 -> + 01840001 @10
Debug: 4225 697 riscv-013.c:404 scan():  ->  hartsello=388 dmactive
Debug: 4226 697 riscv-013.c:393 scan(): 41b 4i w 01850001 @10 -> + 00000000 @10
Debug: 4227 697 riscv-013.c:404 scan():  hartsello=389 dmactive -> 
Debug: 4228 697 riscv-013.c:393 scan(): 41b 4i - 00000000 @10 -> + 01850001 @10
Debug: 4229 697 riscv-013.c:404 scan():  ->  hartsello=389 dmactive
Debug: 4230 697 riscv-013.c:393 scan(): 41b 4i r 00000000 @11 -> + 00000000 @10
Debug: 4231 698 riscv-013.c:393 scan(): 41b 4i - 00000000 @11 -> + 00003082 @11
Debug: 4232 698 riscv-013.c:404 scan():  ->  allunavail anyunavail authenticated version=2
Debug: 4233 698 riscv-013.c:393 scan(): 41b 4i r 00000000 @10 -> + 00000000 @11
Debug: 4234 698 riscv-013.c:393 scan(): 41b 4i - 00000000 @10 -> + 01850001 @10
Debug: 4235 698 riscv-013.c:404 scan():  ->  hartsello=389 dmactive
Debug: 4236 699 riscv-013.c:393 scan(): 41b 4i w 01860001 @10 -> + 00000000 @10
Debug: 4237 699 riscv-013.c:404 scan():  hartsello=390 dmactive -> 
Debug: 4238 699 riscv-013.c:393 scan(): 41b 4i - 00000000 @10 -> + 01860001 @10
Debug: 4239 699 riscv-013.c:404 scan():  ->  hartsello=390 dmactive
Debug: 4240 699 riscv-013.c:393 scan(): 41b 4i r 00000000 @11 -> + 00000000 @10
Debug: 4241 699 riscv-013.c:393 scan(): 41b 4i - 00000000 @11 -> + 00003082 @11
Debug: 4242 699 riscv-013.c:404 scan():  ->  allunavail anyunavail authenticated version=2
Debug: 4243 700 riscv-013.c:393 scan(): 41b 4i r 00000000 @10 -> + 00000000 @11
Debug: 4244 700 riscv-013.c:393 scan(): 41b 4i - 00000000 @10 -> + 01860001 @10
Debug: 4245 700 riscv-013.c:404 scan():  ->  hartsello=390 dmactive
Debug: 4246 700 riscv-013.c:393 scan(): 41b 4i w 01870001 @10 -> + 00000000 @10
Debug: 4247 700 riscv-013.c:404 scan():  hartsello=391 dmactive -> 
Debug: 4248 700 riscv-013.c:393 scan(): 41b 4i - 00000000 @10 -> + 01870001 @10
Debug: 4249 700 riscv-013.c:404 scan():  ->  hartsello=391 dmactive
Debug: 4250 701 riscv-013.c:393 scan(): 41b 4i r 00000000 @11 -> + 00000000 @10
Debug: 4251 701 riscv-013.c:393 scan(): 41b 4i - 00000000 @11 -> + 00003082 @11
Debug: 4252 701 riscv-013.c:404 scan():  ->  allunavail anyunavail authenticated version=2
Debug: 4253 701 riscv-013.c:393 scan(): 41b 4i r 00000000 @10 -> + 00000000 @11
Debug: 4254 701 riscv-013.c:393 scan(): 41b 4i - 00000000 @10 -> + 01870001 @10
Debug: 4255 701 riscv-013.c:404 scan():  ->  hartsello=391 dmactive
Debug: 4256 702 riscv-013.c:393 scan(): 41b 4i w 01880001 @10 -> + 00000000 @10
Debug: 4257 702 riscv-013.c:404 scan():  hartsello=392 dmactive -> 
Debug: 4258 702 riscv-013.c:393 scan(): 41b 4i - 00000000 @10 -> + 01880001 @10
Debug: 4259 702 riscv-013.c:404 scan():  ->  hartsello=392 dmactive
Debug: 4260 702 riscv-013.c:393 scan(): 41b 4i r 00000000 @11 -> + 00000000 @10
Debug: 4261 703 riscv-013.c:393 scan(): 41b 4i - 00000000 @11 -> + 00003082 @11
Debug: 4262 703 riscv-013.c:404 scan():  ->  allunavail anyunavail authenticated version=2
Debug: 4263 703 riscv-013.c:393 scan(): 41b 4i r 00000000 @10 -> + 00000000 @11
Debug: 4264 703 riscv-013.c:393 scan(): 41b 4i - 00000000 @10 -> + 01880001 @10
Debug: 4265 703 riscv-013.c:404 scan():  ->  hartsello=392 dmactive
Debug: 4266 704 riscv-013.c:393 scan(): 41b 4i w 01890001 @10 -> + 00000000 @10
Debug: 4267 704 riscv-013.c:404 scan():  hartsello=393 dmactive -> 
Debug: 4268 704 riscv-013.c:393 scan(): 41b 4i - 00000000 @10 -> + 01890001 @10
Debug: 4269 704 riscv-013.c:404 scan():  ->  hartsello=393 dmactive
Debug: 4270 704 riscv-013.c:393 scan(): 41b 4i r 00000000 @11 -> + 00000000 @10
Debug: 4271 704 riscv-013.c:393 scan(): 41b 4i - 00000000 @11 -> + 00003082 @11
Debug: 4272 704 riscv-013.c:404 scan():  ->  allunavail anyunavail authenticated version=2
Debug: 4273 705 riscv-013.c:393 scan(): 41b 4i r 00000000 @10 -> + 00000000 @11
Debug: 4274 705 riscv-013.c:393 scan(): 41b 4i - 00000000 @10 -> + 01890001 @10
Debug: 4275 705 riscv-013.c:404 scan():  ->  hartsello=393 dmactive
Debug: 4276 705 riscv-013.c:393 scan(): 41b 4i w 018a0001 @10 -> + 00000000 @10
Debug: 4277 705 riscv-013.c:404 scan():  hartsello=394 dmactive -> 
Debug: 4278 705 riscv-013.c:393 scan(): 41b 4i - 00000000 @10 -> + 018a0001 @10
Debug: 4279 705 riscv-013.c:404 scan():  ->  hartsello=394 dmactive
Debug: 4280 706 riscv-013.c:393 scan(): 41b 4i r 00000000 @11 -> + 00000000 @10
Debug: 4281 706 riscv-013.c:393 scan(): 41b 4i - 00000000 @11 -> + 00003082 @11
Debug: 4282 706 riscv-013.c:404 scan():  ->  allunavail anyunavail authenticated version=2
Debug: 4283 706 riscv-013.c:393 scan(): 41b 4i r 00000000 @10 -> + 00000000 @11
Debug: 4284 707 riscv-013.c:393 scan(): 41b 4i - 00000000 @10 -> + 018a0001 @10
Debug: 4285 707 riscv-013.c:404 scan():  ->  hartsello=394 dmactive
Debug: 4286 707 riscv-013.c:393 scan(): 41b 4i w 018b0001 @10 -> + 00000000 @10
Debug: 4287 707 riscv-013.c:404 scan():  hartsello=395 dmactive -> 
Debug: 4288 707 riscv-013.c:393 scan(): 41b 4i - 00000000 @10 -> + 018b0001 @10
Debug: 4289 707 riscv-013.c:404 scan():  ->  hartsello=395 dmactive
Debug: 4290 707 riscv-013.c:393 scan(): 41b 4i r 00000000 @11 -> + 00000000 @10
Debug: 4291 707 riscv-013.c:393 scan(): 41b 4i - 00000000 @11 -> + 00003082 @11
Debug: 4292 708 riscv-013.c:404 scan():  ->  allunavail anyunavail authenticated version=2
Debug: 4293 708 riscv-013.c:393 scan(): 41b 4i r 00000000 @10 -> + 00000000 @11
Debug: 4294 708 riscv-013.c:393 scan(): 41b 4i - 00000000 @10 -> + 018b0001 @10
Debug: 4295 708 riscv-013.c:404 scan():  ->  hartsello=395 dmactive
Debug: 4296 708 riscv-013.c:393 scan(): 41b 4i w 018c0001 @10 -> + 00000000 @10
Debug: 4297 708 riscv-013.c:404 scan():  hartsello=396 dmactive -> 
Debug: 4298 709 riscv-013.c:393 scan(): 41b 4i - 00000000 @10 -> + 018c0001 @10
Debug: 4299 709 riscv-013.c:404 scan():  ->  hartsello=396 dmactive
Debug: 4300 709 riscv-013.c:393 scan(): 41b 4i r 00000000 @11 -> + 00000000 @10
Debug: 4301 709 riscv-013.c:393 scan(): 41b 4i - 00000000 @11 -> + 00003082 @11
Debug: 4302 709 riscv-013.c:404 scan():  ->  allunavail anyunavail authenticated version=2
Debug: 4303 709 riscv-013.c:393 scan(): 41b 4i r 00000000 @10 -> + 00000000 @11
Debug: 4304 710 riscv-013.c:393 scan(): 41b 4i - 00000000 @10 -> + 018c0001 @10
Debug: 4305 710 riscv-013.c:404 scan():  ->  hartsello=396 dmactive
Debug: 4306 710 riscv-013.c:393 scan(): 41b 4i w 018d0001 @10 -> + 00000000 @10
Debug: 4307 710 riscv-013.c:404 scan():  hartsello=397 dmactive -> 
Debug: 4308 710 riscv-013.c:393 scan(): 41b 4i - 00000000 @10 -> + 018d0001 @10
Debug: 4309 710 riscv-013.c:404 scan():  ->  hartsello=397 dmactive
Debug: 4310 711 riscv-013.c:393 scan(): 41b 4i r 00000000 @11 -> + 00000000 @10
Debug: 4311 711 riscv-013.c:393 scan(): 41b 4i - 00000000 @11 -> + 00003082 @11
Debug: 4312 711 riscv-013.c:404 scan():  ->  allunavail anyunavail authenticated version=2
Debug: 4313 711 riscv-013.c:393 scan(): 41b 4i r 00000000 @10 -> + 00000000 @11
Debug: 4314 711 riscv-013.c:393 scan(): 41b 4i - 00000000 @10 -> + 018d0001 @10
Debug: 4315 711 riscv-013.c:404 scan():  ->  hartsello=397 dmactive
Debug: 4316 712 riscv-013.c:393 scan(): 41b 4i w 018e0001 @10 -> + 00000000 @10
Debug: 4317 712 riscv-013.c:404 scan():  hartsello=398 dmactive -> 
Debug: 4318 712 riscv-013.c:393 scan(): 41b 4i - 00000000 @10 -> + 018e0001 @10
Debug: 4319 712 riscv-013.c:404 scan():  ->  hartsello=398 dmactive
Debug: 4320 712 riscv-013.c:393 scan(): 41b 4i r 00000000 @11 -> + 00000000 @10
Debug: 4321 712 riscv-013.c:393 scan(): 41b 4i - 00000000 @11 -> + 00003082 @11
Debug: 4322 712 riscv-013.c:404 scan():  ->  allunavail anyunavail authenticated version=2
Debug: 4323 713 riscv-013.c:393 scan(): 41b 4i r 00000000 @10 -> + 00000000 @11
Debug: 4324 713 riscv-013.c:393 scan(): 41b 4i - 00000000 @10 -> + 018e0001 @10
Debug: 4325 713 riscv-013.c:404 scan():  ->  hartsello=398 dmactive
Debug: 4326 713 riscv-013.c:393 scan(): 41b 4i w 018f0001 @10 -> + 00000000 @10
Debug: 4327 713 riscv-013.c:404 scan():  hartsello=399 dmactive -> 
Debug: 4328 713 riscv-013.c:393 scan(): 41b 4i - 00000000 @10 -> + 018f0001 @10
Debug: 4329 713 riscv-013.c:404 scan():  ->  hartsello=399 dmactive
Debug: 4330 714 riscv-013.c:393 scan(): 41b 4i r 00000000 @11 -> + 00000000 @10
Debug: 4331 714 riscv-013.c:393 scan(): 41b 4i - 00000000 @11 -> + 00003082 @11
Debug: 4332 714 riscv-013.c:404 scan():  ->  allunavail anyunavail authenticated version=2
Debug: 4333 714 riscv-013.c:393 scan(): 41b 4i r 00000000 @10 -> + 00000000 @11
Debug: 4334 715 riscv-013.c:393 scan(): 41b 4i - 00000000 @10 -> + 018f0001 @10
Debug: 4335 715 riscv-013.c:404 scan():  ->  hartsello=399 dmactive
Debug: 4336 715 riscv-013.c:393 scan(): 41b 4i w 01900001 @10 -> + 00000000 @10
Debug: 4337 715 riscv-013.c:404 scan():  hartsello=400 dmactive -> 
Debug: 4338 715 riscv-013.c:393 scan(): 41b 4i - 00000000 @10 -> + 01900001 @10
Debug: 4339 715 riscv-013.c:404 scan():  ->  hartsello=400 dmactive
Debug: 4340 716 riscv-013.c:393 scan(): 41b 4i r 00000000 @11 -> + 00000000 @10
Debug: 4341 716 riscv-013.c:393 scan(): 41b 4i - 00000000 @11 -> + 00003082 @11
Debug: 4342 716 riscv-013.c:404 scan():  ->  allunavail anyunavail authenticated version=2
Debug: 4343 716 riscv-013.c:393 scan(): 41b 4i r 00000000 @10 -> + 00000000 @11
Debug: 4344 717 riscv-013.c:393 scan(): 41b 4i - 00000000 @10 -> + 01900001 @10
Debug: 4345 717 riscv-013.c:404 scan():  ->  hartsello=400 dmactive
Debug: 4346 717 riscv-013.c:393 scan(): 41b 4i w 01910001 @10 -> + 00000000 @10
Debug: 4347 717 riscv-013.c:404 scan():  hartsello=401 dmactive -> 
Debug: 4348 717 riscv-013.c:393 scan(): 41b 4i - 00000000 @10 -> + 01910001 @10
Debug: 4349 717 riscv-013.c:404 scan():  ->  hartsello=401 dmactive
Debug: 4350 717 riscv-013.c:393 scan(): 41b 4i r 00000000 @11 -> + 00000000 @10
Debug: 4351 718 riscv-013.c:393 scan(): 41b 4i - 00000000 @11 -> + 00003082 @11
Debug: 4352 718 riscv-013.c:404 scan():  ->  allunavail anyunavail authenticated version=2
Debug: 4353 718 riscv-013.c:393 scan(): 41b 4i r 00000000 @10 -> + 00000000 @11
Debug: 4354 718 riscv-013.c:393 scan(): 41b 4i - 00000000 @10 -> + 01910001 @10
Debug: 4355 718 riscv-013.c:404 scan():  ->  hartsello=401 dmactive
Debug: 4356 719 riscv-013.c:393 scan(): 41b 4i w 01920001 @10 -> + 00000000 @10
Debug: 4357 719 riscv-013.c:404 scan():  hartsello=402 dmactive -> 
Debug: 4358 719 riscv-013.c:393 scan(): 41b 4i - 00000000 @10 -> + 01920001 @10
Debug: 4359 719 riscv-013.c:404 scan():  ->  hartsello=402 dmactive
Debug: 4360 719 riscv-013.c:393 scan(): 41b 4i r 00000000 @11 -> + 00000000 @10
Debug: 4361 719 riscv-013.c:393 scan(): 41b 4i - 00000000 @11 -> + 00003082 @11
Debug: 4362 719 riscv-013.c:404 scan():  ->  allunavail anyunavail authenticated version=2
Debug: 4363 720 riscv-013.c:393 scan(): 41b 4i r 00000000 @10 -> + 00000000 @11
Debug: 4364 720 riscv-013.c:393 scan(): 41b 4i - 00000000 @10 -> + 01920001 @10
Debug: 4365 720 riscv-013.c:404 scan():  ->  hartsello=402 dmactive
Debug: 4366 720 riscv-013.c:393 scan(): 41b 4i w 01930001 @10 -> + 00000000 @10
Debug: 4367 720 riscv-013.c:404 scan():  hartsello=403 dmactive -> 
Debug: 4368 720 riscv-013.c:393 scan(): 41b 4i - 00000000 @10 -> + 01930001 @10
Debug: 4369 721 riscv-013.c:404 scan():  ->  hartsello=403 dmactive
Debug: 4370 721 riscv-013.c:393 scan(): 41b 4i r 00000000 @11 -> + 00000000 @10
Debug: 4371 721 riscv-013.c:393 scan(): 41b 4i - 00000000 @11 -> + 00003082 @11
Debug: 4372 721 riscv-013.c:404 scan():  ->  allunavail anyunavail authenticated version=2
Debug: 4373 721 riscv-013.c:393 scan(): 41b 4i r 00000000 @10 -> + 00000000 @11
Debug: 4374 721 riscv-013.c:393 scan(): 41b 4i - 00000000 @10 -> + 01930001 @10
Debug: 4375 722 riscv-013.c:404 scan():  ->  hartsello=403 dmactive
Debug: 4376 722 riscv-013.c:393 scan(): 41b 4i w 01940001 @10 -> + 00000000 @10
Debug: 4377 722 riscv-013.c:404 scan():  hartsello=404 dmactive -> 
Debug: 4378 722 riscv-013.c:393 scan(): 41b 4i - 00000000 @10 -> + 01940001 @10
Debug: 4379 722 riscv-013.c:404 scan():  ->  hartsello=404 dmactive
Debug: 4380 722 riscv-013.c:393 scan(): 41b 4i r 00000000 @11 -> + 00000000 @10
Debug: 4381 723 riscv-013.c:393 scan(): 41b 4i - 00000000 @11 -> + 00003082 @11
Debug: 4382 723 riscv-013.c:404 scan():  ->  allunavail anyunavail authenticated version=2
Debug: 4383 723 riscv-013.c:393 scan(): 41b 4i r 00000000 @10 -> + 00000000 @11
Debug: 4384 723 riscv-013.c:393 scan(): 41b 4i - 00000000 @10 -> + 01940001 @10
Debug: 4385 723 riscv-013.c:404 scan():  ->  hartsello=404 dmactive
Debug: 4386 724 riscv-013.c:393 scan(): 41b 4i w 01950001 @10 -> + 00000000 @10
Debug: 4387 724 riscv-013.c:404 scan():  hartsello=405 dmactive -> 
Debug: 4388 724 riscv-013.c:393 scan(): 41b 4i - 00000000 @10 -> + 01950001 @10
Debug: 4389 724 riscv-013.c:404 scan():  ->  hartsello=405 dmactive
Debug: 4390 724 riscv-013.c:393 scan(): 41b 4i r 00000000 @11 -> + 00000000 @10
Debug: 4391 724 riscv-013.c:393 scan(): 41b 4i - 00000000 @11 -> + 00003082 @11
Debug: 4392 724 riscv-013.c:404 scan():  ->  allunavail anyunavail authenticated version=2
Debug: 4393 725 riscv-013.c:393 scan(): 41b 4i r 00000000 @10 -> + 00000000 @11
Debug: 4394 725 riscv-013.c:393 scan(): 41b 4i - 00000000 @10 -> + 01950001 @10
Debug: 4395 725 riscv-013.c:404 scan():  ->  hartsello=405 dmactive
Debug: 4396 725 riscv-013.c:393 scan(): 41b 4i w 01960001 @10 -> + 00000000 @10
Debug: 4397 725 riscv-013.c:404 scan():  hartsello=406 dmactive -> 
Debug: 4398 725 riscv-013.c:393 scan(): 41b 4i - 00000000 @10 -> + 01960001 @10
Debug: 4399 725 riscv-013.c:404 scan():  ->  hartsello=406 dmactive
Debug: 4400 726 riscv-013.c:393 scan(): 41b 4i r 00000000 @11 -> + 00000000 @10
Debug: 4401 726 riscv-013.c:393 scan(): 41b 4i - 00000000 @11 -> + 00003082 @11
Debug: 4402 726 riscv-013.c:404 scan():  ->  allunavail anyunavail authenticated version=2
Debug: 4403 726 riscv-013.c:393 scan(): 41b 4i r 00000000 @10 -> + 00000000 @11
Debug: 4404 727 riscv-013.c:393 scan(): 41b 4i - 00000000 @10 -> + 01960001 @10
Debug: 4405 727 riscv-013.c:404 scan():  ->  hartsello=406 dmactive
Debug: 4406 727 riscv-013.c:393 scan(): 41b 4i w 01970001 @10 -> + 00000000 @10
Debug: 4407 727 riscv-013.c:404 scan():  hartsello=407 dmactive -> 
Debug: 4408 727 riscv-013.c:393 scan(): 41b 4i - 00000000 @10 -> + 01970001 @10
Debug: 4409 727 riscv-013.c:404 scan():  ->  hartsello=407 dmactive
Debug: 4410 728 riscv-013.c:393 scan(): 41b 4i r 00000000 @11 -> + 00000000 @10
Debug: 4411 728 riscv-013.c:393 scan(): 41b 4i - 00000000 @11 -> + 00003082 @11
Debug: 4412 728 riscv-013.c:404 scan():  ->  allunavail anyunavail authenticated version=2
Debug: 4413 728 riscv-013.c:393 scan(): 41b 4i r 00000000 @10 -> + 00000000 @11
Debug: 4414 728 riscv-013.c:393 scan(): 41b 4i - 00000000 @10 -> + 01970001 @10
Debug: 4415 728 riscv-013.c:404 scan():  ->  hartsello=407 dmactive
Debug: 4416 729 riscv-013.c:393 scan(): 41b 4i w 01980001 @10 -> + 00000000 @10
Debug: 4417 729 riscv-013.c:404 scan():  hartsello=408 dmactive -> 
Debug: 4418 729 riscv-013.c:393 scan(): 41b 4i - 00000000 @10 -> + 01980001 @10
Debug: 4419 729 riscv-013.c:404 scan():  ->  hartsello=408 dmactive
Debug: 4420 729 riscv-013.c:393 scan(): 41b 4i r 00000000 @11 -> + 00000000 @10
Debug: 4421 729 riscv-013.c:393 scan(): 41b 4i - 00000000 @11 -> + 00003082 @11
Debug: 4422 729 riscv-013.c:404 scan():  ->  allunavail anyunavail authenticated version=2
Debug: 4423 730 riscv-013.c:393 scan(): 41b 4i r 00000000 @10 -> + 00000000 @11
Debug: 4424 730 riscv-013.c:393 scan(): 41b 4i - 00000000 @10 -> + 01980001 @10
Debug: 4425 730 riscv-013.c:404 scan():  ->  hartsello=408 dmactive
Debug: 4426 730 riscv-013.c:393 scan(): 41b 4i w 01990001 @10 -> + 00000000 @10
Debug: 4427 730 riscv-013.c:404 scan():  hartsello=409 dmactive -> 
Debug: 4428 730 riscv-013.c:393 scan(): 41b 4i - 00000000 @10 -> + 01990001 @10
Debug: 4429 730 riscv-013.c:404 scan():  ->  hartsello=409 dmactive
Debug: 4430 731 riscv-013.c:393 scan(): 41b 4i r 00000000 @11 -> + 00000000 @10
Debug: 4431 731 riscv-013.c:393 scan(): 41b 4i - 00000000 @11 -> + 00003082 @11
Debug: 4432 731 riscv-013.c:404 scan():  ->  allunavail anyunavail authenticated version=2
Debug: 4433 731 riscv-013.c:393 scan(): 41b 4i r 00000000 @10 -> + 00000000 @11
Debug: 4434 731 riscv-013.c:393 scan(): 41b 4i - 00000000 @10 -> + 01990001 @10
Debug: 4435 731 riscv-013.c:404 scan():  ->  hartsello=409 dmactive
Debug: 4436 732 riscv-013.c:393 scan(): 41b 4i w 019a0001 @10 -> + 00000000 @10
Debug: 4437 732 riscv-013.c:404 scan():  hartsello=410 dmactive -> 
Debug: 4438 732 riscv-013.c:393 scan(): 41b 4i - 00000000 @10 -> + 019a0001 @10
Debug: 4439 732 riscv-013.c:404 scan():  ->  hartsello=410 dmactive
Debug: 4440 732 riscv-013.c:393 scan(): 41b 4i r 00000000 @11 -> + 00000000 @10
Debug: 4441 733 riscv-013.c:393 scan(): 41b 4i - 00000000 @11 -> + 00003082 @11
Debug: 4442 733 riscv-013.c:404 scan():  ->  allunavail anyunavail authenticated version=2
Debug: 4443 733 riscv-013.c:393 scan(): 41b 4i r 00000000 @10 -> + 00000000 @11
Debug: 4444 733 riscv-013.c:393 scan(): 41b 4i - 00000000 @10 -> + 019a0001 @10
Debug: 4445 733 riscv-013.c:404 scan():  ->  hartsello=410 dmactive
Debug: 4446 733 riscv-013.c:393 scan(): 41b 4i w 019b0001 @10 -> + 00000000 @10
Debug: 4447 733 riscv-013.c:404 scan():  hartsello=411 dmactive -> 
Debug: 4448 734 riscv-013.c:393 scan(): 41b 4i - 00000000 @10 -> + 019b0001 @10
Debug: 4449 734 riscv-013.c:404 scan():  ->  hartsello=411 dmactive
Debug: 4450 734 riscv-013.c:393 scan(): 41b 4i r 00000000 @11 -> + 00000000 @10
Debug: 4451 734 riscv-013.c:393 scan(): 41b 4i - 00000000 @11 -> + 00003082 @11
Debug: 4452 734 riscv-013.c:404 scan():  ->  allunavail anyunavail authenticated version=2
Debug: 4453 734 riscv-013.c:393 scan(): 41b 4i r 00000000 @10 -> + 00000000 @11
Debug: 4454 735 riscv-013.c:393 scan(): 41b 4i - 00000000 @10 -> + 019b0001 @10
Debug: 4455 735 riscv-013.c:404 scan():  ->  hartsello=411 dmactive
Debug: 4456 735 riscv-013.c:393 scan(): 41b 4i w 019c0001 @10 -> + 00000000 @10
Debug: 4457 735 riscv-013.c:404 scan():  hartsello=412 dmactive -> 
Debug: 4458 735 riscv-013.c:393 scan(): 41b 4i - 00000000 @10 -> + 019c0001 @10
Debug: 4459 735 riscv-013.c:404 scan():  ->  hartsello=412 dmactive
Debug: 4460 736 riscv-013.c:393 scan(): 41b 4i r 00000000 @11 -> + 00000000 @10
Debug: 4461 736 riscv-013.c:393 scan(): 41b 4i - 00000000 @11 -> + 00003082 @11
Debug: 4462 736 riscv-013.c:404 scan():  ->  allunavail anyunavail authenticated version=2
Debug: 4463 736 riscv-013.c:393 scan(): 41b 4i r 00000000 @10 -> + 00000000 @11
Debug: 4464 737 riscv-013.c:393 scan(): 41b 4i - 00000000 @10 -> + 019c0001 @10
Debug: 4465 737 riscv-013.c:404 scan():  ->  hartsello=412 dmactive
Debug: 4466 737 riscv-013.c:393 scan(): 41b 4i w 019d0001 @10 -> + 00000000 @10
Debug: 4467 737 riscv-013.c:404 scan():  hartsello=413 dmactive -> 
Debug: 4468 737 riscv-013.c:393 scan(): 41b 4i - 00000000 @10 -> + 019d0001 @10
Debug: 4469 737 riscv-013.c:404 scan():  ->  hartsello=413 dmactive
Debug: 4470 738 riscv-013.c:393 scan(): 41b 4i r 00000000 @11 -> + 00000000 @10
Debug: 4471 738 riscv-013.c:393 scan(): 41b 4i - 00000000 @11 -> + 00003082 @11
Debug: 4472 738 riscv-013.c:404 scan():  ->  allunavail anyunavail authenticated version=2
Debug: 4473 738 riscv-013.c:393 scan(): 41b 4i r 00000000 @10 -> + 00000000 @11
Debug: 4474 738 riscv-013.c:393 scan(): 41b 4i - 00000000 @10 -> + 019d0001 @10
Debug: 4475 738 riscv-013.c:404 scan():  ->  hartsello=413 dmactive
Debug: 4476 739 riscv-013.c:393 scan(): 41b 4i w 019e0001 @10 -> + 00000000 @10
Debug: 4477 739 riscv-013.c:404 scan():  hartsello=414 dmactive -> 
Debug: 4478 739 riscv-013.c:393 scan(): 41b 4i - 00000000 @10 -> + 019e0001 @10
Debug: 4479 739 riscv-013.c:404 scan():  ->  hartsello=414 dmactive
Debug: 4480 739 riscv-013.c:393 scan(): 41b 4i r 00000000 @11 -> + 00000000 @10
Debug: 4481 740 riscv-013.c:393 scan(): 41b 4i - 00000000 @11 -> + 00003082 @11
Debug: 4482 740 riscv-013.c:404 scan():  ->  allunavail anyunavail authenticated version=2
Debug: 4483 740 riscv-013.c:393 scan(): 41b 4i r 00000000 @10 -> + 00000000 @11
Debug: 4484 740 riscv-013.c:393 scan(): 41b 4i - 00000000 @10 -> + 019e0001 @10
Debug: 4485 740 riscv-013.c:404 scan():  ->  hartsello=414 dmactive
Debug: 4486 741 riscv-013.c:393 scan(): 41b 4i w 019f0001 @10 -> + 00000000 @10
Debug: 4487 741 riscv-013.c:404 scan():  hartsello=415 dmactive -> 
Debug: 4488 741 riscv-013.c:393 scan(): 41b 4i - 00000000 @10 -> + 019f0001 @10
Debug: 4489 741 riscv-013.c:404 scan():  ->  hartsello=415 dmactive
Debug: 4490 741 riscv-013.c:393 scan(): 41b 4i r 00000000 @11 -> + 00000000 @10
Debug: 4491 741 riscv-013.c:393 scan(): 41b 4i - 00000000 @11 -> + 00003082 @11
Debug: 4492 741 riscv-013.c:404 scan():  ->  allunavail anyunavail authenticated version=2
Debug: 4493 742 riscv-013.c:393 scan(): 41b 4i r 00000000 @10 -> + 00000000 @11
Debug: 4494 742 riscv-013.c:393 scan(): 41b 4i - 00000000 @10 -> + 019f0001 @10
Debug: 4495 742 riscv-013.c:404 scan():  ->  hartsello=415 dmactive
Debug: 4496 742 riscv-013.c:393 scan(): 41b 4i w 01a00001 @10 -> + 00000000 @10
Debug: 4497 742 riscv-013.c:404 scan():  hartsello=416 dmactive -> 
Debug: 4498 742 riscv-013.c:393 scan(): 41b 4i - 00000000 @10 -> + 01a00001 @10
Debug: 4499 742 riscv-013.c:404 scan():  ->  hartsello=416 dmactive
Debug: 4500 743 riscv-013.c:393 scan(): 41b 4i r 00000000 @11 -> + 00000000 @10
Debug: 4501 743 riscv-013.c:393 scan(): 41b 4i - 00000000 @11 -> + 00003082 @11
Debug: 4502 743 riscv-013.c:404 scan():  ->  allunavail anyunavail authenticated version=2
Debug: 4503 743 riscv-013.c:393 scan(): 41b 4i r 00000000 @10 -> + 00000000 @11
Debug: 4504 744 riscv-013.c:393 scan(): 41b 4i - 00000000 @10 -> + 01a00001 @10
Debug: 4505 744 riscv-013.c:404 scan():  ->  hartsello=416 dmactive
Debug: 4506 744 riscv-013.c:393 scan(): 41b 4i w 01a10001 @10 -> + 00000000 @10
Debug: 4507 744 riscv-013.c:404 scan():  hartsello=417 dmactive -> 
Debug: 4508 744 riscv-013.c:393 scan(): 41b 4i - 00000000 @10 -> + 01a10001 @10
Debug: 4509 744 riscv-013.c:404 scan():  ->  hartsello=417 dmactive
Debug: 4510 745 riscv-013.c:393 scan(): 41b 4i r 00000000 @11 -> + 00000000 @10
Debug: 4511 745 riscv-013.c:393 scan(): 41b 4i - 00000000 @11 -> + 00003082 @11
Debug: 4512 745 riscv-013.c:404 scan():  ->  allunavail anyunavail authenticated version=2
Debug: 4513 745 riscv-013.c:393 scan(): 41b 4i r 00000000 @10 -> + 00000000 @11
Debug: 4514 745 riscv-013.c:393 scan(): 41b 4i - 00000000 @10 -> + 01a10001 @10
Debug: 4515 745 riscv-013.c:404 scan():  ->  hartsello=417 dmactive
Debug: 4516 746 riscv-013.c:393 scan(): 41b 4i w 01a20001 @10 -> + 00000000 @10
Debug: 4517 746 riscv-013.c:404 scan():  hartsello=418 dmactive -> 
Debug: 4518 746 riscv-013.c:393 scan(): 41b 4i - 00000000 @10 -> + 01a20001 @10
Debug: 4519 746 riscv-013.c:404 scan():  ->  hartsello=418 dmactive
Debug: 4520 746 riscv-013.c:393 scan(): 41b 4i r 00000000 @11 -> + 00000000 @10
Debug: 4521 747 riscv-013.c:393 scan(): 41b 4i - 00000000 @11 -> + 00003082 @11
Debug: 4522 747 riscv-013.c:404 scan():  ->  allunavail anyunavail authenticated version=2
Debug: 4523 747 riscv-013.c:393 scan(): 41b 4i r 00000000 @10 -> + 00000000 @11
Debug: 4524 747 riscv-013.c:393 scan(): 41b 4i - 00000000 @10 -> + 01a20001 @10
Debug: 4525 747 riscv-013.c:404 scan():  ->  hartsello=418 dmactive
Debug: 4526 747 riscv-013.c:393 scan(): 41b 4i w 01a30001 @10 -> + 00000000 @10
Debug: 4527 747 riscv-013.c:404 scan():  hartsello=419 dmactive -> 
Debug: 4528 748 riscv-013.c:393 scan(): 41b 4i - 00000000 @10 -> + 01a30001 @10
Debug: 4529 748 riscv-013.c:404 scan():  ->  hartsello=419 dmactive
Debug: 4530 748 riscv-013.c:393 scan(): 41b 4i r 00000000 @11 -> + 00000000 @10
Debug: 4531 748 riscv-013.c:393 scan(): 41b 4i - 00000000 @11 -> + 00003082 @11
Debug: 4532 748 riscv-013.c:404 scan():  ->  allunavail anyunavail authenticated version=2
Debug: 4533 748 riscv-013.c:393 scan(): 41b 4i r 00000000 @10 -> + 00000000 @11
Debug: 4534 749 riscv-013.c:393 scan(): 41b 4i - 00000000 @10 -> + 01a30001 @10
Debug: 4535 749 riscv-013.c:404 scan():  ->  hartsello=419 dmactive
Debug: 4536 749 riscv-013.c:393 scan(): 41b 4i w 01a40001 @10 -> + 00000000 @10
Debug: 4537 749 riscv-013.c:404 scan():  hartsello=420 dmactive -> 
Debug: 4538 749 riscv-013.c:393 scan(): 41b 4i - 00000000 @10 -> + 01a40001 @10
Debug: 4539 749 riscv-013.c:404 scan():  ->  hartsello=420 dmactive
Debug: 4540 750 riscv-013.c:393 scan(): 41b 4i r 00000000 @11 -> + 00000000 @10
Debug: 4541 750 riscv-013.c:393 scan(): 41b 4i - 00000000 @11 -> + 00003082 @11
Debug: 4542 750 riscv-013.c:404 scan():  ->  allunavail anyunavail authenticated version=2
Debug: 4543 750 riscv-013.c:393 scan(): 41b 4i r 00000000 @10 -> + 00000000 @11
Debug: 4544 750 riscv-013.c:393 scan(): 41b 4i - 00000000 @10 -> + 01a40001 @10
Debug: 4545 750 riscv-013.c:404 scan():  ->  hartsello=420 dmactive
Debug: 4546 751 riscv-013.c:393 scan(): 41b 4i w 01a50001 @10 -> + 00000000 @10
Debug: 4547 751 riscv-013.c:404 scan():  hartsello=421 dmactive -> 
Debug: 4548 751 riscv-013.c:393 scan(): 41b 4i - 00000000 @10 -> + 01a50001 @10
Debug: 4549 751 riscv-013.c:404 scan():  ->  hartsello=421 dmactive
Debug: 4550 751 riscv-013.c:393 scan(): 41b 4i r 00000000 @11 -> + 00000000 @10
Debug: 4551 752 riscv-013.c:393 scan(): 41b 4i - 00000000 @11 -> + 00003082 @11
Debug: 4552 752 riscv-013.c:404 scan():  ->  allunavail anyunavail authenticated version=2
Debug: 4553 752 riscv-013.c:393 scan(): 41b 4i r 00000000 @10 -> + 00000000 @11
Debug: 4554 752 riscv-013.c:393 scan(): 41b 4i - 00000000 @10 -> + 01a50001 @10
Debug: 4555 752 riscv-013.c:404 scan():  ->  hartsello=421 dmactive
Debug: 4556 752 riscv-013.c:393 scan(): 41b 4i w 01a60001 @10 -> + 00000000 @10
Debug: 4557 752 riscv-013.c:404 scan():  hartsello=422 dmactive -> 
Debug: 4558 753 riscv-013.c:393 scan(): 41b 4i - 00000000 @10 -> + 01a60001 @10
Debug: 4559 753 riscv-013.c:404 scan():  ->  hartsello=422 dmactive
Debug: 4560 753 riscv-013.c:393 scan(): 41b 4i r 00000000 @11 -> + 00000000 @10
Debug: 4561 753 riscv-013.c:393 scan(): 41b 4i - 00000000 @11 -> + 00003082 @11
Debug: 4562 753 riscv-013.c:404 scan():  ->  allunavail anyunavail authenticated version=2
Debug: 4563 754 riscv-013.c:393 scan(): 41b 4i r 00000000 @10 -> + 00000000 @11
Debug: 4564 754 riscv-013.c:393 scan(): 41b 4i - 00000000 @10 -> + 01a60001 @10
Debug: 4565 754 riscv-013.c:404 scan():  ->  hartsello=422 dmactive
Debug: 4566 754 riscv-013.c:393 scan(): 41b 4i w 01a70001 @10 -> + 00000000 @10
Debug: 4567 754 riscv-013.c:404 scan():  hartsello=423 dmactive -> 
Debug: 4568 754 riscv-013.c:393 scan(): 41b 4i - 00000000 @10 -> + 01a70001 @10
Debug: 4569 754 riscv-013.c:404 scan():  ->  hartsello=423 dmactive
Debug: 4570 755 riscv-013.c:393 scan(): 41b 4i r 00000000 @11 -> + 00000000 @10
Debug: 4571 755 riscv-013.c:393 scan(): 41b 4i - 00000000 @11 -> + 00003082 @11
Debug: 4572 755 riscv-013.c:404 scan():  ->  allunavail anyunavail authenticated version=2
Debug: 4573 755 riscv-013.c:393 scan(): 41b 4i r 00000000 @10 -> + 00000000 @11
Debug: 4574 756 riscv-013.c:393 scan(): 41b 4i - 00000000 @10 -> + 01a70001 @10
Debug: 4575 756 riscv-013.c:404 scan():  ->  hartsello=423 dmactive
Debug: 4576 756 riscv-013.c:393 scan(): 41b 4i w 01a80001 @10 -> + 00000000 @10
Debug: 4577 756 riscv-013.c:404 scan():  hartsello=424 dmactive -> 
Debug: 4578 756 riscv-013.c:393 scan(): 41b 4i - 00000000 @10 -> + 01a80001 @10
Debug: 4579 756 riscv-013.c:404 scan():  ->  hartsello=424 dmactive
Debug: 4580 757 riscv-013.c:393 scan(): 41b 4i r 00000000 @11 -> + 00000000 @10
Debug: 4581 757 riscv-013.c:393 scan(): 41b 4i - 00000000 @11 -> + 00003082 @11
Debug: 4582 757 riscv-013.c:404 scan():  ->  allunavail anyunavail authenticated version=2
Debug: 4583 757 riscv-013.c:393 scan(): 41b 4i r 00000000 @10 -> + 00000000 @11
Debug: 4584 758 riscv-013.c:393 scan(): 41b 4i - 00000000 @10 -> + 01a80001 @10
Debug: 4585 758 riscv-013.c:404 scan():  ->  hartsello=424 dmactive
Debug: 4586 758 riscv-013.c:393 scan(): 41b 4i w 01a90001 @10 -> + 00000000 @10
Debug: 4587 758 riscv-013.c:404 scan():  hartsello=425 dmactive -> 
Debug: 4588 758 riscv-013.c:393 scan(): 41b 4i - 00000000 @10 -> + 01a90001 @10
Debug: 4589 758 riscv-013.c:404 scan():  ->  hartsello=425 dmactive
Debug: 4590 759 riscv-013.c:393 scan(): 41b 4i r 00000000 @11 -> + 00000000 @10
Debug: 4591 759 riscv-013.c:393 scan(): 41b 4i - 00000000 @11 -> + 00003082 @11
Debug: 4592 759 riscv-013.c:404 scan():  ->  allunavail anyunavail authenticated version=2
Debug: 4593 759 riscv-013.c:393 scan(): 41b 4i r 00000000 @10 -> + 00000000 @11
Debug: 4594 760 riscv-013.c:393 scan(): 41b 4i - 00000000 @10 -> + 01a90001 @10
Debug: 4595 760 riscv-013.c:404 scan():  ->  hartsello=425 dmactive
Debug: 4596 760 riscv-013.c:393 scan(): 41b 4i w 01aa0001 @10 -> + 00000000 @10
Debug: 4597 760 riscv-013.c:404 scan():  hartsello=426 dmactive -> 
Debug: 4598 760 riscv-013.c:393 scan(): 41b 4i - 00000000 @10 -> + 01aa0001 @10
Debug: 4599 760 riscv-013.c:404 scan():  ->  hartsello=426 dmactive
Debug: 4600 761 riscv-013.c:393 scan(): 41b 4i r 00000000 @11 -> + 00000000 @10
Debug: 4601 761 riscv-013.c:393 scan(): 41b 4i - 00000000 @11 -> + 00003082 @11
Debug: 4602 761 riscv-013.c:404 scan():  ->  allunavail anyunavail authenticated version=2
Debug: 4603 761 riscv-013.c:393 scan(): 41b 4i r 00000000 @10 -> + 00000000 @11
Debug: 4604 762 riscv-013.c:393 scan(): 41b 4i - 00000000 @10 -> + 01aa0001 @10
Debug: 4605 762 riscv-013.c:404 scan():  ->  hartsello=426 dmactive
Debug: 4606 762 riscv-013.c:393 scan(): 41b 4i w 01ab0001 @10 -> + 00000000 @10
Debug: 4607 762 riscv-013.c:404 scan():  hartsello=427 dmactive -> 
Debug: 4608 762 riscv-013.c:393 scan(): 41b 4i - 00000000 @10 -> + 01ab0001 @10
Debug: 4609 762 riscv-013.c:404 scan():  ->  hartsello=427 dmactive
Debug: 4610 763 riscv-013.c:393 scan(): 41b 4i r 00000000 @11 -> + 00000000 @10
Debug: 4611 763 riscv-013.c:393 scan(): 41b 4i - 00000000 @11 -> + 00003082 @11
Debug: 4612 763 riscv-013.c:404 scan():  ->  allunavail anyunavail authenticated version=2
Debug: 4613 763 riscv-013.c:393 scan(): 41b 4i r 00000000 @10 -> + 00000000 @11
Debug: 4614 763 riscv-013.c:393 scan(): 41b 4i - 00000000 @10 -> + 01ab0001 @10
Debug: 4615 764 riscv-013.c:404 scan():  ->  hartsello=427 dmactive
Debug: 4616 764 riscv-013.c:393 scan(): 41b 4i w 01ac0001 @10 -> + 00000000 @10
Debug: 4617 764 riscv-013.c:404 scan():  hartsello=428 dmactive -> 
Debug: 4618 764 riscv-013.c:393 scan(): 41b 4i - 00000000 @10 -> + 01ac0001 @10
Debug: 4619 764 riscv-013.c:404 scan():  ->  hartsello=428 dmactive
Debug: 4620 764 riscv-013.c:393 scan(): 41b 4i r 00000000 @11 -> + 00000000 @10
Debug: 4621 765 riscv-013.c:393 scan(): 41b 4i - 00000000 @11 -> + 00003082 @11
Debug: 4622 765 riscv-013.c:404 scan():  ->  allunavail anyunavail authenticated version=2
Debug: 4623 765 riscv-013.c:393 scan(): 41b 4i r 00000000 @10 -> + 00000000 @11
Debug: 4624 765 riscv-013.c:393 scan(): 41b 4i - 00000000 @10 -> + 01ac0001 @10
Debug: 4625 765 riscv-013.c:404 scan():  ->  hartsello=428 dmactive
Debug: 4626 765 riscv-013.c:393 scan(): 41b 4i w 01ad0001 @10 -> + 00000000 @10
Debug: 4627 765 riscv-013.c:404 scan():  hartsello=429 dmactive -> 
Debug: 4628 766 riscv-013.c:393 scan(): 41b 4i - 00000000 @10 -> + 01ad0001 @10
Debug: 4629 766 riscv-013.c:404 scan():  ->  hartsello=429 dmactive
Debug: 4630 766 riscv-013.c:393 scan(): 41b 4i r 00000000 @11 -> + 00000000 @10
Debug: 4631 766 riscv-013.c:393 scan(): 41b 4i - 00000000 @11 -> + 00003082 @11
Debug: 4632 766 riscv-013.c:404 scan():  ->  allunavail anyunavail authenticated version=2
Debug: 4633 767 riscv-013.c:393 scan(): 41b 4i r 00000000 @10 -> + 00000000 @11
Debug: 4634 767 riscv-013.c:393 scan(): 41b 4i - 00000000 @10 -> + 01ad0001 @10
Debug: 4635 767 riscv-013.c:404 scan():  ->  hartsello=429 dmactive
Debug: 4636 767 riscv-013.c:393 scan(): 41b 4i w 01ae0001 @10 -> + 00000000 @10
Debug: 4637 767 riscv-013.c:404 scan():  hartsello=430 dmactive -> 
Debug: 4638 767 riscv-013.c:393 scan(): 41b 4i - 00000000 @10 -> + 01ae0001 @10
Debug: 4639 767 riscv-013.c:404 scan():  ->  hartsello=430 dmactive
Debug: 4640 768 riscv-013.c:393 scan(): 41b 4i r 00000000 @11 -> + 00000000 @10
Debug: 4641 768 riscv-013.c:393 scan(): 41b 4i - 00000000 @11 -> + 00003082 @11
Debug: 4642 768 riscv-013.c:404 scan():  ->  allunavail anyunavail authenticated version=2
Debug: 4643 768 riscv-013.c:393 scan(): 41b 4i r 00000000 @10 -> + 00000000 @11
Debug: 4644 768 riscv-013.c:393 scan(): 41b 4i - 00000000 @10 -> + 01ae0001 @10
Debug: 4645 768 riscv-013.c:404 scan():  ->  hartsello=430 dmactive
Debug: 4646 769 riscv-013.c:393 scan(): 41b 4i w 01af0001 @10 -> + 00000000 @10
Debug: 4647 769 riscv-013.c:404 scan():  hartsello=431 dmactive -> 
Debug: 4648 769 riscv-013.c:393 scan(): 41b 4i - 00000000 @10 -> + 01af0001 @10
Debug: 4649 769 riscv-013.c:404 scan():  ->  hartsello=431 dmactive
Debug: 4650 769 riscv-013.c:393 scan(): 41b 4i r 00000000 @11 -> + 00000000 @10
Debug: 4651 769 riscv-013.c:393 scan(): 41b 4i - 00000000 @11 -> + 00003082 @11
Debug: 4652 769 riscv-013.c:404 scan():  ->  allunavail anyunavail authenticated version=2
Debug: 4653 770 riscv-013.c:393 scan(): 41b 4i r 00000000 @10 -> + 00000000 @11
Debug: 4654 770 riscv-013.c:393 scan(): 41b 4i - 00000000 @10 -> + 01af0001 @10
Debug: 4655 770 riscv-013.c:404 scan():  ->  hartsello=431 dmactive
Debug: 4656 770 riscv-013.c:393 scan(): 41b 4i w 01b00001 @10 -> + 00000000 @10
Debug: 4657 770 riscv-013.c:404 scan():  hartsello=432 dmactive -> 
Debug: 4658 771 riscv-013.c:393 scan(): 41b 4i - 00000000 @10 -> + 01b00001 @10
Debug: 4659 771 riscv-013.c:404 scan():  ->  hartsello=432 dmactive
Debug: 4660 771 riscv-013.c:393 scan(): 41b 4i r 00000000 @11 -> + 00000000 @10
Debug: 4661 771 riscv-013.c:393 scan(): 41b 4i - 00000000 @11 -> + 00003082 @11
Debug: 4662 771 riscv-013.c:404 scan():  ->  allunavail anyunavail authenticated version=2
Debug: 4663 772 riscv-013.c:393 scan(): 41b 4i r 00000000 @10 -> + 00000000 @11
Debug: 4664 772 riscv-013.c:393 scan(): 41b 4i - 00000000 @10 -> + 01b00001 @10
Debug: 4665 772 riscv-013.c:404 scan():  ->  hartsello=432 dmactive
Debug: 4666 772 riscv-013.c:393 scan(): 41b 4i w 01b10001 @10 -> + 00000000 @10
Debug: 4667 772 riscv-013.c:404 scan():  hartsello=433 dmactive -> 
Debug: 4668 772 riscv-013.c:393 scan(): 41b 4i - 00000000 @10 -> + 01b10001 @10
Debug: 4669 772 riscv-013.c:404 scan():  ->  hartsello=433 dmactive
Debug: 4670 773 riscv-013.c:393 scan(): 41b 4i r 00000000 @11 -> + 00000000 @10
Debug: 4671 773 riscv-013.c:393 scan(): 41b 4i - 00000000 @11 -> + 00003082 @11
Debug: 4672 773 riscv-013.c:404 scan():  ->  allunavail anyunavail authenticated version=2
Debug: 4673 773 riscv-013.c:393 scan(): 41b 4i r 00000000 @10 -> + 00000000 @11
Debug: 4674 773 riscv-013.c:393 scan(): 41b 4i - 00000000 @10 -> + 01b10001 @10
Debug: 4675 773 riscv-013.c:404 scan():  ->  hartsello=433 dmactive
Debug: 4676 774 riscv-013.c:393 scan(): 41b 4i w 01b20001 @10 -> + 00000000 @10
Debug: 4677 774 riscv-013.c:404 scan():  hartsello=434 dmactive -> 
Debug: 4678 774 riscv-013.c:393 scan(): 41b 4i - 00000000 @10 -> + 01b20001 @10
Debug: 4679 774 riscv-013.c:404 scan():  ->  hartsello=434 dmactive
Debug: 4680 774 riscv-013.c:393 scan(): 41b 4i r 00000000 @11 -> + 00000000 @10
Debug: 4681 775 riscv-013.c:393 scan(): 41b 4i - 00000000 @11 -> + 00003082 @11
Debug: 4682 775 riscv-013.c:404 scan():  ->  allunavail anyunavail authenticated version=2
Debug: 4683 775 riscv-013.c:393 scan(): 41b 4i r 00000000 @10 -> + 00000000 @11
Debug: 4684 775 riscv-013.c:393 scan(): 41b 4i - 00000000 @10 -> + 01b20001 @10
Debug: 4685 775 riscv-013.c:404 scan():  ->  hartsello=434 dmactive
Debug: 4686 776 riscv-013.c:393 scan(): 41b 4i w 01b30001 @10 -> + 00000000 @10
Debug: 4687 776 riscv-013.c:404 scan():  hartsello=435 dmactive -> 
Debug: 4688 776 riscv-013.c:393 scan(): 41b 4i - 00000000 @10 -> + 01b30001 @10
Debug: 4689 776 riscv-013.c:404 scan():  ->  hartsello=435 dmactive
Debug: 4690 776 riscv-013.c:393 scan(): 41b 4i r 00000000 @11 -> + 00000000 @10
Debug: 4691 777 riscv-013.c:393 scan(): 41b 4i - 00000000 @11 -> + 00003082 @11
Debug: 4692 777 riscv-013.c:404 scan():  ->  allunavail anyunavail authenticated version=2
Debug: 4693 777 riscv-013.c:393 scan(): 41b 4i r 00000000 @10 -> + 00000000 @11
Debug: 4694 777 riscv-013.c:393 scan(): 41b 4i - 00000000 @10 -> + 01b30001 @10
Debug: 4695 777 riscv-013.c:404 scan():  ->  hartsello=435 dmactive
Debug: 4696 777 riscv-013.c:393 scan(): 41b 4i w 01b40001 @10 -> + 00000000 @10
Debug: 4697 777 riscv-013.c:404 scan():  hartsello=436 dmactive -> 
Debug: 4698 778 riscv-013.c:393 scan(): 41b 4i - 00000000 @10 -> + 01b40001 @10
Debug: 4699 778 riscv-013.c:404 scan():  ->  hartsello=436 dmactive
Debug: 4700 778 riscv-013.c:393 scan(): 41b 4i r 00000000 @11 -> + 00000000 @10
Debug: 4701 778 riscv-013.c:393 scan(): 41b 4i - 00000000 @11 -> + 00003082 @11
Debug: 4702 778 riscv-013.c:404 scan():  ->  allunavail anyunavail authenticated version=2
Debug: 4703 779 riscv-013.c:393 scan(): 41b 4i r 00000000 @10 -> + 00000000 @11
Debug: 4704 779 riscv-013.c:393 scan(): 41b 4i - 00000000 @10 -> + 01b40001 @10
Debug: 4705 779 riscv-013.c:404 scan():  ->  hartsello=436 dmactive
Debug: 4706 779 riscv-013.c:393 scan(): 41b 4i w 01b50001 @10 -> + 00000000 @10
Debug: 4707 779 riscv-013.c:404 scan():  hartsello=437 dmactive -> 
Debug: 4708 779 riscv-013.c:393 scan(): 41b 4i - 00000000 @10 -> + 01b50001 @10
Debug: 4709 779 riscv-013.c:404 scan():  ->  hartsello=437 dmactive
Debug: 4710 780 riscv-013.c:393 scan(): 41b 4i r 00000000 @11 -> + 00000000 @10
Debug: 4711 780 riscv-013.c:393 scan(): 41b 4i - 00000000 @11 -> + 00003082 @11
Debug: 4712 780 riscv-013.c:404 scan():  ->  allunavail anyunavail authenticated version=2
Debug: 4713 780 riscv-013.c:393 scan(): 41b 4i r 00000000 @10 -> + 00000000 @11
Debug: 4714 781 riscv-013.c:393 scan(): 41b 4i - 00000000 @10 -> + 01b50001 @10
Debug: 4715 781 riscv-013.c:404 scan():  ->  hartsello=437 dmactive
Debug: 4716 781 riscv-013.c:393 scan(): 41b 4i w 01b60001 @10 -> + 00000000 @10
Debug: 4717 781 riscv-013.c:404 scan():  hartsello=438 dmactive -> 
Debug: 4718 781 riscv-013.c:393 scan(): 41b 4i - 00000000 @10 -> + 01b60001 @10
Debug: 4719 781 riscv-013.c:404 scan():  ->  hartsello=438 dmactive
Debug: 4720 781 riscv-013.c:393 scan(): 41b 4i r 00000000 @11 -> + 00000000 @10
Debug: 4721 781 riscv-013.c:393 scan(): 41b 4i - 00000000 @11 -> + 00003082 @11
Debug: 4722 782 riscv-013.c:404 scan():  ->  allunavail anyunavail authenticated version=2
Debug: 4723 782 riscv-013.c:393 scan(): 41b 4i r 00000000 @10 -> + 00000000 @11
Debug: 4724 782 riscv-013.c:393 scan(): 41b 4i - 00000000 @10 -> + 01b60001 @10
Debug: 4725 782 riscv-013.c:404 scan():  ->  hartsello=438 dmactive
Debug: 4726 782 riscv-013.c:393 scan(): 41b 4i w 01b70001 @10 -> + 00000000 @10
Debug: 4727 782 riscv-013.c:404 scan():  hartsello=439 dmactive -> 
Debug: 4728 783 riscv-013.c:393 scan(): 41b 4i - 00000000 @10 -> + 01b70001 @10
Debug: 4729 783 riscv-013.c:404 scan():  ->  hartsello=439 dmactive
Debug: 4730 783 riscv-013.c:393 scan(): 41b 4i r 00000000 @11 -> + 00000000 @10
Debug: 4731 783 riscv-013.c:393 scan(): 41b 4i - 00000000 @11 -> + 00003082 @11
Debug: 4732 783 riscv-013.c:404 scan():  ->  allunavail anyunavail authenticated version=2
Debug: 4733 784 riscv-013.c:393 scan(): 41b 4i r 00000000 @10 -> + 00000000 @11
Debug: 4734 784 riscv-013.c:393 scan(): 41b 4i - 00000000 @10 -> + 01b70001 @10
Debug: 4735 784 riscv-013.c:404 scan():  ->  hartsello=439 dmactive
Debug: 4736 784 riscv-013.c:393 scan(): 41b 4i w 01b80001 @10 -> + 00000000 @10
Debug: 4737 784 riscv-013.c:404 scan():  hartsello=440 dmactive -> 
Debug: 4738 784 riscv-013.c:393 scan(): 41b 4i - 00000000 @10 -> + 01b80001 @10
Debug: 4739 784 riscv-013.c:404 scan():  ->  hartsello=440 dmactive
Debug: 4740 785 riscv-013.c:393 scan(): 41b 4i r 00000000 @11 -> + 00000000 @10
Debug: 4741 785 riscv-013.c:393 scan(): 41b 4i - 00000000 @11 -> + 00003082 @11
Debug: 4742 785 riscv-013.c:404 scan():  ->  allunavail anyunavail authenticated version=2
Debug: 4743 785 riscv-013.c:393 scan(): 41b 4i r 00000000 @10 -> + 00000000 @11
Debug: 4744 786 riscv-013.c:393 scan(): 41b 4i - 00000000 @10 -> + 01b80001 @10
Debug: 4745 786 riscv-013.c:404 scan():  ->  hartsello=440 dmactive
Debug: 4746 786 riscv-013.c:393 scan(): 41b 4i w 01b90001 @10 -> + 00000000 @10
Debug: 4747 786 riscv-013.c:404 scan():  hartsello=441 dmactive -> 
Debug: 4748 786 riscv-013.c:393 scan(): 41b 4i - 00000000 @10 -> + 01b90001 @10
Debug: 4749 786 riscv-013.c:404 scan():  ->  hartsello=441 dmactive
Debug: 4750 786 riscv-013.c:393 scan(): 41b 4i r 00000000 @11 -> + 00000000 @10
Debug: 4751 787 riscv-013.c:393 scan(): 41b 4i - 00000000 @11 -> + 00003082 @11
Debug: 4752 787 riscv-013.c:404 scan():  ->  allunavail anyunavail authenticated version=2
Debug: 4753 787 riscv-013.c:393 scan(): 41b 4i r 00000000 @10 -> + 00000000 @11
Debug: 4754 787 riscv-013.c:393 scan(): 41b 4i - 00000000 @10 -> + 01b90001 @10
Debug: 4755 787 riscv-013.c:404 scan():  ->  hartsello=441 dmactive
Debug: 4756 788 riscv-013.c:393 scan(): 41b 4i w 01ba0001 @10 -> + 00000000 @10
Debug: 4757 788 riscv-013.c:404 scan():  hartsello=442 dmactive -> 
Debug: 4758 788 riscv-013.c:393 scan(): 41b 4i - 00000000 @10 -> + 01ba0001 @10
Debug: 4759 788 riscv-013.c:404 scan():  ->  hartsello=442 dmactive
Debug: 4760 788 riscv-013.c:393 scan(): 41b 4i r 00000000 @11 -> + 00000000 @10
Debug: 4761 789 riscv-013.c:393 scan(): 41b 4i - 00000000 @11 -> + 00003082 @11
Debug: 4762 789 riscv-013.c:404 scan():  ->  allunavail anyunavail authenticated version=2
Debug: 4763 789 riscv-013.c:393 scan(): 41b 4i r 00000000 @10 -> + 00000000 @11
Debug: 4764 789 riscv-013.c:393 scan(): 41b 4i - 00000000 @10 -> + 01ba0001 @10
Debug: 4765 789 riscv-013.c:404 scan():  ->  hartsello=442 dmactive
Debug: 4766 789 riscv-013.c:393 scan(): 41b 4i w 01bb0001 @10 -> + 00000000 @10
Debug: 4767 789 riscv-013.c:404 scan():  hartsello=443 dmactive -> 
Debug: 4768 790 riscv-013.c:393 scan(): 41b 4i - 00000000 @10 -> + 01bb0001 @10
Debug: 4769 790 riscv-013.c:404 scan():  ->  hartsello=443 dmactive
Debug: 4770 790 riscv-013.c:393 scan(): 41b 4i r 00000000 @11 -> + 00000000 @10
Debug: 4771 790 riscv-013.c:393 scan(): 41b 4i - 00000000 @11 -> + 00003082 @11
Debug: 4772 790 riscv-013.c:404 scan():  ->  allunavail anyunavail authenticated version=2
Debug: 4773 790 riscv-013.c:393 scan(): 41b 4i r 00000000 @10 -> + 00000000 @11
Debug: 4774 791 riscv-013.c:393 scan(): 41b 4i - 00000000 @10 -> + 01bb0001 @10
Debug: 4775 791 riscv-013.c:404 scan():  ->  hartsello=443 dmactive
Debug: 4776 791 riscv-013.c:393 scan(): 41b 4i w 01bc0001 @10 -> + 00000000 @10
Debug: 4777 791 riscv-013.c:404 scan():  hartsello=444 dmactive -> 
Debug: 4778 791 riscv-013.c:393 scan(): 41b 4i - 00000000 @10 -> + 01bc0001 @10
Debug: 4779 791 riscv-013.c:404 scan():  ->  hartsello=444 dmactive
Debug: 4780 792 riscv-013.c:393 scan(): 41b 4i r 00000000 @11 -> + 00000000 @10
Debug: 4781 792 riscv-013.c:393 scan(): 41b 4i - 00000000 @11 -> + 00003082 @11
Debug: 4782 792 riscv-013.c:404 scan():  ->  allunavail anyunavail authenticated version=2
Debug: 4783 792 riscv-013.c:393 scan(): 41b 4i r 00000000 @10 -> + 00000000 @11
Debug: 4784 793 riscv-013.c:393 scan(): 41b 4i - 00000000 @10 -> + 01bc0001 @10
Debug: 4785 793 riscv-013.c:404 scan():  ->  hartsello=444 dmactive
Debug: 4786 793 riscv-013.c:393 scan(): 41b 4i w 01bd0001 @10 -> + 00000000 @10
Debug: 4787 793 riscv-013.c:404 scan():  hartsello=445 dmactive -> 
Debug: 4788 793 riscv-013.c:393 scan(): 41b 4i - 00000000 @10 -> + 01bd0001 @10
Debug: 4789 793 riscv-013.c:404 scan():  ->  hartsello=445 dmactive
Debug: 4790 793 riscv-013.c:393 scan(): 41b 4i r 00000000 @11 -> + 00000000 @10
Debug: 4791 794 riscv-013.c:393 scan(): 41b 4i - 00000000 @11 -> + 00003082 @11
Debug: 4792 794 riscv-013.c:404 scan():  ->  allunavail anyunavail authenticated version=2
Debug: 4793 794 riscv-013.c:393 scan(): 41b 4i r 00000000 @10 -> + 00000000 @11
Debug: 4794 794 riscv-013.c:393 scan(): 41b 4i - 00000000 @10 -> + 01bd0001 @10
Debug: 4795 794 riscv-013.c:404 scan():  ->  hartsello=445 dmactive
Debug: 4796 794 riscv-013.c:393 scan(): 41b 4i w 01be0001 @10 -> + 00000000 @10
Debug: 4797 794 riscv-013.c:404 scan():  hartsello=446 dmactive -> 
Debug: 4798 795 riscv-013.c:393 scan(): 41b 4i - 00000000 @10 -> + 01be0001 @10
Debug: 4799 795 riscv-013.c:404 scan():  ->  hartsello=446 dmactive
Debug: 4800 795 riscv-013.c:393 scan(): 41b 4i r 00000000 @11 -> + 00000000 @10
Debug: 4801 795 riscv-013.c:393 scan(): 41b 4i - 00000000 @11 -> + 00003082 @11
Debug: 4802 795 riscv-013.c:404 scan():  ->  allunavail anyunavail authenticated version=2
Debug: 4803 796 riscv-013.c:393 scan(): 41b 4i r 00000000 @10 -> + 00000000 @11
Debug: 4804 796 riscv-013.c:393 scan(): 41b 4i - 00000000 @10 -> + 01be0001 @10
Debug: 4805 796 riscv-013.c:404 scan():  ->  hartsello=446 dmactive
Debug: 4806 796 riscv-013.c:393 scan(): 41b 4i w 01bf0001 @10 -> + 00000000 @10
Debug: 4807 796 riscv-013.c:404 scan():  hartsello=447 dmactive -> 
Debug: 4808 796 riscv-013.c:393 scan(): 41b 4i - 00000000 @10 -> + 01bf0001 @10
Debug: 4809 796 riscv-013.c:404 scan():  ->  hartsello=447 dmactive
Debug: 4810 797 riscv-013.c:393 scan(): 41b 4i r 00000000 @11 -> + 00000000 @10
Debug: 4811 797 riscv-013.c:393 scan(): 41b 4i - 00000000 @11 -> + 00003082 @11
Debug: 4812 797 riscv-013.c:404 scan():  ->  allunavail anyunavail authenticated version=2
Debug: 4813 797 riscv-013.c:393 scan(): 41b 4i r 00000000 @10 -> + 00000000 @11
Debug: 4814 797 riscv-013.c:393 scan(): 41b 4i - 00000000 @10 -> + 01bf0001 @10
Debug: 4815 797 riscv-013.c:404 scan():  ->  hartsello=447 dmactive
Debug: 4816 798 riscv-013.c:393 scan(): 41b 4i w 01c00001 @10 -> + 00000000 @10
Debug: 4817 798 riscv-013.c:404 scan():  hartsello=448 dmactive -> 
Debug: 4818 798 riscv-013.c:393 scan(): 41b 4i - 00000000 @10 -> + 01c00001 @10
Debug: 4819 798 riscv-013.c:404 scan():  ->  hartsello=448 dmactive
Debug: 4820 798 riscv-013.c:393 scan(): 41b 4i r 00000000 @11 -> + 00000000 @10
Debug: 4821 799 riscv-013.c:393 scan(): 41b 4i - 00000000 @11 -> + 00003082 @11
Debug: 4822 799 riscv-013.c:404 scan():  ->  allunavail anyunavail authenticated version=2
Debug: 4823 799 riscv-013.c:393 scan(): 41b 4i r 00000000 @10 -> + 00000000 @11
Debug: 4824 799 riscv-013.c:393 scan(): 41b 4i - 00000000 @10 -> + 01c00001 @10
Debug: 4825 799 riscv-013.c:404 scan():  ->  hartsello=448 dmactive
Debug: 4826 799 riscv-013.c:393 scan(): 41b 4i w 01c10001 @10 -> + 00000000 @10
Debug: 4827 800 riscv-013.c:404 scan():  hartsello=449 dmactive -> 
Debug: 4828 800 riscv-013.c:393 scan(): 41b 4i - 00000000 @10 -> + 01c10001 @10
Debug: 4829 800 riscv-013.c:404 scan():  ->  hartsello=449 dmactive
Debug: 4830 800 riscv-013.c:393 scan(): 41b 4i r 00000000 @11 -> + 00000000 @10
Debug: 4831 800 riscv-013.c:393 scan(): 41b 4i - 00000000 @11 -> + 00003082 @11
Debug: 4832 800 riscv-013.c:404 scan():  ->  allunavail anyunavail authenticated version=2
Debug: 4833 800 riscv-013.c:393 scan(): 41b 4i r 00000000 @10 -> + 00000000 @11
Debug: 4834 801 riscv-013.c:393 scan(): 41b 4i - 00000000 @10 -> + 01c10001 @10
Debug: 4835 801 riscv-013.c:404 scan():  ->  hartsello=449 dmactive
Debug: 4836 801 riscv-013.c:393 scan(): 41b 4i w 01c20001 @10 -> + 00000000 @10
Debug: 4837 801 riscv-013.c:404 scan():  hartsello=450 dmactive -> 
Debug: 4838 801 riscv-013.c:393 scan(): 41b 4i - 00000000 @10 -> + 01c20001 @10
Debug: 4839 801 riscv-013.c:404 scan():  ->  hartsello=450 dmactive
Debug: 4840 802 riscv-013.c:393 scan(): 41b 4i r 00000000 @11 -> + 00000000 @10
Debug: 4841 802 riscv-013.c:393 scan(): 41b 4i - 00000000 @11 -> + 00003082 @11
Debug: 4842 802 riscv-013.c:404 scan():  ->  allunavail anyunavail authenticated version=2
Debug: 4843 802 riscv-013.c:393 scan(): 41b 4i r 00000000 @10 -> + 00000000 @11
Debug: 4844 802 riscv-013.c:393 scan(): 41b 4i - 00000000 @10 -> + 01c20001 @10
Debug: 4845 802 riscv-013.c:404 scan():  ->  hartsello=450 dmactive
Debug: 4846 803 riscv-013.c:393 scan(): 41b 4i w 01c30001 @10 -> + 00000000 @10
Debug: 4847 803 riscv-013.c:404 scan():  hartsello=451 dmactive -> 
Debug: 4848 803 riscv-013.c:393 scan(): 41b 4i - 00000000 @10 -> + 01c30001 @10
Debug: 4849 803 riscv-013.c:404 scan():  ->  hartsello=451 dmactive
Debug: 4850 803 riscv-013.c:393 scan(): 41b 4i r 00000000 @11 -> + 00000000 @10
Debug: 4851 804 riscv-013.c:393 scan(): 41b 4i - 00000000 @11 -> + 00003082 @11
Debug: 4852 804 riscv-013.c:404 scan():  ->  allunavail anyunavail authenticated version=2
Debug: 4853 804 riscv-013.c:393 scan(): 41b 4i r 00000000 @10 -> + 00000000 @11
Debug: 4854 804 riscv-013.c:393 scan(): 41b 4i - 00000000 @10 -> + 01c30001 @10
Debug: 4855 804 riscv-013.c:404 scan():  ->  hartsello=451 dmactive
Debug: 4856 805 riscv-013.c:393 scan(): 41b 4i w 01c40001 @10 -> + 00000000 @10
Debug: 4857 805 riscv-013.c:404 scan():  hartsello=452 dmactive -> 
Debug: 4858 805 riscv-013.c:393 scan(): 41b 4i - 00000000 @10 -> + 01c40001 @10
Debug: 4859 805 riscv-013.c:404 scan():  ->  hartsello=452 dmactive
Debug: 4860 805 riscv-013.c:393 scan(): 41b 4i r 00000000 @11 -> + 00000000 @10
Debug: 4861 805 riscv-013.c:393 scan(): 41b 4i - 00000000 @11 -> + 00003082 @11
Debug: 4862 806 riscv-013.c:404 scan():  ->  allunavail anyunavail authenticated version=2
Debug: 4863 806 riscv-013.c:393 scan(): 41b 4i r 00000000 @10 -> + 00000000 @11
Debug: 4864 806 riscv-013.c:393 scan(): 41b 4i - 00000000 @10 -> + 01c40001 @10
Debug: 4865 806 riscv-013.c:404 scan():  ->  hartsello=452 dmactive
Debug: 4866 806 riscv-013.c:393 scan(): 41b 4i w 01c50001 @10 -> + 00000000 @10
Debug: 4867 806 riscv-013.c:404 scan():  hartsello=453 dmactive -> 
Debug: 4868 807 riscv-013.c:393 scan(): 41b 4i - 00000000 @10 -> + 01c50001 @10
Debug: 4869 807 riscv-013.c:404 scan():  ->  hartsello=453 dmactive
Debug: 4870 807 riscv-013.c:393 scan(): 41b 4i r 00000000 @11 -> + 00000000 @10
Debug: 4871 807 riscv-013.c:393 scan(): 41b 4i - 00000000 @11 -> + 00003082 @11
Debug: 4872 807 riscv-013.c:404 scan():  ->  allunavail anyunavail authenticated version=2
Debug: 4873 807 riscv-013.c:393 scan(): 41b 4i r 00000000 @10 -> + 00000000 @11
Debug: 4874 808 riscv-013.c:393 scan(): 41b 4i - 00000000 @10 -> + 01c50001 @10
Debug: 4875 808 riscv-013.c:404 scan():  ->  hartsello=453 dmactive
Debug: 4876 808 riscv-013.c:393 scan(): 41b 4i w 01c60001 @10 -> + 00000000 @10
Debug: 4877 808 riscv-013.c:404 scan():  hartsello=454 dmactive -> 
Debug: 4878 808 riscv-013.c:393 scan(): 41b 4i - 00000000 @10 -> + 01c60001 @10
Debug: 4879 808 riscv-013.c:404 scan():  ->  hartsello=454 dmactive
Debug: 4880 809 riscv-013.c:393 scan(): 41b 4i r 00000000 @11 -> + 00000000 @10
Debug: 4881 809 riscv-013.c:393 scan(): 41b 4i - 00000000 @11 -> + 00003082 @11
Debug: 4882 809 riscv-013.c:404 scan():  ->  allunavail anyunavail authenticated version=2
Debug: 4883 809 riscv-013.c:393 scan(): 41b 4i r 00000000 @10 -> + 00000000 @11
Debug: 4884 810 riscv-013.c:393 scan(): 41b 4i - 00000000 @10 -> + 01c60001 @10
Debug: 4885 810 riscv-013.c:404 scan():  ->  hartsello=454 dmactive
Debug: 4886 810 riscv-013.c:393 scan(): 41b 4i w 01c70001 @10 -> + 00000000 @10
Debug: 4887 810 riscv-013.c:404 scan():  hartsello=455 dmactive -> 
Debug: 4888 810 riscv-013.c:393 scan(): 41b 4i - 00000000 @10 -> + 01c70001 @10
Debug: 4889 810 riscv-013.c:404 scan():  ->  hartsello=455 dmactive
Debug: 4890 811 riscv-013.c:393 scan(): 41b 4i r 00000000 @11 -> + 00000000 @10
Debug: 4891 811 riscv-013.c:393 scan(): 41b 4i - 00000000 @11 -> + 00003082 @11
Debug: 4892 811 riscv-013.c:404 scan():  ->  allunavail anyunavail authenticated version=2
Debug: 4893 811 riscv-013.c:393 scan(): 41b 4i r 00000000 @10 -> + 00000000 @11
Debug: 4894 811 riscv-013.c:393 scan(): 41b 4i - 00000000 @10 -> + 01c70001 @10
Debug: 4895 811 riscv-013.c:404 scan():  ->  hartsello=455 dmactive
Debug: 4896 812 riscv-013.c:393 scan(): 41b 4i w 01c80001 @10 -> + 00000000 @10
Debug: 4897 812 riscv-013.c:404 scan():  hartsello=456 dmactive -> 
Debug: 4898 812 riscv-013.c:393 scan(): 41b 4i - 00000000 @10 -> + 01c80001 @10
Debug: 4899 812 riscv-013.c:404 scan():  ->  hartsello=456 dmactive
Debug: 4900 812 riscv-013.c:393 scan(): 41b 4i r 00000000 @11 -> + 00000000 @10
Debug: 4901 813 riscv-013.c:393 scan(): 41b 4i - 00000000 @11 -> + 00003082 @11
Debug: 4902 813 riscv-013.c:404 scan():  ->  allunavail anyunavail authenticated version=2
Debug: 4903 813 riscv-013.c:393 scan(): 41b 4i r 00000000 @10 -> + 00000000 @11
Debug: 4904 813 riscv-013.c:393 scan(): 41b 4i - 00000000 @10 -> + 01c80001 @10
Debug: 4905 813 riscv-013.c:404 scan():  ->  hartsello=456 dmactive
Debug: 4906 813 riscv-013.c:393 scan(): 41b 4i w 01c90001 @10 -> + 00000000 @10
Debug: 4907 813 riscv-013.c:404 scan():  hartsello=457 dmactive -> 
Debug: 4908 814 riscv-013.c:393 scan(): 41b 4i - 00000000 @10 -> + 01c90001 @10
Debug: 4909 814 riscv-013.c:404 scan():  ->  hartsello=457 dmactive
Debug: 4910 814 riscv-013.c:393 scan(): 41b 4i r 00000000 @11 -> + 00000000 @10
Debug: 4911 814 riscv-013.c:393 scan(): 41b 4i - 00000000 @11 -> + 00003082 @11
Debug: 4912 814 riscv-013.c:404 scan():  ->  allunavail anyunavail authenticated version=2
Debug: 4913 815 riscv-013.c:393 scan(): 41b 4i r 00000000 @10 -> + 00000000 @11
Debug: 4914 815 riscv-013.c:393 scan(): 41b 4i - 00000000 @10 -> + 01c90001 @10
Debug: 4915 815 riscv-013.c:404 scan():  ->  hartsello=457 dmactive
Debug: 4916 815 riscv-013.c:393 scan(): 41b 4i w 01ca0001 @10 -> + 00000000 @10
Debug: 4917 815 riscv-013.c:404 scan():  hartsello=458 dmactive -> 
Debug: 4918 816 riscv-013.c:393 scan(): 41b 4i - 00000000 @10 -> + 01ca0001 @10
Debug: 4919 816 riscv-013.c:404 scan():  ->  hartsello=458 dmactive
Debug: 4920 816 riscv-013.c:393 scan(): 41b 4i r 00000000 @11 -> + 00000000 @10
Debug: 4921 816 riscv-013.c:393 scan(): 41b 4i - 00000000 @11 -> + 00003082 @11
Debug: 4922 816 riscv-013.c:404 scan():  ->  allunavail anyunavail authenticated version=2
Debug: 4923 817 riscv-013.c:393 scan(): 41b 4i r 00000000 @10 -> + 00000000 @11
Debug: 4924 817 riscv-013.c:393 scan(): 41b 4i - 00000000 @10 -> + 01ca0001 @10
Debug: 4925 817 riscv-013.c:404 scan():  ->  hartsello=458 dmactive
Debug: 4926 817 riscv-013.c:393 scan(): 41b 4i w 01cb0001 @10 -> + 00000000 @10
Debug: 4927 817 riscv-013.c:404 scan():  hartsello=459 dmactive -> 
Debug: 4928 817 riscv-013.c:393 scan(): 41b 4i - 00000000 @10 -> + 01cb0001 @10
Debug: 4929 817 riscv-013.c:404 scan():  ->  hartsello=459 dmactive
Debug: 4930 818 riscv-013.c:393 scan(): 41b 4i r 00000000 @11 -> + 00000000 @10
Debug: 4931 818 riscv-013.c:393 scan(): 41b 4i - 00000000 @11 -> + 00003082 @11
Debug: 4932 818 riscv-013.c:404 scan():  ->  allunavail anyunavail authenticated version=2
Debug: 4933 818 riscv-013.c:393 scan(): 41b 4i r 00000000 @10 -> + 00000000 @11
Debug: 4934 819 riscv-013.c:393 scan(): 41b 4i - 00000000 @10 -> + 01cb0001 @10
Debug: 4935 819 riscv-013.c:404 scan():  ->  hartsello=459 dmactive
Debug: 4936 819 riscv-013.c:393 scan(): 41b 4i w 01cc0001 @10 -> + 00000000 @10
Debug: 4937 819 riscv-013.c:404 scan():  hartsello=460 dmactive -> 
Debug: 4938 819 riscv-013.c:393 scan(): 41b 4i - 00000000 @10 -> + 01cc0001 @10
Debug: 4939 819 riscv-013.c:404 scan():  ->  hartsello=460 dmactive
Debug: 4940 819 riscv-013.c:393 scan(): 41b 4i r 00000000 @11 -> + 00000000 @10
Debug: 4941 820 riscv-013.c:393 scan(): 41b 4i - 00000000 @11 -> + 00003082 @11
Debug: 4942 820 riscv-013.c:404 scan():  ->  allunavail anyunavail authenticated version=2
Debug: 4943 820 riscv-013.c:393 scan(): 41b 4i r 00000000 @10 -> + 00000000 @11
Debug: 4944 820 riscv-013.c:393 scan(): 41b 4i - 00000000 @10 -> + 01cc0001 @10
Debug: 4945 820 riscv-013.c:404 scan():  ->  hartsello=460 dmactive
Debug: 4946 821 riscv-013.c:393 scan(): 41b 4i w 01cd0001 @10 -> + 00000000 @10
Debug: 4947 821 riscv-013.c:404 scan():  hartsello=461 dmactive -> 
Debug: 4948 821 riscv-013.c:393 scan(): 41b 4i - 00000000 @10 -> + 01cd0001 @10
Debug: 4949 821 riscv-013.c:404 scan():  ->  hartsello=461 dmactive
Debug: 4950 821 riscv-013.c:393 scan(): 41b 4i r 00000000 @11 -> + 00000000 @10
Debug: 4951 821 riscv-013.c:393 scan(): 41b 4i - 00000000 @11 -> + 00003082 @11
Debug: 4952 821 riscv-013.c:404 scan():  ->  allunavail anyunavail authenticated version=2
Debug: 4953 822 riscv-013.c:393 scan(): 41b 4i r 00000000 @10 -> + 00000000 @11
Debug: 4954 822 riscv-013.c:393 scan(): 41b 4i - 00000000 @10 -> + 01cd0001 @10
Debug: 4955 822 riscv-013.c:404 scan():  ->  hartsello=461 dmactive
Debug: 4956 822 riscv-013.c:393 scan(): 41b 4i w 01ce0001 @10 -> + 00000000 @10
Debug: 4957 822 riscv-013.c:404 scan():  hartsello=462 dmactive -> 
Debug: 4958 823 riscv-013.c:393 scan(): 41b 4i - 00000000 @10 -> + 01ce0001 @10
Debug: 4959 823 riscv-013.c:404 scan():  ->  hartsello=462 dmactive
Debug: 4960 823 riscv-013.c:393 scan(): 41b 4i r 00000000 @11 -> + 00000000 @10
Debug: 4961 823 riscv-013.c:393 scan(): 41b 4i - 00000000 @11 -> + 00003082 @11
Debug: 4962 823 riscv-013.c:404 scan():  ->  allunavail anyunavail authenticated version=2
Debug: 4963 824 riscv-013.c:393 scan(): 41b 4i r 00000000 @10 -> + 00000000 @11
Debug: 4964 824 riscv-013.c:393 scan(): 41b 4i - 00000000 @10 -> + 01ce0001 @10
Debug: 4965 824 riscv-013.c:404 scan():  ->  hartsello=462 dmactive
Debug: 4966 824 riscv-013.c:393 scan(): 41b 4i w 01cf0001 @10 -> + 00000000 @10
Debug: 4967 824 riscv-013.c:404 scan():  hartsello=463 dmactive -> 
Debug: 4968 825 riscv-013.c:393 scan(): 41b 4i - 00000000 @10 -> + 01cf0001 @10
Debug: 4969 825 riscv-013.c:404 scan():  ->  hartsello=463 dmactive
Debug: 4970 825 riscv-013.c:393 scan(): 41b 4i r 00000000 @11 -> + 00000000 @10
Debug: 4971 825 riscv-013.c:393 scan(): 41b 4i - 00000000 @11 -> + 00003082 @11
Debug: 4972 825 riscv-013.c:404 scan():  ->  allunavail anyunavail authenticated version=2
Debug: 4973 825 riscv-013.c:393 scan(): 41b 4i r 00000000 @10 -> + 00000000 @11
Debug: 4974 826 riscv-013.c:393 scan(): 41b 4i - 00000000 @10 -> + 01cf0001 @10
Debug: 4975 826 riscv-013.c:404 scan():  ->  hartsello=463 dmactive
Debug: 4976 826 riscv-013.c:393 scan(): 41b 4i w 01d00001 @10 -> + 00000000 @10
Debug: 4977 826 riscv-013.c:404 scan():  hartsello=464 dmactive -> 
Debug: 4978 826 riscv-013.c:393 scan(): 41b 4i - 00000000 @10 -> + 01d00001 @10
Debug: 4979 826 riscv-013.c:404 scan():  ->  hartsello=464 dmactive
Debug: 4980 827 riscv-013.c:393 scan(): 41b 4i r 00000000 @11 -> + 00000000 @10
Debug: 4981 827 riscv-013.c:393 scan(): 41b 4i - 00000000 @11 -> + 00003082 @11
Debug: 4982 827 riscv-013.c:404 scan():  ->  allunavail anyunavail authenticated version=2
Debug: 4983 827 riscv-013.c:393 scan(): 41b 4i r 00000000 @10 -> + 00000000 @11
Debug: 4984 827 riscv-013.c:393 scan(): 41b 4i - 00000000 @10 -> + 01d00001 @10
Debug: 4985 827 riscv-013.c:404 scan():  ->  hartsello=464 dmactive
Debug: 4986 828 riscv-013.c:393 scan(): 41b 4i w 01d10001 @10 -> + 00000000 @10
Debug: 4987 828 riscv-013.c:404 scan():  hartsello=465 dmactive -> 
Debug: 4988 828 riscv-013.c:393 scan(): 41b 4i - 00000000 @10 -> + 01d10001 @10
Debug: 4989 828 riscv-013.c:404 scan():  ->  hartsello=465 dmactive
Debug: 4990 828 riscv-013.c:393 scan(): 41b 4i r 00000000 @11 -> + 00000000 @10
Debug: 4991 829 riscv-013.c:393 scan(): 41b 4i - 00000000 @11 -> + 00003082 @11
Debug: 4992 829 riscv-013.c:404 scan():  ->  allunavail anyunavail authenticated version=2
Debug: 4993 829 riscv-013.c:393 scan(): 41b 4i r 00000000 @10 -> + 00000000 @11
Debug: 4994 829 riscv-013.c:393 scan(): 41b 4i - 00000000 @10 -> + 01d10001 @10
Debug: 4995 829 riscv-013.c:404 scan():  ->  hartsello=465 dmactive
Debug: 4996 829 riscv-013.c:393 scan(): 41b 4i w 01d20001 @10 -> + 00000000 @10
Debug: 4997 829 riscv-013.c:404 scan():  hartsello=466 dmactive -> 
Debug: 4998 830 riscv-013.c:393 scan(): 41b 4i - 00000000 @10 -> + 01d20001 @10
Debug: 4999 830 riscv-013.c:404 scan():  ->  hartsello=466 dmactive
Debug: 5000 830 riscv-013.c:393 scan(): 41b 4i r 00000000 @11 -> + 00000000 @10
Debug: 5001 830 riscv-013.c:393 scan(): 41b 4i - 00000000 @11 -> + 00003082 @11
Debug: 5002 830 riscv-013.c:404 scan():  ->  allunavail anyunavail authenticated version=2
Debug: 5003 830 riscv-013.c:393 scan(): 41b 4i r 00000000 @10 -> + 00000000 @11
Debug: 5004 831 riscv-013.c:393 scan(): 41b 4i - 00000000 @10 -> + 01d20001 @10
Debug: 5005 831 riscv-013.c:404 scan():  ->  hartsello=466 dmactive
Debug: 5006 831 riscv-013.c:393 scan(): 41b 4i w 01d30001 @10 -> + 00000000 @10
Debug: 5007 831 riscv-013.c:404 scan():  hartsello=467 dmactive -> 
Debug: 5008 831 riscv-013.c:393 scan(): 41b 4i - 00000000 @10 -> + 01d30001 @10
Debug: 5009 831 riscv-013.c:404 scan():  ->  hartsello=467 dmactive
Debug: 5010 832 riscv-013.c:393 scan(): 41b 4i r 00000000 @11 -> + 00000000 @10
Debug: 5011 832 riscv-013.c:393 scan(): 41b 4i - 00000000 @11 -> + 00003082 @11
Debug: 5012 832 riscv-013.c:404 scan():  ->  allunavail anyunavail authenticated version=2
Debug: 5013 832 riscv-013.c:393 scan(): 41b 4i r 00000000 @10 -> + 00000000 @11
Debug: 5014 833 riscv-013.c:393 scan(): 41b 4i - 00000000 @10 -> + 01d30001 @10
Debug: 5015 833 riscv-013.c:404 scan():  ->  hartsello=467 dmactive
Debug: 5016 833 riscv-013.c:393 scan(): 41b 4i w 01d40001 @10 -> + 00000000 @10
Debug: 5017 833 riscv-013.c:404 scan():  hartsello=468 dmactive -> 
Debug: 5018 833 riscv-013.c:393 scan(): 41b 4i - 00000000 @10 -> + 01d40001 @10
Debug: 5019 833 riscv-013.c:404 scan():  ->  hartsello=468 dmactive
Debug: 5020 834 riscv-013.c:393 scan(): 41b 4i r 00000000 @11 -> + 00000000 @10
Debug: 5021 834 riscv-013.c:393 scan(): 41b 4i - 00000000 @11 -> + 00003082 @11
Debug: 5022 834 riscv-013.c:404 scan():  ->  allunavail anyunavail authenticated version=2
Debug: 5023 834 riscv-013.c:393 scan(): 41b 4i r 00000000 @10 -> + 00000000 @11
Debug: 5024 834 riscv-013.c:393 scan(): 41b 4i - 00000000 @10 -> + 01d40001 @10
Debug: 5025 835 riscv-013.c:404 scan():  ->  hartsello=468 dmactive
Debug: 5026 835 riscv-013.c:393 scan(): 41b 4i w 01d50001 @10 -> + 00000000 @10
Debug: 5027 835 riscv-013.c:404 scan():  hartsello=469 dmactive -> 
Debug: 5028 835 riscv-013.c:393 scan(): 41b 4i - 00000000 @10 -> + 01d50001 @10
Debug: 5029 835 riscv-013.c:404 scan():  ->  hartsello=469 dmactive
Debug: 5030 835 riscv-013.c:393 scan(): 41b 4i r 00000000 @11 -> + 00000000 @10
Debug: 5031 836 riscv-013.c:393 scan(): 41b 4i - 00000000 @11 -> + 00003082 @11
Debug: 5032 836 riscv-013.c:404 scan():  ->  allunavail anyunavail authenticated version=2
Debug: 5033 836 riscv-013.c:393 scan(): 41b 4i r 00000000 @10 -> + 00000000 @11
Debug: 5034 836 riscv-013.c:393 scan(): 41b 4i - 00000000 @10 -> + 01d50001 @10
Debug: 5035 836 riscv-013.c:404 scan():  ->  hartsello=469 dmactive
Debug: 5036 837 riscv-013.c:393 scan(): 41b 4i w 01d60001 @10 -> + 00000000 @10
Debug: 5037 837 riscv-013.c:404 scan():  hartsello=470 dmactive -> 
Debug: 5038 837 riscv-013.c:393 scan(): 41b 4i - 00000000 @10 -> + 01d60001 @10
Debug: 5039 837 riscv-013.c:404 scan():  ->  hartsello=470 dmactive
Debug: 5040 837 riscv-013.c:393 scan(): 41b 4i r 00000000 @11 -> + 00000000 @10
Debug: 5041 837 riscv-013.c:393 scan(): 41b 4i - 00000000 @11 -> + 00003082 @11
Debug: 5042 837 riscv-013.c:404 scan():  ->  allunavail anyunavail authenticated version=2
Debug: 5043 838 riscv-013.c:393 scan(): 41b 4i r 00000000 @10 -> + 00000000 @11
Debug: 5044 838 riscv-013.c:393 scan(): 41b 4i - 00000000 @10 -> + 01d60001 @10
Debug: 5045 838 riscv-013.c:404 scan():  ->  hartsello=470 dmactive
Debug: 5046 838 riscv-013.c:393 scan(): 41b 4i w 01d70001 @10 -> + 00000000 @10
Debug: 5047 838 riscv-013.c:404 scan():  hartsello=471 dmactive -> 
Debug: 5048 838 riscv-013.c:393 scan(): 41b 4i - 00000000 @10 -> + 01d70001 @10
Debug: 5049 838 riscv-013.c:404 scan():  ->  hartsello=471 dmactive
Debug: 5050 839 riscv-013.c:393 scan(): 41b 4i r 00000000 @11 -> + 00000000 @10
Debug: 5051 839 riscv-013.c:393 scan(): 41b 4i - 00000000 @11 -> + 00003082 @11
Debug: 5052 839 riscv-013.c:404 scan():  ->  allunavail anyunavail authenticated version=2
Debug: 5053 839 riscv-013.c:393 scan(): 41b 4i r 00000000 @10 -> + 00000000 @11
Debug: 5054 840 riscv-013.c:393 scan(): 41b 4i - 00000000 @10 -> + 01d70001 @10
Debug: 5055 840 riscv-013.c:404 scan():  ->  hartsello=471 dmactive
Debug: 5056 840 riscv-013.c:393 scan(): 41b 4i w 01d80001 @10 -> + 00000000 @10
Debug: 5057 840 riscv-013.c:404 scan():  hartsello=472 dmactive -> 
Debug: 5058 840 riscv-013.c:393 scan(): 41b 4i - 00000000 @10 -> + 01d80001 @10
Debug: 5059 840 riscv-013.c:404 scan():  ->  hartsello=472 dmactive
Debug: 5060 841 riscv-013.c:393 scan(): 41b 4i r 00000000 @11 -> + 00000000 @10
Debug: 5061 841 riscv-013.c:393 scan(): 41b 4i - 00000000 @11 -> + 00003082 @11
Debug: 5062 841 riscv-013.c:404 scan():  ->  allunavail anyunavail authenticated version=2
Debug: 5063 841 riscv-013.c:393 scan(): 41b 4i r 00000000 @10 -> + 00000000 @11
Debug: 5064 841 riscv-013.c:393 scan(): 41b 4i - 00000000 @10 -> + 01d80001 @10
Debug: 5065 841 riscv-013.c:404 scan():  ->  hartsello=472 dmactive
Debug: 5066 842 riscv-013.c:393 scan(): 41b 4i w 01d90001 @10 -> + 00000000 @10
Debug: 5067 842 riscv-013.c:404 scan():  hartsello=473 dmactive -> 
Debug: 5068 842 riscv-013.c:393 scan(): 41b 4i - 00000000 @10 -> + 01d90001 @10
Debug: 5069 842 riscv-013.c:404 scan():  ->  hartsello=473 dmactive
Debug: 5070 842 riscv-013.c:393 scan(): 41b 4i r 00000000 @11 -> + 00000000 @10
Debug: 5071 843 riscv-013.c:393 scan(): 41b 4i - 00000000 @11 -> + 00003082 @11
Debug: 5072 843 riscv-013.c:404 scan():  ->  allunavail anyunavail authenticated version=2
Debug: 5073 843 riscv-013.c:393 scan(): 41b 4i r 00000000 @10 -> + 00000000 @11
Debug: 5074 843 riscv-013.c:393 scan(): 41b 4i - 00000000 @10 -> + 01d90001 @10
Debug: 5075 843 riscv-013.c:404 scan():  ->  hartsello=473 dmactive
Debug: 5076 843 riscv-013.c:393 scan(): 41b 4i w 01da0001 @10 -> + 00000000 @10
Debug: 5077 843 riscv-013.c:404 scan():  hartsello=474 dmactive -> 
Debug: 5078 844 riscv-013.c:393 scan(): 41b 4i - 00000000 @10 -> + 01da0001 @10
Debug: 5079 844 riscv-013.c:404 scan():  ->  hartsello=474 dmactive
Debug: 5080 844 riscv-013.c:393 scan(): 41b 4i r 00000000 @11 -> + 00000000 @10
Debug: 5081 844 riscv-013.c:393 scan(): 41b 4i - 00000000 @11 -> + 00003082 @11
Debug: 5082 844 riscv-013.c:404 scan():  ->  allunavail anyunavail authenticated version=2
Debug: 5083 844 riscv-013.c:393 scan(): 41b 4i r 00000000 @10 -> + 00000000 @11
Debug: 5084 845 riscv-013.c:393 scan(): 41b 4i - 00000000 @10 -> + 01da0001 @10
Debug: 5085 845 riscv-013.c:404 scan():  ->  hartsello=474 dmactive
Debug: 5086 845 riscv-013.c:393 scan(): 41b 4i w 01db0001 @10 -> + 00000000 @10
Debug: 5087 845 riscv-013.c:404 scan():  hartsello=475 dmactive -> 
Debug: 5088 845 riscv-013.c:393 scan(): 41b 4i - 00000000 @10 -> + 01db0001 @10
Debug: 5089 845 riscv-013.c:404 scan():  ->  hartsello=475 dmactive
Debug: 5090 845 riscv-013.c:393 scan(): 41b 4i r 00000000 @11 -> + 00000000 @10
Debug: 5091 846 riscv-013.c:393 scan(): 41b 4i - 00000000 @11 -> + 00003082 @11
Debug: 5092 846 riscv-013.c:404 scan():  ->  allunavail anyunavail authenticated version=2
Debug: 5093 846 riscv-013.c:393 scan(): 41b 4i r 00000000 @10 -> + 00000000 @11
Debug: 5094 846 riscv-013.c:393 scan(): 41b 4i - 00000000 @10 -> + 01db0001 @10
Debug: 5095 846 riscv-013.c:404 scan():  ->  hartsello=475 dmactive
Debug: 5096 846 riscv-013.c:393 scan(): 41b 4i w 01dc0001 @10 -> + 00000000 @10
Debug: 5097 846 riscv-013.c:404 scan():  hartsello=476 dmactive -> 
Debug: 5098 847 riscv-013.c:393 scan(): 41b 4i - 00000000 @10 -> + 01dc0001 @10
Debug: 5099 847 riscv-013.c:404 scan():  ->  hartsello=476 dmactive
Debug: 5100 847 riscv-013.c:393 scan(): 41b 4i r 00000000 @11 -> + 00000000 @10
Debug: 5101 847 riscv-013.c:393 scan(): 41b 4i - 00000000 @11 -> + 00003082 @11
Debug: 5102 847 riscv-013.c:404 scan():  ->  allunavail anyunavail authenticated version=2
Debug: 5103 848 riscv-013.c:393 scan(): 41b 4i r 00000000 @10 -> + 00000000 @11
Debug: 5104 848 riscv-013.c:393 scan(): 41b 4i - 00000000 @10 -> + 01dc0001 @10
Debug: 5105 848 riscv-013.c:404 scan():  ->  hartsello=476 dmactive
Debug: 5106 848 riscv-013.c:393 scan(): 41b 4i w 01dd0001 @10 -> + 00000000 @10
Debug: 5107 848 riscv-013.c:404 scan():  hartsello=477 dmactive -> 
Debug: 5108 849 riscv-013.c:393 scan(): 41b 4i - 00000000 @10 -> + 01dd0001 @10
Debug: 5109 849 riscv-013.c:404 scan():  ->  hartsello=477 dmactive
Debug: 5110 849 riscv-013.c:393 scan(): 41b 4i r 00000000 @11 -> + 00000000 @10
Debug: 5111 849 riscv-013.c:393 scan(): 41b 4i - 00000000 @11 -> + 00003082 @11
Debug: 5112 849 riscv-013.c:404 scan():  ->  allunavail anyunavail authenticated version=2
Debug: 5113 850 riscv-013.c:393 scan(): 41b 4i r 00000000 @10 -> + 00000000 @11
Debug: 5114 850 riscv-013.c:393 scan(): 41b 4i - 00000000 @10 -> + 01dd0001 @10
Debug: 5115 850 riscv-013.c:404 scan():  ->  hartsello=477 dmactive
Debug: 5116 850 riscv-013.c:393 scan(): 41b 4i w 01de0001 @10 -> + 00000000 @10
Debug: 5117 850 riscv-013.c:404 scan():  hartsello=478 dmactive -> 
Debug: 5118 850 riscv-013.c:393 scan(): 41b 4i - 00000000 @10 -> + 01de0001 @10
Debug: 5119 850 riscv-013.c:404 scan():  ->  hartsello=478 dmactive
Debug: 5120 851 riscv-013.c:393 scan(): 41b 4i r 00000000 @11 -> + 00000000 @10
Debug: 5121 851 riscv-013.c:393 scan(): 41b 4i - 00000000 @11 -> + 00003082 @11
Debug: 5122 851 riscv-013.c:404 scan():  ->  allunavail anyunavail authenticated version=2
Debug: 5123 851 riscv-013.c:393 scan(): 41b 4i r 00000000 @10 -> + 00000000 @11
Debug: 5124 851 riscv-013.c:393 scan(): 41b 4i - 00000000 @10 -> + 01de0001 @10
Debug: 5125 851 riscv-013.c:404 scan():  ->  hartsello=478 dmactive
Debug: 5126 852 riscv-013.c:393 scan(): 41b 4i w 01df0001 @10 -> + 00000000 @10
Debug: 5127 852 riscv-013.c:404 scan():  hartsello=479 dmactive -> 
Debug: 5128 852 riscv-013.c:393 scan(): 41b 4i - 00000000 @10 -> + 01df0001 @10
Debug: 5129 852 riscv-013.c:404 scan():  ->  hartsello=479 dmactive
Debug: 5130 852 riscv-013.c:393 scan(): 41b 4i r 00000000 @11 -> + 00000000 @10
Debug: 5131 853 riscv-013.c:393 scan(): 41b 4i - 00000000 @11 -> + 00003082 @11
Debug: 5132 853 riscv-013.c:404 scan():  ->  allunavail anyunavail authenticated version=2
Debug: 5133 853 riscv-013.c:393 scan(): 41b 4i r 00000000 @10 -> + 00000000 @11
Debug: 5134 853 riscv-013.c:393 scan(): 41b 4i - 00000000 @10 -> + 01df0001 @10
Debug: 5135 853 riscv-013.c:404 scan():  ->  hartsello=479 dmactive
Debug: 5136 853 riscv-013.c:393 scan(): 41b 4i w 01e00001 @10 -> + 00000000 @10
Debug: 5137 853 riscv-013.c:404 scan():  hartsello=480 dmactive -> 
Debug: 5138 854 riscv-013.c:393 scan(): 41b 4i - 00000000 @10 -> + 01e00001 @10
Debug: 5139 854 riscv-013.c:404 scan():  ->  hartsello=480 dmactive
Debug: 5140 854 riscv-013.c:393 scan(): 41b 4i r 00000000 @11 -> + 00000000 @10
Debug: 5141 854 riscv-013.c:393 scan(): 41b 4i - 00000000 @11 -> + 00003082 @11
Debug: 5142 854 riscv-013.c:404 scan():  ->  allunavail anyunavail authenticated version=2
Debug: 5143 855 riscv-013.c:393 scan(): 41b 4i r 00000000 @10 -> + 00000000 @11
Debug: 5144 855 riscv-013.c:393 scan(): 41b 4i - 00000000 @10 -> + 01e00001 @10
Debug: 5145 855 riscv-013.c:404 scan():  ->  hartsello=480 dmactive
Debug: 5146 855 riscv-013.c:393 scan(): 41b 4i w 01e10001 @10 -> + 00000000 @10
Debug: 5147 855 riscv-013.c:404 scan():  hartsello=481 dmactive -> 
Debug: 5148 855 riscv-013.c:393 scan(): 41b 4i - 00000000 @10 -> + 01e10001 @10
Debug: 5149 855 riscv-013.c:404 scan():  ->  hartsello=481 dmactive
Debug: 5150 856 riscv-013.c:393 scan(): 41b 4i r 00000000 @11 -> + 00000000 @10
Debug: 5151 856 riscv-013.c:393 scan(): 41b 4i - 00000000 @11 -> + 00003082 @11
Debug: 5152 856 riscv-013.c:404 scan():  ->  allunavail anyunavail authenticated version=2
Debug: 5153 856 riscv-013.c:393 scan(): 41b 4i r 00000000 @10 -> + 00000000 @11
Debug: 5154 856 riscv-013.c:393 scan(): 41b 4i - 00000000 @10 -> + 01e10001 @10
Debug: 5155 856 riscv-013.c:404 scan():  ->  hartsello=481 dmactive
Debug: 5156 857 riscv-013.c:393 scan(): 41b 4i w 01e20001 @10 -> + 00000000 @10
Debug: 5157 857 riscv-013.c:404 scan():  hartsello=482 dmactive -> 
Debug: 5158 857 riscv-013.c:393 scan(): 41b 4i - 00000000 @10 -> + 01e20001 @10
Debug: 5159 857 riscv-013.c:404 scan():  ->  hartsello=482 dmactive
Debug: 5160 857 riscv-013.c:393 scan(): 41b 4i r 00000000 @11 -> + 00000000 @10
Debug: 5161 858 riscv-013.c:393 scan(): 41b 4i - 00000000 @11 -> + 00003082 @11
Debug: 5162 858 riscv-013.c:404 scan():  ->  allunavail anyunavail authenticated version=2
Debug: 5163 858 riscv-013.c:393 scan(): 41b 4i r 00000000 @10 -> + 00000000 @11
Debug: 5164 858 riscv-013.c:393 scan(): 41b 4i - 00000000 @10 -> + 01e20001 @10
Debug: 5165 858 riscv-013.c:404 scan():  ->  hartsello=482 dmactive
Debug: 5166 858 riscv-013.c:393 scan(): 41b 4i w 01e30001 @10 -> + 00000000 @10
Debug: 5167 858 riscv-